# vsim -vopt work.HvlTop work.HdlTop -voptargs="+acc=npr" -sv_seed random -assertdebug "+UVM_TESTNAME=AhbLength8WriteFollowedByReadTest" "+UVM_VERBOSITY=UVM_HIGH" "+define+" -l AhbLength8WriteFollowedByReadTest/AhbLength8WriteFollowedByReadTest.log -sva -coverage -c -do "log -r /*; add wave -r /*; coverage save -onexit -assert -directive -cvg -codeAll AhbLength8WriteFollowedByReadTest/AhbLength8WriteFollowedByReadTest_coverage.ucdb; run -all; exit" -wlf AhbLength8WriteFollowedByReadTest/waveform.wlf 
# Start time: 10:58:03 on Apr 29,2026
# ** Note: (vsim-3812) Design is being optimized...
# ** Warning: ../../src/hdlTop/interconnect/AhbInterconnect.sv(222): (vopt-2182) 'slave_data_phase[0][0]' might be read before written in always_comb or always @* block.
# ** Warning: ../../src/hdlTop/interconnect/AhbInterconnect.sv(222): (vopt-2182) 'slave_data_phase[1][0]' might be read before written in always_comb or always @* block.
# ** Warning: ../../src/hdlTop/masterAgentBFM/AhbMasterAgentBFM.sv(41): (vopt-2685) [TFMPC] - Too few port connections for 'ahbMasterMonitorBFM'.  Expected 20, found 19.
# ** Warning: ../../src/hdlTop/masterAgentBFM/AhbMasterAgentBFM.sv(41): (vopt-2718) [TFMPC] - Missing connection for port 'hselx'.
# ** Warning: ../../src/hdlTop/masterAgentBFM/AhbMasterAgentBFM.sv(41): (vopt-2685) [TFMPC] - Too few port connections for 'ahbMasterMonitorBFM'.  Expected 20, found 19.
# ** Warning: ../../src/hdlTop/masterAgentBFM/AhbMasterAgentBFM.sv(41): (vopt-2718) [TFMPC] - Missing connection for port 'hselx'.
# ** Warning: ../../src/hvlTop/environment/AhbScoreboard.sv(261): (vopt-2897) Using non-standard foreach loop variable list syntax.
# ** Warning: ../../src/hvlTop/environment/AhbScoreboard.sv(261): (vopt-2897) Using non-standard foreach loop variable list syntax.
# ** Warning: ../../src/hvlTop/tb/test/AhbBaseTest.sv(68): (vopt-2240) Treating stand-alone use of function 'randomize' as an implicit VOID cast.
# ** Warning: ../../src/hvlTop/tb/test/AhbBaseTest.sv(69): (vopt-2240) Treating stand-alone use of function 'randomize' as an implicit VOID cast.
# //  Questa Sim
# //  Version 10.6c linux Jul 25 2017
# //
# //  Copyright 1991-2017 Mentor Graphics Corporation
# //  All Rights Reserved.
# //
# //  QuestaSim and its associated documentation contain trade
# //  secrets and commercial or financial information that are the property of
# //  Mentor Graphics Corporation and are privileged, confidential,
# //  and exempt from disclosure under the Freedom of Information Act,
# //  5 U.S.C. Section 552. Furthermore, this information
# //  is prohibited from disclosure under the Trade Secrets Act,
# //  18 U.S.C. Section 1905.
# //
# Loading sv_std.std
# Loading work.AhbMasterDriverBFM(fast)
# Loading work.AhbSlaveMonitorBFM(fast)
# Loading work.AhbGlobalPackage(fast)
# Loading mtiUvm.uvm_pkg
# Loading work.AhbSlavePackage(fast)
# Loading work.AhbMasterPackage(fast)
# Loading work.AhbEnvironmentPackage(fast)
# Loading work.AhbSlaveSequencePackage(fast)
# Loading work.AhbMasterSequencePackage(fast)
# Loading work.AhbVirtualSequencePackage(fast)
# Loading work.AhbTestPackage(fast)
# Loading work.AhbMasterMonitorBFM(fast)
# Loading work.AhbSlaveDriverBFM(fast)
# Loading work.HvlTop(fast)
# Loading work.HdlTop(fast)
# Loading work.AhbInterconnect_sv_unit(fast)
# Loading work.AhbInterconnect(fast)
# Loading work.AhbMasterAgentBFM(fast)
# Loading work.AhbMasterDriverBFM_sv_unit(fast)
# Loading work.AhbMasterDriverBFM(fast)
# Loading work.AhbMasterMonitorBFM_sv_unit(fast)
# Loading work.AhbMasterMonitorBFM(fast)
# Loading work.AhbMasterAgentBFM(fast__1)
# Loading work.AhbSlaveAgentBFM(fast)
# Loading work.AhbSlaveDriverBFM_sv_unit(fast)
# Loading work.AhbSlaveDriverBFM(fast)
# Loading work.AhbSlaveMonitorBFM_sv_unit(fast)
# Loading work.AhbSlaveMonitorBFM(fast)
# Loading work.AhbSlaveAgentBFM(fast__1)
# Loading mtiUvm.questa_uvm_pkg(fast)
# Loading work.AhbInterface_sv_unit(fast)
# Loading work.AhbInterface(fast__1)
# Loading work.AhbInterface(fast__2)
# ** Warning: (vsim-3015) ../../src/hdlTop/slaveAgentBFM/AhbSlaveAgentBFM.sv(40): [PCDPC] - Port size (2) does not match connection size (1) for port 'hselx'. The port definition is at: ../../src/hdlTop/slaveAgentBFM/AhbSlaveMonitorBFM.sv(25).
#    Time: 0 ns  Iteration: 0  Instance: /HdlTop/genblk2[0]/ahbSlaveAgentBFM/ahbSlaveMonitorBFM File: ../../src/hdlTop/slaveAgentBFM/AhbSlaveMonitorBFM.sv
# ** Warning: (vsim-3015) ../../src/hdlTop/slaveAgentBFM/AhbSlaveAgentBFM.sv(40): [PCDPC] - Port size (2) does not match connection size (1) for port 'hselx'. The port definition is at: ../../src/hdlTop/slaveAgentBFM/AhbSlaveMonitorBFM.sv(25).
#    Time: 0 ns  Iteration: 0  Instance: /HdlTop/genblk2[1]/ahbSlaveAgentBFM/ahbSlaveMonitorBFM File: ../../src/hdlTop/slaveAgentBFM/AhbSlaveMonitorBFM.sv
# Loading /tools/mentor/questasim_10.6c/questasim/uvm-1.1d/linux/uvm_dpi.so
# ** Warning: (vsim-PLI-3003) ../../src/hvlTop/environment/AhbScoreboard.sv(225): [TOFD] - System task or function '$sformatd' is not defined.
#    Time: 0 ns  Iteration: 0  Region: /AhbEnvironmentPackage::AhbScoreboard::run_phase/#anonblk#49292597#184#2#/#ublk#49292597#184/#ublk#49292597#187 File: ../../src/hvlTop/environment/AhbEnvironmentPackage.sv
# Sv_Seed = 3876762503
# log -r /*
#  add wave -r /*
#  coverage save -onexit -assert -directive -cvg -codeAll AhbLength8WriteFollowedByReadTest/AhbLength8WriteFollowedByReadTest_coverage.ucdb
#  run -all
# ----------------------------------------------------------------
# UVM-1.1d
# (C) 2007-2013 Mentor Graphics Corporation
# (C) 2007-2013 Cadence Design Systems, Inc.
# (C) 2006-2013 Synopsys, Inc.
# (C) 2011-2013 Cypress Semiconductor Corp.
# ----------------------------------------------------------------
# 
#   ***********       IMPORTANT RELEASE NOTES         ************
# 
#   You are using a version of the UVM library that has been compiled
#   with `UVM_NO_DEPRECATED undefined.
#   See http://www.eda.org/svdb/view.php?id=3313 for more details.
# 
#   You are using a version of the UVM library that has been compiled
#   with `UVM_OBJECT_MUST_HAVE_CONSTRUCTOR undefined.
#   See http://www.eda.org/svdb/view.php?id=3770 for more details.
# 
#       (Specify +UVM_NO_RELNOTES to turn off this notice)
# 
# UVM_INFO verilog_src/questa_uvm_pkg-1.2/src/questa_uvm_pkg.sv(215) @ 0: reporter [Questa UVM] QUESTA_UVM-1.2.3
# UVM_INFO verilog_src/questa_uvm_pkg-1.2/src/questa_uvm_pkg.sv(217) @ 0: reporter [Questa UVM]  questa_uvm::init(+struct)
# UVM_INFO @ 0: reporter [RNTST] Running test AhbLength8WriteFollowedByReadTest...
# UVM_INFO ../../src/hdlTop/HdlTop.sv(13) @ 0: reporter [HDL_TOP] HDL_TOP
# UVM_INFO ../../src/hdlTop/masterAgentBFM/AhbMasterAgentBFM.sv(15) @ 0: reporter [ahb master agent bfm] AHB MASTER AGENT BFM id is 0
# THE MASTER AGENT ARE  CREATED AS EXPECTED HdlTop.genblk1[0].ahbMasterAgentBFM.ahbMasterDriverBFM.MASTER_DRIVER
# UVM_INFO ../../src/hdlTop/masterAgentBFM/AhbMasterMonitorBFM.sv(43) @ 0: reporter [AHB_MASTER_MONITOR_BFM] AHB MASTER MONITOR BFM
# UVM_INFO ../../src/hdlTop/masterAgentBFM/AhbMasterAgentBFM.sv(15) @ 0: reporter [ahb master agent bfm] AHB MASTER AGENT BFM id is 1
# THE MASTER AGENT ARE  CREATED AS EXPECTED HdlTop.genblk1[1].ahbMasterAgentBFM.ahbMasterDriverBFM.MASTER_DRIVER
# UVM_INFO ../../src/hdlTop/masterAgentBFM/AhbMasterMonitorBFM.sv(43) @ 0: reporter [AHB_MASTER_MONITOR_BFM] AHB MASTER MONITOR BFM
# UVM_INFO ../../src/hdlTop/slaveAgentBFM/AhbSlaveAgentBFM.sv(14) @ 0: reporter [ahb slave agent bfm] AHB SLAVE AGENT BFM 0
# UVM_INFO ../../src/hdlTop/slaveAgentBFM/AhbSlaveDriverBFM.sv(40) @ 0: reporter [AHB_SLAVE_DRIVER_BFM] AHB_SLAVE_DRIVER_BFM
# UVM_INFO ../../src/hdlTop/slaveAgentBFM/AhbSlaveMonitorBFM.sv(44) @ 0: reporter [AHB_SLAVE_MONITOR_BFM] AHB_SLAVE_MONITOR_BFM
# UVM_INFO ../../src/hdlTop/slaveAgentBFM/AhbSlaveAgentBFM.sv(14) @ 0: reporter [ahb slave agent bfm] AHB SLAVE AGENT BFM 1
# UVM_INFO ../../src/hdlTop/slaveAgentBFM/AhbSlaveDriverBFM.sv(40) @ 0: reporter [AHB_SLAVE_DRIVER_BFM] AHB_SLAVE_DRIVER_BFM
# UVM_INFO ../../src/hdlTop/slaveAgentBFM/AhbSlaveMonitorBFM.sv(44) @ 0: reporter [AHB_SLAVE_MONITOR_BFM] AHB_SLAVE_MONITOR_BFM
#                    0else hready 0 master [1] can_accept=0 oldest_is_ready=1
#                    0else hready 0 master [0] can_accept=0 oldest_is_ready=1
#  1st hwdata = x
# [0] ahbSlaveInterface[1].haddr = x
#  2nd hwdata = x
#  1st hwdata = x
# [0] ahbSlaveInterface[0].haddr = x
#  2nd hwdata = x
# ENTERED THIS BLOCK @0
# ENTERED THIS BLOCK @0
# ** Info: THE REQ IS x for the slave 1
#    Time: 0 ns  Scope: HdlTop.ahbinterconnect.genblk5[1].genblk1[1] File: ../../src/hdlTop/interconnect/AhbInterconnect.sv Line: 187
# ** Info: THE GRANT IS x for the slave 1 addr is x for master 1
#    Time: 0 ns  Scope: HdlTop.ahbinterconnect.genblk5[1].genblk1[1] File: ../../src/hdlTop/interconnect/AhbInterconnect.sv Line: 188
# ** Info: THE REQ IS x for the slave 1
#    Time: 0 ns  Scope: HdlTop.ahbinterconnect.genblk5[1].genblk1[0] File: ../../src/hdlTop/interconnect/AhbInterconnect.sv Line: 187
# ** Info: THE GRANT IS x for the slave 1 addr is x for master 0
#    Time: 0 ns  Scope: HdlTop.ahbinterconnect.genblk5[1].genblk1[0] File: ../../src/hdlTop/interconnect/AhbInterconnect.sv Line: 188
# ** Info: THE REQ IS x for the slave 0
#    Time: 0 ns  Scope: HdlTop.ahbinterconnect.genblk5[0].genblk1[1] File: ../../src/hdlTop/interconnect/AhbInterconnect.sv Line: 187
# ** Info: THE GRANT IS x for the slave 0 addr is x for master 1
#    Time: 0 ns  Scope: HdlTop.ahbinterconnect.genblk5[0].genblk1[1] File: ../../src/hdlTop/interconnect/AhbInterconnect.sv Line: 188
# ** Info: THE REQ IS x for the slave 0
#    Time: 0 ns  Scope: HdlTop.ahbinterconnect.genblk5[0].genblk1[0] File: ../../src/hdlTop/interconnect/AhbInterconnect.sv Line: 187
# ** Info: THE GRANT IS x for the slave 0 addr is x for master 0
#    Time: 0 ns  Scope: HdlTop.ahbinterconnect.genblk5[0].genblk1[0] File: ../../src/hdlTop/interconnect/AhbInterconnect.sv Line: 188
# invalid  address x
# invalid  address x
# invalid  address x
# invalid  address x
# [0] my_slave = 0, my_read_owner = x
# [0] my_slave = 0, my_read_owner = x
# [0] my_slave = 1, my_read_owner = x
# [0] my_slave = 1, my_read_owner = x
#                    0else hready 0 master [0] can_accept=0 oldest_is_ready=1
#                    0else hready 0 master [1] can_accept=0 oldest_is_ready=1
# ENTERED THIS BLOCK @0
# ENTERED THIS BLOCK @0
# THE MASTER FIELD IS AhbMasterDriverBFM0 
# THE MASTER FIELD IS AhbMasterDriverBFM1 
# UVM_INFO ../../src/hvlTop/tb/test/AhbBaseTest.sv(57) @ 0: uvm_test_top [AhbLength8WriteFollowedByReadTest] 
# AHB_MASTER_CONFIG[0]
# ----------------------------------------------------------
# Name                     Type                  Size  Value
# ----------------------------------------------------------
# AhbMasterAgentConfig[0]  AhbMasterAgentConfig  -     @505 
#   is_active              integral              1     1    
#   hasCoverage            integral              1     1    
# ----------------------------------------------------------
# 
# UVM_INFO ../../src/hvlTop/tb/test/AhbBaseTest.sv(57) @ 0: uvm_test_top [AhbLength8WriteFollowedByReadTest] 
# AHB_MASTER_CONFIG[1]
# ----------------------------------------------------------
# Name                     Type                  Size  Value
# ----------------------------------------------------------
# AhbMasterAgentConfig[1]  AhbMasterAgentConfig  -     @506 
#   is_active              integral              1     1    
#   hasCoverage            integral              1     1    
# ----------------------------------------------------------
# 
# THE FIELD IS AhbSlaveDriverBFM0
# THE FIELD IS AhbSlaveDriverBFM1
# UVM_INFO ../../src/hvlTop/tb/test/AhbBaseTest.sv(75) @ 0: uvm_test_top [AhbLength8WriteFollowedByReadTest] 
# AHB_SLAVE_CONFIG[0]
# -------------------------------------------------------------
# Name                    Type                 Size  Value     
# -------------------------------------------------------------
# AhbSlaveAgentConfig[0]  AhbSlaveAgentConfig  -     @517      
#   is_active             string               10    UVM_ACTIVE
#   hasCoverage           integral             1     1         
#   maximumAddress        integral             32    'h0       
#   minimumAddress        integral             32    'h0       
# -------------------------------------------------------------
# 
# UVM_INFO ../../src/hvlTop/tb/test/AhbBaseTest.sv(75) @ 0: uvm_test_top [AhbLength8WriteFollowedByReadTest] 
# AHB_SLAVE_CONFIG[1]
# -------------------------------------------------------------
# Name                    Type                 Size  Value     
# -------------------------------------------------------------
# AhbSlaveAgentConfig[1]  AhbSlaveAgentConfig  -     @518      
#   is_active             string               10    UVM_ACTIVE
#   hasCoverage           integral             1     1         
#   maximumAddress        integral             32    'h0       
#   minimumAddress        integral             32    'h0       
# -------------------------------------------------------------
# 
# UVM_INFO ../../src/hvlTop/tb/test/AhbBaseTest.sv(79) @ 0: uvm_test_top [AhbLength8WriteFollowedByReadTest] 
# AHB_ENV_CONFIG
# -------------------------------------------------------------
# Name                   Type                  Size  Value     
# -------------------------------------------------------------
# ahbEnvironmentConfig   AhbEnvironmentConfig  -     @504      
#   hasScoreboard        integral              1     1         
#   hasVirtualSequencer  integral              1     1         
#   noOfMasters          integral              32    'd2       
#   noOfSlaves           integral              32    'd2       
#   operationMode        integral              2     2         
#   operationMode        string                10    WRITE_READ
# -------------------------------------------------------------
# 
# ASSIGNMENT IN ENV IS 0
# ASSIGNMENT IN ENV IS 0
# THE CONFIG IS 65903
# THE CONFIG IS 131439
# THE NUMBER OF WAIT IS 0
# IN THE SLAVE PROXY THE  0
# THE NUMBER OF WAIT IS 0
# IN THE SLAVE PROXY THE  0
# UVM_INFO @ 0: reporter [UVMTOP] UVM testbench topology:
# ------------------------------------------------------------------------------
# Name                            Type                               Size  Value
# ------------------------------------------------------------------------------
# uvm_test_top                    AhbLength8WriteFollowedByReadTest  -     @473 
#   swasthik                      AhbEnvironment                     -     @533 
#     ahbMasterAgent[0]           AhbMasterAgent                     -     @543 
#       ahbMasterCoverage         AhbMasterCoverage                  -     @1025
#         analysis_imp            uvm_analysis_imp                   -     @1032
#       ahbMasterDriverProxy      AhbMasterDriverProxy               -     @987 
#         rsp_port                uvm_analysis_port                  -     @1002
#         seq_item_port           uvm_seq_item_pull_port             -     @994 
#       ahbMasterMonitorProxy     AhbMasterMonitorProxy              -     @1010
#         ahbMasterAnalysisPort   uvm_analysis_port                  -     @1017
#       ahbMasterSequencer        AhbMasterSequencer                 -     @878 
#         rsp_export              uvm_analysis_export                -     @885 
#         seq_item_export         uvm_seq_item_pull_imp              -     @979 
#         arbitration_queue       array                              0     -    
#         lock_queue              array                              0     -    
#         num_last_reqs           integral                           32    'd1  
#         num_last_rsps           integral                           32    'd1  
#     ahbMasterAgent[1]           AhbMasterAgent                     -     @550 
#       ahbMasterCoverage         AhbMasterCoverage                  -     @1193
#         analysis_imp            uvm_analysis_imp                   -     @1200
#       ahbMasterDriverProxy      AhbMasterDriverProxy               -     @1155
#         rsp_port                uvm_analysis_port                  -     @1170
#         seq_item_port           uvm_seq_item_pull_port             -     @1162
#       ahbMasterMonitorProxy     AhbMasterMonitorProxy              -     @1178
#         ahbMasterAnalysisPort   uvm_analysis_port                  -     @1185
#       ahbMasterSequencer        AhbMasterSequencer                 -     @1046
#         rsp_export              uvm_analysis_export                -     @1053
#         seq_item_export         uvm_seq_item_pull_imp              -     @1147
#         arbitration_queue       array                              0     -    
#         lock_queue              array                              0     -    
#         num_last_reqs           integral                           32    'd1  
#         num_last_rsps           integral                           32    'd1  
#     ahbScoreboard               AhbScoreboard                      -     @682 
#       ahbMasterAnalysisFifo[0]  uvm_tlm_analysis_fifo #(T)         -     @689 
#         analysis_export         uvm_analysis_imp                   -     @728 
#         get_ap                  uvm_analysis_port                  -     @720 
#         get_peek_export         uvm_get_peek_imp                   -     @704 
#         put_ap                  uvm_analysis_port                  -     @712 
#         put_export              uvm_put_imp                        -     @696 
#       ahbMasterAnalysisFifo[1]  uvm_tlm_analysis_fifo #(T)         -     @736 
#         analysis_export         uvm_analysis_imp                   -     @775 
#         get_ap                  uvm_analysis_port                  -     @767 
#         get_peek_export         uvm_get_peek_imp                   -     @751 
#         put_ap                  uvm_analysis_port                  -     @759 
#         put_export              uvm_put_imp                        -     @743 
#       ahbSlaveAnalysisFifo[0]   uvm_tlm_analysis_fifo #(T)         -     @783 
#         analysis_export         uvm_analysis_imp                   -     @822 
#         get_ap                  uvm_analysis_port                  -     @814 
#         get_peek_export         uvm_get_peek_imp                   -     @798 
#         put_ap                  uvm_analysis_port                  -     @806 
#         put_export              uvm_put_imp                        -     @790 
#       ahbSlaveAnalysisFifo[1]   uvm_tlm_analysis_fifo #(T)         -     @830 
#         analysis_export         uvm_analysis_imp                   -     @869 
#         get_ap                  uvm_analysis_port                  -     @861 
#         get_peek_export         uvm_get_peek_imp                   -     @845 
#         put_ap                  uvm_analysis_port                  -     @853 
#         put_export              uvm_put_imp                        -     @837 
#     ahbSlaveAgent[0]            AhbSlaveAgent                      -     @559 
#       ahbSlaveCoverage          AhbSlaveCoverage                   -     @1362
#         analysis_imp            uvm_analysis_imp                   -     @1369
#       ahbSlaveDriverProxy       AhbSlaveDriverProxy                -     @1324
#         rsp_port                uvm_analysis_port                  -     @1339
#         seq_item_port           uvm_seq_item_pull_port             -     @1331
#       ahbSlaveMonitorProxy      AhbSlaveMonitorProxy               -     @1347
#         ahbSlaveAnalysisPort    uvm_analysis_port                  -     @1354
#       ahbSlaveSequencer         AhbSlaveSequencer                  -     @1215
#         rsp_export              uvm_analysis_export                -     @1222
#         seq_item_export         uvm_seq_item_pull_imp              -     @1316
#         arbitration_queue       array                              0     -    
#         lock_queue              array                              0     -    
#         num_last_reqs           integral                           32    'd1  
#         num_last_rsps           integral                           32    'd1  
#     ahbSlaveAgent[1]            AhbSlaveAgent                      -     @566 
#       ahbSlaveCoverage          AhbSlaveCoverage                   -     @1530
#         analysis_imp            uvm_analysis_imp                   -     @1537
#       ahbSlaveDriverProxy       AhbSlaveDriverProxy                -     @1492
#         rsp_port                uvm_analysis_port                  -     @1507
#         seq_item_port           uvm_seq_item_pull_port             -     @1499
#       ahbSlaveMonitorProxy      AhbSlaveMonitorProxy               -     @1515
#         ahbSlaveAnalysisPort    uvm_analysis_port                  -     @1522
#       ahbSlaveSequencer         AhbSlaveSequencer                  -     @1383
#         rsp_export              uvm_analysis_export                -     @1390
#         seq_item_export         uvm_seq_item_pull_imp              -     @1484
#         arbitration_queue       array                              0     -    
#         lock_queue              array                              0     -    
#         num_last_reqs           integral                           32    'd1  
#         num_last_rsps           integral                           32    'd1  
#     ahbVirtualSequencer         AhbVirtualSequencer                -     @573 
#       rsp_export                uvm_analysis_export                -     @580 
#       seq_item_export           uvm_seq_item_pull_imp              -     @674 
#       arbitration_queue         array                              0     -    
#       lock_queue                array                              0     -    
#       num_last_reqs             integral                           32    'd1  
#       num_last_rsps             integral                           32    'd1  
# ------------------------------------------------------------------------------
# 
# UVM_INFO verilog_src/questa_uvm_pkg-1.2/src/questa_uvm_pkg.sv(277) @ 0: reporter [Questa UVM] End Of Elaboration
# UVM_INFO ../../src/hvlTop/tb/test/AhbLength8WriteFollowedByReadTest.sv(36) @ 0: uvm_test_top [AhbLength8WriteFollowedByReadTest] AhbLength8WriteFollowedByReadTest
# CONNVERTER NO OF WAIT STATES IS 0
# UVM_INFO ../../src/hvlTop/slaveAgent/AhbSlaveDriverProxy.sv(49) @ 0: uvm_test_top.swasthik.ahbSlaveAgent[1].ahbSlaveDriverProxy [AhbSlaveDriverProxy]  BEFORERESET 
#  
# CONNVERTER NO OF WAIT STATES IS 0
# UVM_INFO ../../src/hvlTop/slaveAgent/AhbSlaveDriverProxy.sv(49) @ 0: uvm_test_top.swasthik.ahbSlaveAgent[0].ahbSlaveDriverProxy [AhbSlaveDriverProxy]  BEFORERESET 
#  
# UVM_INFO ../../src/hvlTop/masterAgent/AhbMasterMonitorProxy.sv(56) @ 0: uvm_test_top.swasthik.ahbMasterAgent[1].ahbMasterMonitorProxy [AhbMasterMonitorProxy] Inside the master_monitor_proxy
# RESET CALLED
# UVM_INFO ../../src/hvlTop/masterAgent/AhbMasterMonitorProxy.sv(56) @ 0: uvm_test_top.swasthik.ahbMasterAgent[0].ahbMasterMonitorProxy [AhbMasterMonitorProxy] Inside the master_monitor_proxy
# RESET CALLED
# [5] my_slave = 0, my_read_owner = x
# [5] my_slave = 0, my_read_owner = x
# [5] my_slave = 1, my_read_owner = x
# [5] my_slave = 1, my_read_owner = x
# UVM_INFO ../../src/hdlTop/slaveAgentBFM/AhbSlaveDriverBFM.sv(52) @ 5: reporter [AHB_SLAVE_DRIVER_BFM] SYSTEM RESET DETECTED
# UVM_INFO ../../src/hdlTop/slaveAgentBFM/AhbSlaveDriverBFM.sv(52) @ 5: reporter [AHB_SLAVE_DRIVER_BFM] SYSTEM RESET DETECTED
# UVM_INFO ../../src/hdlTop/masterAgentBFM/AhbMasterDriverBFM.sv(48) @ 5: reporter [AHB_MASTER_DRIVER_BFM] SYSTEM RESET DETECTED
# UVM_INFO ../../src/hdlTop/masterAgentBFM/AhbMasterMonitorBFM.sv(48) @ 5: reporter [AHB_MASTER_MONITOR_BFM] system reset detected
# UVM_INFO ../../src/hdlTop/masterAgentBFM/AhbMasterDriverBFM.sv(48) @ 5: reporter [AHB_MASTER_DRIVER_BFM] SYSTEM RESET DETECTED
# UVM_INFO ../../src/hdlTop/masterAgentBFM/AhbMasterMonitorBFM.sv(48) @ 5: reporter [AHB_MASTER_MONITOR_BFM] system reset detected
#                    5else hready 0 master [0] can_accept=0 oldest_is_ready=1
#                    5else hready 0 master [1] can_accept=0 oldest_is_ready=1
#                    5 3rd block can accept=1 slave=1
# slave_has_owner = x slave = 1 
#                    5 3rd block can accept=1 slave=0
# slave_has_owner = x slave = 0 
#                    5else hready 0 master [0] can_accept=0 oldest_is_ready=1
#                    5else hready 0 master [1] can_accept=0 oldest_is_ready=1
#                    5 3rd block can accept=1 slave=1
# slave_has_owner = 0 slave = 1 
#                    5 3rd block can accept=1 slave=0
# slave_has_owner = 0 slave = 0 
# @                  15 H EY MAN
# ENTERED THIS BLOCK @15
# ENTERED THIS BLOCK @15
# UVM_INFO ../../src/hdlTop/masterAgentBFM/AhbMasterMonitorBFM.sv(50) @ 15: reporter [AHB_MASTER_MONITOR_BFM] system reset deactivated
# UVM_INFO ../../src/hdlTop/masterAgentBFM/AhbMasterMonitorBFM.sv(50) @ 15: reporter [AHB_MASTER_MONITOR_BFM] system reset deactivated
# ishika 15 haddr = 0
# [15] from master monitor = haddr=x
# UVM_INFO ../../src/hvlTop/masterAgent/AhbMasterMonitorProxy.sv(72) @ 15: uvm_test_top.swasthik.ahbMasterAgent[1].ahbMasterMonitorProxy [AhbMasterMonitorProxy] Sending packet via analysis_port: , 
#  ------------------------------------------------------------------------
# Name                      Type                  Size  Value             
# ------------------------------------------------------------------------
# ahbMasterPacket           AhbMasterTransaction  -     @1759             
#   haddr                   integral              32    'h0               
#   hselx                   integral              2     'b0               
#   hburst                  string                6     SINGLE            
#   hmastlock               integral              1     'h0               
#   hprot                   string                18    NORMAL_SECURE_DATA
#   hsize                   string                4     BYTE              
#   hnonsec                 integral              1     'h0               
#   hexcl                   integral              1     'h0               
#   hmaster                 integral              1     'd0               
#   htrans                  string                4     IDLE              
#   hwrite                  string                4     READ              
#   hreadyout               integral              1     'h0               
#   hresp                   string                4     OKAY              
#   hexokay                 integral              1     'h0               
#   hready                  integral              1     'h0               
#   noOfwaitStatesDetected  integral              32    'h0               
# ------------------------------------------------------------------------
# 
# UVM_INFO ../../src/hvlTop/masterAgent/AhbMasterCoverage.sv(107) @ 15: uvm_test_top.swasthik.ahbMasterAgent[1].ahbMasterCoverage [AhbMasterCoverage] Before calling SAMPLE METHOD
# UVM_INFO ../../src/hvlTop/masterAgent/AhbMasterCoverage.sv(109) @ 15: uvm_test_top.swasthik.ahbMasterAgent[1].ahbMasterCoverage [AhbMasterCoverage] After calling SAMPLE METHOD
# UVM_INFO ../../src/hdlTop/masterAgentBFM/AhbMasterDriverBFM.sv(52) @ 15: reporter [AHB_MASTER_DRIVER_BFM]  @15 SYSTEM RESET DEACTIVATED
# 
#  
#  getting next one 
#  
# 
# ....I AM HERE..... 15 
# ishika 15 haddr = 0
# [15] from master monitor = haddr=x
# UVM_INFO ../../src/hvlTop/masterAgent/AhbMasterMonitorProxy.sv(72) @ 15: uvm_test_top.swasthik.ahbMasterAgent[0].ahbMasterMonitorProxy [AhbMasterMonitorProxy] Sending packet via analysis_port: , 
#  ------------------------------------------------------------------------
# Name                      Type                  Size  Value             
# ------------------------------------------------------------------------
# ahbMasterPacket           AhbMasterTransaction  -     @1763             
#   haddr                   integral              32    'h0               
#   hselx                   integral              2     'b0               
#   hburst                  string                6     SINGLE            
#   hmastlock               integral              1     'h0               
#   hprot                   string                18    NORMAL_SECURE_DATA
#   hsize                   string                4     BYTE              
#   hnonsec                 integral              1     'h0               
#   hexcl                   integral              1     'h0               
#   hmaster                 integral              1     'd0               
#   htrans                  string                4     IDLE              
#   hwrite                  string                4     READ              
#   hreadyout               integral              1     'h0               
#   hresp                   string                4     OKAY              
#   hexokay                 integral              1     'h0               
#   hready                  integral              1     'h0               
#   noOfwaitStatesDetected  integral              32    'h0               
# ------------------------------------------------------------------------
# 
# UVM_INFO ../../src/hvlTop/masterAgent/AhbMasterCoverage.sv(107) @ 15: uvm_test_top.swasthik.ahbMasterAgent[0].ahbMasterCoverage [AhbMasterCoverage] Before calling SAMPLE METHOD
# UVM_INFO ../../src/hvlTop/masterAgent/AhbMasterCoverage.sv(109) @ 15: uvm_test_top.swasthik.ahbMasterAgent[0].ahbMasterCoverage [AhbMasterCoverage] After calling SAMPLE METHOD
# UVM_INFO ../../src/hdlTop/masterAgentBFM/AhbMasterDriverBFM.sv(52) @ 15: reporter [AHB_MASTER_DRIVER_BFM]  @15 SYSTEM RESET DEACTIVATED
# 
#  
#  getting next one 
#  
# 
# ....I AM HERE..... 15 
# UVM_INFO ../../src/hdlTop/slaveAgentBFM/AhbSlaveDriverBFM.sv(56) @ 15: reporter [AHB_SLAVE_DRIVER_BFM] SYSTEM RESET DEACTIVATED
# UVM_INFO ../../src/hdlTop/slaveAgentBFM/AhbSlaveDriverBFM.sv(56) @ 15: reporter [AHB_SLAVE_DRIVER_BFM] SYSTEM RESET DEACTIVATED
# [15] run phase got m_tx haddr=0, mtx=2, htrans= 0 
# ------------------------------------------------------------------------
# Name                      Type                  Size  Value             
# ------------------------------------------------------------------------
# ahbMasterPacket           AhbMasterTransaction  -     @1759             
#   haddr                   integral              32    'h0               
#   hselx                   integral              2     'b0               
#   hburst                  string                6     SINGLE            
#   hmastlock               integral              1     'h0               
#   hprot                   string                18    NORMAL_SECURE_DATA
#   hsize                   string                4     BYTE              
#   hnonsec                 integral              1     'h0               
#   hexcl                   integral              1     'h0               
#   hmaster                 integral              1     'd0               
#   htrans                  string                4     IDLE              
#   hwrite                  string                4     READ              
#   hreadyout               integral              1     'h0               
#   hresp                   string                4     OKAY              
#   hexokay                 integral              1     'h0               
#   hready                  integral              1     'h0               
#   noOfwaitStatesDetected  integral              32    'h0               
# ------------------------------------------------------------------------
# [15] run phase got m_tx haddr=0, mtx=2, htrans= 0 
# ------------------------------------------------------------------------
# Name                      Type                  Size  Value             
# ------------------------------------------------------------------------
# ahbMasterPacket           AhbMasterTransaction  -     @1763             
#   haddr                   integral              32    'h0               
#   hselx                   integral              2     'b0               
#   hburst                  string                6     SINGLE            
#   hmastlock               integral              1     'h0               
#   hprot                   string                18    NORMAL_SECURE_DATA
#   hsize                   string                4     BYTE              
#   hnonsec                 integral              1     'h0               
#   hexcl                   integral              1     'h0               
#   hmaster                 integral              1     'd0               
#   htrans                  string                4     IDLE              
#   hwrite                  string                4     READ              
#   hreadyout               integral              1     'h0               
#   hresp                   string                4     OKAY              
#   hexokay                 integral              1     'h0               
#   hready                  integral              1     'h0               
#   noOfwaitStatesDetected  integral              32    'h0               
# ------------------------------------------------------------------------
# ---------------------------------------------------------
# Name                Type                 Size  Value     
# ---------------------------------------------------------
# req                 AhbSlaveTransaction  -     @1627     
#   haddr             integral             32    'h0       
#   hselx             integral             2     'b0       
#   hburst            string               0     ""        
#   hmastlock         integral             1     'h0       
#   hprot             string               0     ""        
#   hsize             string               0     ""        
#   hnonsec           integral             1     'h0       
#   hexcl             integral             1     'h0       
#   hmaster           integral             1     'd0       
#   htrans            string               0     ""        
#   hwrite            string               4     READ      
#   hreadyout         integral             1     'h0       
#   hresp             string               0     ""        
#   hexokay           integral             1     'h0       
#   hready            integral             1     'h0       
#   choosePacketData  integral             1     'd0       
#   hwdata[0]         integral             32    'ha1fd079e
#   hwdata[1]         integral             32    'hc04e7e2a
#   hwdata[2]         integral             32    'h7514153a
#   hwdata[3]         integral             32    'h8f8bd36f
#   hwdata[4]         integral             32    'h1f6ae813
#   hwdata[5]         integral             32    'h2d2253dc
#   hwdata[6]         integral             32    'h6d756f78
#   hwdata[7]         integral             32    'h6a3034ac
#   hwdata[8]         integral             32    'h179dfb1c
#   hwdata[9]         integral             32    'hf87ff722
#   hwdata[10]        integral             32    'h1a22e861
#   hwdata[11]        integral             32    'h5f1bff49
#   hwdata[12]        integral             32    'h1f7b59b9
#   hwdata[13]        integral             32    'h2c7a68ab
#   hwdata[14]        integral             32    'hd4244940
#   hwdata[15]        integral             32    'heba8fe17
#   hwstrb[0]         integral             4     'b1111    
#   hwstrb[1]         integral             4     'b1       
#   hwstrb[2]         integral             4     'b1110    
#   hwstrb[3]         integral             4     'b1000    
#   hwstrb[4]         integral             4     'b1001    
#   hwstrb[5]         integral             4     'b100     
#   hwstrb[6]         integral             4     'b0       
#   hwstrb[7]         integral             4     'b1111    
#   hwstrb[8]         integral             4     'b10      
#   hwstrb[9]         integral             4     'b1111    
#   hwstrb[10]        integral             4     'b0       
#   hwstrb[11]        integral             4     'b1011    
#   hwstrb[12]        integral             4     'b1001    
#   hwstrb[13]        integral             4     'b10      
#   hwstrb[14]        integral             4     'b110     
#   hwstrb[15]        integral             4     'b111     
#   hrdata[0]         integral             32    'h289b6d44
#   hrdata[1]         integral             32    'h8bce7674
#   hrdata[2]         integral             32    'h4032deb9
#   hrdata[3]         integral             32    'hea282e8e
#   hrdata[4]         integral             32    'h83be4ef3
#   hrdata[5]         integral             32    'hd84b04df
#   hrdata[6]         integral             32    'h79592   
#   hrdata[7]         integral             32    'habff679f
#   hrdata[8]         integral             32    'h821e0bdf
#   hrdata[9]         integral             32    'hed1aa832
#   hrdata[10]        integral             32    'h800f9862
#   hrdata[11]        integral             32    'h68c65f3e
#   hrdata[12]        integral             32    'hf5871f7f
#   hrdata[13]        integral             32    'h235cdf1c
#   hrdata[14]        integral             32    'ha30614e7
#   hrdata[15]        integral             32    'h2410a2ec
# ---------------------------------------------------------
# ---------------------------------------------------------
# Name                Type                 Size  Value     
# ---------------------------------------------------------
# req                 AhbSlaveTransaction  -     @1623     
#   haddr             integral             32    'h0       
#   hselx             integral             2     'b0       
#   hburst            string               0     ""        
#   hmastlock         integral             1     'h0       
#   hprot             string               0     ""        
#   hsize             string               0     ""        
#   hnonsec           integral             1     'h0       
#   hexcl             integral             1     'h0       
#   hmaster           integral             1     'd0       
#   htrans            string               0     ""        
#   hwrite            string               4     READ      
#   hreadyout         integral             1     'h0       
#   hresp             string               0     ""        
#   hexokay           integral             1     'h0       
#   hready            integral             1     'h0       
#   choosePacketData  integral             1     'd0       
#   hwdata[0]         integral             32    'hf77124d7
#   hwdata[1]         integral             32    'ha69107dd
#   hwdata[2]         integral             32    'hf3f608b0
#   hwdata[3]         integral             32    'h9e57837e
#   hwdata[4]         integral             32    'h37c78da4
#   hwdata[5]         integral             32    'hc3364aa0
#   hwdata[6]         integral             32    'h64239444
#   hwdata[7]         integral             32    'hba5cdf93
#   hwdata[8]         integral             32    'h6efb62de
#   hwdata[9]         integral             32    'h8f9bc019
#   hwdata[10]        integral             32    'hff4d1f5a
#   hwdata[11]        integral             32    'h23dd763a
#   hwdata[12]        integral             32    'h24d9d89 
#   hwdata[13]        integral             32    'hba3d7b80
#   hwdata[14]        integral             32    'h410de327
#   hwdata[15]        integral             32    'h3869d2cf
#   hwstrb[0]         integral             4     'b1111    
#   hwstrb[1]         integral             4     'b0       
#   hwstrb[2]         integral             4     'b110     
#   hwstrb[3]         integral             4     'b1001    
#   hwstrb[4]         integral             4     'b1101    
#   hwstrb[5]         integral             4     'b1010    
#   hwstrb[6]         integral             4     'b1110    
#   hwstrb[7]         integral             4     'b111     
#   hwstrb[8]         integral             4     'b1000    
#   hwstrb[9]         integral             4     'b11      
#   hwstrb[10]        integral             4     'b110     
#   hwstrb[11]        integral             4     'b111     
#   hwstrb[12]        integral             4     'b1010    
#   hwstrb[13]        integral             4     'b1110    
#   hwstrb[14]        integral             4     'b1       
#   hwstrb[15]        integral             4     'b100     
#   hrdata[0]         integral             32    'h5c7d611f
#   hrdata[1]         integral             32    'h6b48c716
#   hrdata[2]         integral             32    'hb75dd889
#   hrdata[3]         integral             32    'hda255fd5
#   hrdata[4]         integral             32    'h8b3e7142
#   hrdata[5]         integral             32    'hd0967d98
#   hrdata[6]         integral             32    'hf331233d
#   hrdata[7]         integral             32    'ha4ffa600
#   hrdata[8]         integral             32    'ha3cf8c81
#   hrdata[9]         integral             32    'ha7d6b754
#   hrdata[10]        integral             32    'h110d16d8
#   hrdata[11]        integral             32    'h9aec9714
#   hrdata[12]        integral             32    'h128dfaa 
#   hrdata[13]        integral             32    'h1f5f0568
#   hrdata[14]        integral             32    'h8ff1ec47
#   hrdata[15]        integral             32    'h67acad44
# ---------------------------------------------------------
# UVM_INFO ../../src/hvlTop/masterAgent/masterSequences/AhbMasterSequence.sv(129) @ 15: uvm_test_top.swasthik.ahbMasterAgent[0].ahbMasterSequencer@@ahbMasterWriteSequence[0] [AHB] req is of type: AhbMasterTransaction
# *****************************************master sequence***********************************
# ----------------------------------------------------------------------------------
# Name                      Type                  Size  Value                       
# ----------------------------------------------------------------------------------
# req                       AhbMasterTransaction  -     @1635                       
#   haddr                   integral              32    'h484                       
#   hselx                   integral              2     'b1                         
#   hburst                  string                5     INCR8                       
#   hmastlock               integral              1     'h0                         
#   hprot                   string                28    NORMAL_NONSECURE_INSTRUCTION
#   hsize                   string                4     WORD                        
#   hnonsec                 integral              1     'h1                         
#   hexcl                   integral              1     'h0                         
#   hmaster                 integral              1     'd0                         
#   htrans                  string                3     SEQ                         
#   hwrite                  string                5     WRITE                       
#   hreadyout               integral              1     'h0                         
#   hresp                   string                0     ""                          
#   hexokay                 integral              1     'h1                         
#   hready                  integral              1     'h0                         
#   noOfwaitStatesDetected  integral              32    'h0                         
#   hwdata[0]               integral              32    'h708b81f8                  
#   hwdata[1]               integral              32    'h204e4446                  
#   hwdata[2]               integral              32    'h9f25101f                  
#   hwdata[3]               integral              32    'hf260b395                  
#   hwdata[4]               integral              32    'h85b6f0ca                  
#   hwdata[5]               integral              32    'h330b204a                  
#   hwdata[6]               integral              32    'hfe21c35f                  
#   hwdata[7]               integral              32    'he330c768                  
#   hwstrb[0]               integral              4     'b1111                      
#   hwstrb[1]               integral              4     'b1111                      
#   hwstrb[2]               integral              4     'b1111                      
#   hwstrb[3]               integral              4     'b1111                      
#   hwstrb[4]               integral              4     'b1111                      
#   hwstrb[5]               integral              4     'b1111                      
#   hwstrb[6]               integral              4     'b1111                      
#   hwstrb[7]               integral              4     'b1111                      
#   busyControl[0]          integral              1     'h0                         
#   busyControl[1]          integral              1     'h0                         
#   busyControl[2]          integral              1     'h0                         
#   busyControl[3]          integral              1     'h0                         
#   busyControl[4]          integral              1     'h0                         
#   busyControl[5]          integral              1     'h0                         
#   busyControl[6]          integral              1     'h0                         
#   busyControl[7]          integral              1     'h0                         
# ----------------------------------------------------------------------------------
# ********************************************************************************************
# UVM_INFO ../../src/hvlTop/masterAgent/masterSequences/AhbMasterSequence.sv(129) @ 15: uvm_test_top.swasthik.ahbMasterAgent[1].ahbMasterSequencer@@ahbMasterWriteSequence[1] [AHB] req is of type: AhbMasterTransaction
# *****************************************master sequence***********************************
# ----------------------------------------------------------------------------
# Name                      Type                  Size  Value                 
# ----------------------------------------------------------------------------
# req                       AhbMasterTransaction  -     @1631                 
#   haddr                   integral              32    'h2ac                 
#   hselx                   integral              2     'b10                  
#   hburst                  string                5     INCR8                 
#   hmastlock               integral              1     'h0                   
#   hprot                   string                22    PRIVILEGED_SECURE_DATA
#   hsize                   string                4     WORD                  
#   hnonsec                 integral              1     'h1                   
#   hexcl                   integral              1     'h0                   
#   hmaster                 integral              1     1                     
#   htrans                  string                3     SEQ                   
#   hwrite                  string                5     WRITE                 
#   hreadyout               integral              1     'h0                   
#   hresp                   string                0     ""                    
#   hexokay                 integral              1     'h0                   
#   hready                  integral              1     'h0                   
#   noOfwaitStatesDetected  integral              32    'h0                   
#   hwdata[0]               integral              32    'hcfb7ce3f            
#   hwdata[1]               integral              32    'h4292ed9             
#   hwdata[2]               integral              32    'h497ddee1            
#   hwdata[3]               integral              32    'h7e502ac1            
#   hwdata[4]               integral              32    'h6fbcb31d            
#   hwdata[5]               integral              32    'hb0b5dfec            
#   hwdata[6]               integral              32    'h47b90f83            
#   hwdata[7]               integral              32    'h57ac6f3a            
#   hwstrb[0]               integral              4     'b1111                
#   hwstrb[1]               integral              4     'b1111                
#   hwstrb[2]               integral              4     'b1111                
#   hwstrb[3]               integral              4     'b1111                
#   hwstrb[4]               integral              4     'b1111                
#   hwstrb[5]               integral              4     'b1111                
#   hwstrb[6]               integral              4     'b1111                
#   hwstrb[7]               integral              4     'b1111                
#   busyControl[0]          integral              1     'h0                   
#   busyControl[1]          integral              1     'h0                   
#   busyControl[2]          integral              1     'h0                   
#   busyControl[3]          integral              1     'h0                   
#   busyControl[4]          integral              1     'h0                   
#   busyControl[5]          integral              1     'h0                   
#   busyControl[6]          integral              1     'h0                   
#   busyControl[7]          integral              1     'h0                   
# ----------------------------------------------------------------------------
# ********************************************************************************************
# UVM_INFO ../../src/hvlTop/slaveAgent/AhbSlaveSequenceItemConverter.sv(90) @ 15: reporter [ahbSlaveSequeceItemconverterClass] -------------------------------------------------------------
# THE RUN PHASE IS 0
# CONNVERTER NO OF WAIT STATES IS 0
# (((((((((((((((SENT ACK)))))))))))))))
# UVM_INFO ../../src/hvlTop/slaveAgent/AhbSlaveSequenceItemConverter.sv(90) @ 15: reporter [ahbSlaveSequeceItemconverterClass] -------------------------------------------------------------
# THE RUN PHASE IS 0
# CONNVERTER NO OF WAIT STATES IS 0
# (((((((((((((((SENT ACK)))))))))))))))
# UVM_INFO ../../src/hvlTop/masterAgent/AhbMasterDriverProxy.sv(68) @ 15: uvm_test_top.swasthik.ahbMasterAgent[0].ahbMasterDriverProxy [AhbMasterDriverProxy] REQ-MASTERTX 
#  ----------------------------------------------------------------------------------
# Name                      Type                  Size  Value                       
# ----------------------------------------------------------------------------------
# req                       AhbMasterTransaction  -     @1635                       
#   haddr                   integral              32    'h484                       
#   hselx                   integral              2     'b1                         
#   hburst                  string                5     INCR8                       
#   hmastlock               integral              1     'h0                         
#   hprot                   string                28    NORMAL_NONSECURE_INSTRUCTION
#   hsize                   string                4     WORD                        
#   hnonsec                 integral              1     'h1                         
#   hexcl                   integral              1     'h0                         
#   hmaster                 integral              1     'd0                         
#   htrans                  string                3     SEQ                         
#   hwrite                  string                5     WRITE                       
#   hreadyout               integral              1     'h0                         
#   hresp                   string                0     ""                          
#   hexokay                 integral              1     'h1                         
#   hready                  integral              1     'h0                         
#   noOfwaitStatesDetected  integral              32    'h0                         
#   hwdata[0]               integral              32    'h708b81f8                  
#   hwdata[1]               integral              32    'h204e4446                  
#   hwdata[2]               integral              32    'h9f25101f                  
#   hwdata[3]               integral              32    'hf260b395                  
#   hwdata[4]               integral              32    'h85b6f0ca                  
#   hwdata[5]               integral              32    'h330b204a                  
#   hwdata[6]               integral              32    'hfe21c35f                  
#   hwdata[7]               integral              32    'he330c768                  
#   hwstrb[0]               integral              4     'b1111                      
#   hwstrb[1]               integral              4     'b1111                      
#   hwstrb[2]               integral              4     'b1111                      
#   hwstrb[3]               integral              4     'b1111                      
#   hwstrb[4]               integral              4     'b1111                      
#   hwstrb[5]               integral              4     'b1111                      
#   hwstrb[6]               integral              4     'b1111                      
#   hwstrb[7]               integral              4     'b1111                      
#   busyControl[0]          integral              1     'h0                         
#   busyControl[1]          integral              1     'h0                         
#   busyControl[2]          integral              1     'h0                         
#   busyControl[3]          integral              1     'h0                         
#   busyControl[4]          integral              1     'h0                         
#   busyControl[5]          integral              1     'h0                         
#   busyControl[6]          integral              1     'h0                         
#   busyControl[7]          integral              1     'h0                         
# ----------------------------------------------------------------------------------
# 
# ***************************IN DRIVER************************************************************************
# ----------------------------------------------------------------------------------
# Name                      Type                  Size  Value                       
# ----------------------------------------------------------------------------------
# req                       AhbMasterTransaction  -     @1635                       
#   haddr                   integral              32    'h484                       
#   hselx                   integral              2     'b1                         
#   hburst                  string                5     INCR8                       
#   hmastlock               integral              1     'h0                         
#   hprot                   string                28    NORMAL_NONSECURE_INSTRUCTION
#   hsize                   string                4     WORD                        
#   hnonsec                 integral              1     'h1                         
#   hexcl                   integral              1     'h0                         
#   hmaster                 integral              1     'd0                         
#   htrans                  string                3     SEQ                         
#   hwrite                  string                5     WRITE                       
#   hreadyout               integral              1     'h0                         
#   hresp                   string                0     ""                          
#   hexokay                 integral              1     'h1                         
#   hready                  integral              1     'h0                         
#   noOfwaitStatesDetected  integral              32    'h0                         
#   hwdata[0]               integral              32    'h708b81f8                  
#   hwdata[1]               integral              32    'h204e4446                  
#   hwdata[2]               integral              32    'h9f25101f                  
#   hwdata[3]               integral              32    'hf260b395                  
#   hwdata[4]               integral              32    'h85b6f0ca                  
#   hwdata[5]               integral              32    'h330b204a                  
#   hwdata[6]               integral              32    'hfe21c35f                  
#   hwdata[7]               integral              32    'he330c768                  
#   hwstrb[0]               integral              4     'b1111                      
#   hwstrb[1]               integral              4     'b1111                      
#   hwstrb[2]               integral              4     'b1111                      
#   hwstrb[3]               integral              4     'b1111                      
#   hwstrb[4]               integral              4     'b1111                      
#   hwstrb[5]               integral              4     'b1111                      
#   hwstrb[6]               integral              4     'b1111                      
#   hwstrb[7]               integral              4     'b1111                      
#   busyControl[0]          integral              1     'h0                         
#   busyControl[1]          integral              1     'h0                         
#   busyControl[2]          integral              1     'h0                         
#   busyControl[3]          integral              1     'h0                         
#   busyControl[4]          integral              1     'h0                         
#   busyControl[5]          integral              1     'h0                         
#   busyControl[6]          integral              1     'h0                         
#   busyControl[7]          integral              1     'h0                         
# ----------------------------------------------------------------------------------
# ***************************************************************************************************
# INSIDE BURST
# UVM_INFO ../../src/hvlTop/masterAgent/AhbMasterDriverProxy.sv(68) @ 15: uvm_test_top.swasthik.ahbMasterAgent[1].ahbMasterDriverProxy [AhbMasterDriverProxy] REQ-MASTERTX 
#  ----------------------------------------------------------------------------
# Name                      Type                  Size  Value                 
# ----------------------------------------------------------------------------
# req                       AhbMasterTransaction  -     @1631                 
#   haddr                   integral              32    'h2ac                 
#   hselx                   integral              2     'b10                  
#   hburst                  string                5     INCR8                 
#   hmastlock               integral              1     'h0                   
#   hprot                   string                22    PRIVILEGED_SECURE_DATA
#   hsize                   string                4     WORD                  
#   hnonsec                 integral              1     'h1                   
#   hexcl                   integral              1     'h0                   
#   hmaster                 integral              1     1                     
#   htrans                  string                3     SEQ                   
#   hwrite                  string                5     WRITE                 
#   hreadyout               integral              1     'h0                   
#   hresp                   string                0     ""                    
#   hexokay                 integral              1     'h0                   
#   hready                  integral              1     'h0                   
#   noOfwaitStatesDetected  integral              32    'h0                   
#   hwdata[0]               integral              32    'hcfb7ce3f            
#   hwdata[1]               integral              32    'h4292ed9             
#   hwdata[2]               integral              32    'h497ddee1            
#   hwdata[3]               integral              32    'h7e502ac1            
#   hwdata[4]               integral              32    'h6fbcb31d            
#   hwdata[5]               integral              32    'hb0b5dfec            
#   hwdata[6]               integral              32    'h47b90f83            
#   hwdata[7]               integral              32    'h57ac6f3a            
#   hwstrb[0]               integral              4     'b1111                
#   hwstrb[1]               integral              4     'b1111                
#   hwstrb[2]               integral              4     'b1111                
#   hwstrb[3]               integral              4     'b1111                
#   hwstrb[4]               integral              4     'b1111                
#   hwstrb[5]               integral              4     'b1111                
#   hwstrb[6]               integral              4     'b1111                
#   hwstrb[7]               integral              4     'b1111                
#   busyControl[0]          integral              1     'h0                   
#   busyControl[1]          integral              1     'h0                   
#   busyControl[2]          integral              1     'h0                   
#   busyControl[3]          integral              1     'h0                   
#   busyControl[4]          integral              1     'h0                   
#   busyControl[5]          integral              1     'h0                   
#   busyControl[6]          integral              1     'h0                   
#   busyControl[7]          integral              1     'h0                   
# ----------------------------------------------------------------------------
# 
# ***************************IN DRIVER************************************************************************
# ----------------------------------------------------------------------------
# Name                      Type                  Size  Value                 
# ----------------------------------------------------------------------------
# req                       AhbMasterTransaction  -     @1631                 
#   haddr                   integral              32    'h2ac                 
#   hselx                   integral              2     'b10                  
#   hburst                  string                5     INCR8                 
#   hmastlock               integral              1     'h0                   
#   hprot                   string                22    PRIVILEGED_SECURE_DATA
#   hsize                   string                4     WORD                  
#   hnonsec                 integral              1     'h1                   
#   hexcl                   integral              1     'h0                   
#   hmaster                 integral              1     1                     
#   htrans                  string                3     SEQ                   
#   hwrite                  string                5     WRITE                 
#   hreadyout               integral              1     'h0                   
#   hresp                   string                0     ""                    
#   hexokay                 integral              1     'h0                   
#   hready                  integral              1     'h0                   
#   noOfwaitStatesDetected  integral              32    'h0                   
#   hwdata[0]               integral              32    'hcfb7ce3f            
#   hwdata[1]               integral              32    'h4292ed9             
#   hwdata[2]               integral              32    'h497ddee1            
#   hwdata[3]               integral              32    'h7e502ac1            
#   hwdata[4]               integral              32    'h6fbcb31d            
#   hwdata[5]               integral              32    'hb0b5dfec            
#   hwdata[6]               integral              32    'h47b90f83            
#   hwdata[7]               integral              32    'h57ac6f3a            
#   hwstrb[0]               integral              4     'b1111                
#   hwstrb[1]               integral              4     'b1111                
#   hwstrb[2]               integral              4     'b1111                
#   hwstrb[3]               integral              4     'b1111                
#   hwstrb[4]               integral              4     'b1111                
#   hwstrb[5]               integral              4     'b1111                
#   hwstrb[6]               integral              4     'b1111                
#   hwstrb[7]               integral              4     'b1111                
#   busyControl[0]          integral              1     'h0                   
#   busyControl[1]          integral              1     'h0                   
#   busyControl[2]          integral              1     'h0                   
#   busyControl[3]          integral              1     'h0                   
#   busyControl[4]          integral              1     'h0                   
#   busyControl[5]          integral              1     'h0                   
#   busyControl[6]          integral              1     'h0                   
#   busyControl[7]          integral              1     'h0                   
# ----------------------------------------------------------------------------
# ***************************************************************************************************
# INSIDE BURST
# SLAVE SEQUENCE DONE 
# SLAVE SEQUENCE DONE 
# ** Info: THE REQ IS x for the slave 0
#    Time: 16 ns  Scope: HdlTop.ahbinterconnect.genblk5[0].genblk1[1] File: ../../src/hdlTop/interconnect/AhbInterconnect.sv Line: 187
# ** Info: THE GRANT IS x for the slave 0 addr is 684 for master 1
#    Time: 16 ns  Scope: HdlTop.ahbinterconnect.genblk5[0].genblk1[1] File: ../../src/hdlTop/interconnect/AhbInterconnect.sv Line: 188
# ** Info: THE REQ IS x for the slave 1
#    Time: 16 ns  Scope: HdlTop.ahbinterconnect.genblk5[1].genblk1[1] File: ../../src/hdlTop/interconnect/AhbInterconnect.sv Line: 187
# ** Info: THE GRANT IS x for the slave 1 addr is 684 for master 1
#    Time: 16 ns  Scope: HdlTop.ahbinterconnect.genblk5[1].genblk1[1] File: ../../src/hdlTop/interconnect/AhbInterconnect.sv Line: 188
# ** Info: THE REQ IS x for the slave 0
#    Time: 16 ns  Scope: HdlTop.ahbinterconnect.genblk5[0].genblk1[0] File: ../../src/hdlTop/interconnect/AhbInterconnect.sv Line: 187
# ** Info: THE GRANT IS x for the slave 0 addr is 1156 for master 0
#    Time: 16 ns  Scope: HdlTop.ahbinterconnect.genblk5[0].genblk1[0] File: ../../src/hdlTop/interconnect/AhbInterconnect.sv Line: 188
# ** Info: THE REQ IS x for the slave 1
#    Time: 16 ns  Scope: HdlTop.ahbinterconnect.genblk5[1].genblk1[0] File: ../../src/hdlTop/interconnect/AhbInterconnect.sv Line: 187
# ** Info: THE GRANT IS x for the slave 1 addr is 1156 for master 0
#    Time: 16 ns  Scope: HdlTop.ahbinterconnect.genblk5[1].genblk1[0] File: ../../src/hdlTop/interconnect/AhbInterconnect.sv Line: 188
#                   16 3rd block can accept=1 slave=1
# slave_has_owner = 0 slave = 1 
#                   16 3rd block can accept=1 slave=0
# slave_has_owner = 0 slave = 0 
# slave number 0 address 684
# slave number 1 address 1156
# slave number 0 address 684
# slave number 1 address 1156
# ** Info: THE REQ IS 1x for the slave 0
#    Time: 16 ns  Scope: HdlTop.ahbinterconnect.genblk5[0].genblk1[0] File: ../../src/hdlTop/interconnect/AhbInterconnect.sv Line: 187
# ** Info: THE GRANT IS x for the slave 0 addr is 1156 for master 0
#    Time: 16 ns  Scope: HdlTop.ahbinterconnect.genblk5[0].genblk1[0] File: ../../src/hdlTop/interconnect/AhbInterconnect.sv Line: 188
# ** Info: THE REQ IS 1x for the slave 0
#    Time: 16 ns  Scope: HdlTop.ahbinterconnect.genblk5[0].genblk1[1] File: ../../src/hdlTop/interconnect/AhbInterconnect.sv Line: 187
# ** Info: THE GRANT IS x for the slave 0 addr is 684 for master 1
#    Time: 16 ns  Scope: HdlTop.ahbinterconnect.genblk5[0].genblk1[1] File: ../../src/hdlTop/interconnect/AhbInterconnect.sv Line: 188
# ** Info: THE REQ IS x1 for the slave 1
#    Time: 16 ns  Scope: HdlTop.ahbinterconnect.genblk5[1].genblk1[0] File: ../../src/hdlTop/interconnect/AhbInterconnect.sv Line: 187
# ** Info: THE GRANT IS x for the slave 1 addr is 1156 for master 0
#    Time: 16 ns  Scope: HdlTop.ahbinterconnect.genblk5[1].genblk1[0] File: ../../src/hdlTop/interconnect/AhbInterconnect.sv Line: 188
# ** Info: THE REQ IS x1 for the slave 1
#    Time: 16 ns  Scope: HdlTop.ahbinterconnect.genblk5[1].genblk1[1] File: ../../src/hdlTop/interconnect/AhbInterconnect.sv Line: 187
# ** Info: THE GRANT IS x for the slave 1 addr is 684 for master 1
#    Time: 16 ns  Scope: HdlTop.ahbinterconnect.genblk5[1].genblk1[1] File: ../../src/hdlTop/interconnect/AhbInterconnect.sv Line: 188
#                   16 3rd block can accept=1 slave=1
# slave_has_owner = 0 slave = 1 
# dead case s:          1 | m:          0
#                   16 inside 3rd block master_request[s=1][m= 0] htrans=2
#                   16 3rd block grant 1
#                   16 3rd block can accept=1 slave=0
# slave_has_owner = 0 slave = 0 
# dead case s:          0 | m:          1
#                   16 inside 3rd block master_request[s=0][m= 1] htrans=2
#                   16 3rd block grant 1
# ** Info: THE REQ IS 1x for the slave 0
#    Time: 16 ns  Scope: HdlTop.ahbinterconnect.genblk5[0].genblk1[0] File: ../../src/hdlTop/interconnect/AhbInterconnect.sv Line: 187
# ** Info: THE GRANT IS x for the slave 0 addr is 1156 for master 0
#    Time: 16 ns  Scope: HdlTop.ahbinterconnect.genblk5[0].genblk1[0] File: ../../src/hdlTop/interconnect/AhbInterconnect.sv Line: 188
# ** Info: THE REQ IS 1x for the slave 0
#    Time: 16 ns  Scope: HdlTop.ahbinterconnect.genblk5[0].genblk1[1] File: ../../src/hdlTop/interconnect/AhbInterconnect.sv Line: 187
# ** Info: THE GRANT IS 1 for the slave 0 addr is 684 for master 1
#    Time: 16 ns  Scope: HdlTop.ahbinterconnect.genblk5[0].genblk1[1] File: ../../src/hdlTop/interconnect/AhbInterconnect.sv Line: 188
# ** Info: THE REQ IS x1 for the slave 1
#    Time: 16 ns  Scope: HdlTop.ahbinterconnect.genblk5[1].genblk1[0] File: ../../src/hdlTop/interconnect/AhbInterconnect.sv Line: 187
# ** Info: THE GRANT IS 1 for the slave 1 addr is 1156 for master 0
#    Time: 16 ns  Scope: HdlTop.ahbinterconnect.genblk5[1].genblk1[0] File: ../../src/hdlTop/interconnect/AhbInterconnect.sv Line: 188
# ** Info: THE REQ IS x1 for the slave 1
#    Time: 16 ns  Scope: HdlTop.ahbinterconnect.genblk5[1].genblk1[1] File: ../../src/hdlTop/interconnect/AhbInterconnect.sv Line: 187
# ** Info: THE GRANT IS x for the slave 1 addr is 684 for master 1
#    Time: 16 ns  Scope: HdlTop.ahbinterconnect.genblk5[1].genblk1[1] File: ../../src/hdlTop/interconnect/AhbInterconnect.sv Line: 188
# last grant s=1 m=0 g==1
#                   16else hready 1 master [0] can_accept=1 oldest_is_ready=1
# last grant s=0 m=1 g==1
#                   16else hready 1 master [1] can_accept=1 oldest_is_ready=1
# ENTERED THIS BLOCK @16
# [16] slave_hwdata_stable[1] = x
# ENTERED THIS BLOCK @16
# [16] slave_hwdata_stable[0] = x
# [16] master_pipeline[1][master_wr_ptr[1]].haddr = 0
# slave number 0 address 684
# [16] master_pipeline[0][master_wr_ptr[0]].haddr = 0
# slave number 1 address 1156
# last grant s=1 m=0 g==1
#                   16else hready 1 master [0] can_accept=1 oldest_is_ready=1
# last grant s=0 m=1 g==1
#                   16else hready 1 master [1] can_accept=1 oldest_is_ready=1
#  1st hwdata = x
# [16] ahbSlaveInterface[0].haddr = 684
#  2nd hwdata = x
#  1st hwdata = x
# [16] ahbSlaveInterface[1].haddr = 1156
#  2nd hwdata = x
# ENTERED THIS BLOCK @16
# [16] slave_hwdata_stable[1] = x
# ENTERED THIS BLOCK @16
# [16] slave_hwdata_stable[0] = x
# [16] 3rd  slave_data_phase.[1].haddr = 1156
# [16] 3rd  slave_data_phase.[0].haddr = 684
# [25] my_slave = 0, my_read_owner = x
#                   25 first master_grant[slaveloop=0][masterloop=1]=1
# [25] current_owner[0] = 1
# [25] new_c_owner[0] = 1
# [25] my_slave = 0, my_read_owner = 1
#                   25 first master_grant[slaveloop=1][masterloop=0]=1
# [25] current_owner[1] = 0
# [25] new_c_owner[1] = 0
# [25] my_slave = 1, my_read_owner = 0
#  time = 25, master = 0, slave = 1,  read_owner = 0
#  time = 25, master = 1, slave = 0,  read_owner = 1
# 25 check slave_hreadyout[1] = 1
# last grant s=1 m=0 g==1
#                   25else hready 1 master [0] can_accept=1 oldest_is_ready=1
# 25 check slave_hreadyout[0] = 1
# last grant s=0 m=1 g==1
#                   25else hready 1 master [1] can_accept=1 oldest_is_ready=1
# ENTERED THIS BLOCK @25
# [25] slave_hwdata_stable[1] = x
# ENTERED THIS BLOCK @25
# [25] slave_hwdata_stable[0] = x
#                   25 3rd block can accept=1 slave=1
# slave_has_owner = 1 slave = 1 
# dead case s:          1 | m:          0
#                   25 inside 3rd block master_request[s=1][m= 0] htrans=2
#                   25 3rd block grant 1
#                   25 3rd block can accept=1 slave=0
# slave_has_owner = 1 slave = 0 
# dead case s:          0 | m:          1
#                   25 inside 3rd block master_request[s=0][m= 1] htrans=2
#                   25 3rd block grant 1
# ** Info: THE REQ IS 1x for the slave 0
#    Time: 25 ns  Scope: HdlTop.ahbinterconnect.genblk5[0].genblk1[0] File: ../../src/hdlTop/interconnect/AhbInterconnect.sv Line: 187
# ** Info: THE GRANT IS x for the slave 0 addr is 1156 for master 0
#    Time: 25 ns  Scope: HdlTop.ahbinterconnect.genblk5[0].genblk1[0] File: ../../src/hdlTop/interconnect/AhbInterconnect.sv Line: 188
# ** Info: THE REQ IS 1x for the slave 0
#    Time: 25 ns  Scope: HdlTop.ahbinterconnect.genblk5[0].genblk1[1] File: ../../src/hdlTop/interconnect/AhbInterconnect.sv Line: 187
# ** Info: THE GRANT IS 1 for the slave 0 addr is 684 for master 1
#    Time: 25 ns  Scope: HdlTop.ahbinterconnect.genblk5[0].genblk1[1] File: ../../src/hdlTop/interconnect/AhbInterconnect.sv Line: 188
# ** Info: THE REQ IS x1 for the slave 1
#    Time: 25 ns  Scope: HdlTop.ahbinterconnect.genblk5[1].genblk1[0] File: ../../src/hdlTop/interconnect/AhbInterconnect.sv Line: 187
# ** Info: THE GRANT IS 1 for the slave 1 addr is 1156 for master 0
#    Time: 25 ns  Scope: HdlTop.ahbinterconnect.genblk5[1].genblk1[0] File: ../../src/hdlTop/interconnect/AhbInterconnect.sv Line: 188
# ** Info: THE REQ IS x1 for the slave 1
#    Time: 25 ns  Scope: HdlTop.ahbinterconnect.genblk5[1].genblk1[1] File: ../../src/hdlTop/interconnect/AhbInterconnect.sv Line: 187
# ** Info: THE GRANT IS x for the slave 1 addr is 684 for master 1
#    Time: 25 ns  Scope: HdlTop.ahbinterconnect.genblk5[1].genblk1[1] File: ../../src/hdlTop/interconnect/AhbInterconnect.sv Line: 188
# 25 check slave_hreadyout[1] = 1
# last grant s=1 m=0 g==1
#                   25else hready 1 master [0] can_accept=1 oldest_is_ready=1
# 25 check slave_hreadyout[0] = 1
# last grant s=0 m=1 g==1
#                   25else hready 1 master [1] can_accept=1 oldest_is_ready=1
#  1st hwdata = x
# [25] ahbSlaveInterface[0].haddr = 684
#  2nd hwdata = x
#  1st hwdata = x
# [25] ahbSlaveInterface[1].haddr = 1156
#  2nd hwdata = x
#                   25 3rd block can accept=1 slave=1
# slave_has_owner = 1 slave = 1 
# dead case s:          1 | m:          0
#                   25 inside 3rd block master_request[s=1][m= 0] htrans=2
#                   25 3rd block grant 1
# ** Info: THE REQ IS 1x for the slave 0
#    Time: 25 ns  Scope: HdlTop.ahbinterconnect.genblk5[0].genblk1[0] File: ../../src/hdlTop/interconnect/AhbInterconnect.sv Line: 187
# ** Info: THE GRANT IS x for the slave 0 addr is 1156 for master 0
#    Time: 25 ns  Scope: HdlTop.ahbinterconnect.genblk5[0].genblk1[0] File: ../../src/hdlTop/interconnect/AhbInterconnect.sv Line: 188
# ** Info: THE REQ IS 1x for the slave 0
#    Time: 25 ns  Scope: HdlTop.ahbinterconnect.genblk5[0].genblk1[1] File: ../../src/hdlTop/interconnect/AhbInterconnect.sv Line: 187
# ** Info: THE GRANT IS 1 for the slave 0 addr is 684 for master 1
#    Time: 25 ns  Scope: HdlTop.ahbinterconnect.genblk5[0].genblk1[1] File: ../../src/hdlTop/interconnect/AhbInterconnect.sv Line: 188
# ** Info: THE REQ IS x1 for the slave 1
#    Time: 25 ns  Scope: HdlTop.ahbinterconnect.genblk5[1].genblk1[0] File: ../../src/hdlTop/interconnect/AhbInterconnect.sv Line: 187
# ** Info: THE GRANT IS 1 for the slave 1 addr is 1156 for master 0
#    Time: 25 ns  Scope: HdlTop.ahbinterconnect.genblk5[1].genblk1[0] File: ../../src/hdlTop/interconnect/AhbInterconnect.sv Line: 188
# ** Info: THE REQ IS x1 for the slave 1
#    Time: 25 ns  Scope: HdlTop.ahbinterconnect.genblk5[1].genblk1[1] File: ../../src/hdlTop/interconnect/AhbInterconnect.sv Line: 187
# ** Info: THE GRANT IS x for the slave 1 addr is 684 for master 1
#    Time: 25 ns  Scope: HdlTop.ahbinterconnect.genblk5[1].genblk1[1] File: ../../src/hdlTop/interconnect/AhbInterconnect.sv Line: 188
# 25 check slave_hreadyout[1] = 1
# last grant s=1 m=0 g==1
#                   25else hready 1 master [0] can_accept=1 oldest_is_ready=1
# 25 check slave_hreadyout[0] = 1
# last grant s=0 m=1 g==1
#                   25else hready 1 master [1] can_accept=1 oldest_is_ready=1
#  1st hwdata = x
# [25] ahbSlaveInterface[0].haddr = 684
#  2nd hwdata = x
#  1st hwdata = x
# [25] ahbSlaveInterface[1].haddr = 1156
#  2nd hwdata = x
# ishika 25 haddr = x
# [25] from master monitor = haddr=684
# UVM_INFO ../../src/hvlTop/masterAgent/AhbMasterMonitorProxy.sv(72) @ 25: uvm_test_top.swasthik.ahbMasterAgent[1].ahbMasterMonitorProxy [AhbMasterMonitorProxy] Sending packet via analysis_port: , 
#  -----------------------------------------------------------
# Name                      Type                  Size  Value
# -----------------------------------------------------------
# ahbMasterPacket           AhbMasterTransaction  -     @1769
#   haddr                   integral              32    'h0  
#   hselx                   integral              2     'b0  
#   hburst                  string                0     ""   
#   hmastlock               integral              1     'h0  
#   hprot                   string                0     ""   
#   hsize                   string                0     ""   
#   hnonsec                 integral              1     'h0  
#   hexcl                   integral              1     'h0  
#   hmaster                 integral              1     'd0  
#   htrans                  string                4     IDLE 
#   hwrite                  string                4     READ 
#   hreadyout               integral              1     'h0  
#   hresp                   string                4     OKAY 
#   hexokay                 integral              1     'h0  
#   hready                  integral              1     'h0  
#   noOfwaitStatesDetected  integral              32    'h0  
# -----------------------------------------------------------
# 
# UVM_INFO ../../src/hvlTop/masterAgent/AhbMasterCoverage.sv(107) @ 25: uvm_test_top.swasthik.ahbMasterAgent[1].ahbMasterCoverage [AhbMasterCoverage] Before calling SAMPLE METHOD
# UVM_INFO ../../src/hvlTop/masterAgent/AhbMasterCoverage.sv(109) @ 25: uvm_test_top.swasthik.ahbMasterAgent[1].ahbMasterCoverage [AhbMasterCoverage] After calling SAMPLE METHOD
# HEY I AM INSIDE BURST
# ishika 25 haddr = x
# [25] from master monitor = haddr=1156
# UVM_INFO ../../src/hvlTop/masterAgent/AhbMasterMonitorProxy.sv(72) @ 25: uvm_test_top.swasthik.ahbMasterAgent[0].ahbMasterMonitorProxy [AhbMasterMonitorProxy] Sending packet via analysis_port: , 
#  -----------------------------------------------------------
# Name                      Type                  Size  Value
# -----------------------------------------------------------
# ahbMasterPacket           AhbMasterTransaction  -     @1773
#   haddr                   integral              32    'h0  
#   hselx                   integral              2     'b0  
#   hburst                  string                0     ""   
#   hmastlock               integral              1     'h0  
#   hprot                   string                0     ""   
#   hsize                   string                0     ""   
#   hnonsec                 integral              1     'h0  
#   hexcl                   integral              1     'h0  
#   hmaster                 integral              1     'd0  
#   htrans                  string                4     IDLE 
#   hwrite                  string                4     READ 
#   hreadyout               integral              1     'h0  
#   hresp                   string                4     OKAY 
#   hexokay                 integral              1     'h0  
#   hready                  integral              1     'h0  
#   noOfwaitStatesDetected  integral              32    'h0  
# -----------------------------------------------------------
# 
# UVM_INFO ../../src/hvlTop/masterAgent/AhbMasterCoverage.sv(107) @ 25: uvm_test_top.swasthik.ahbMasterAgent[0].ahbMasterCoverage [AhbMasterCoverage] Before calling SAMPLE METHOD
# UVM_INFO ../../src/hvlTop/masterAgent/AhbMasterCoverage.sv(109) @ 25: uvm_test_top.swasthik.ahbMasterAgent[0].ahbMasterCoverage [AhbMasterCoverage] After calling SAMPLE METHOD
# HEY I AM INSIDE BURST
# ishika 25 haddr = 0
# UVM_INFO ../../src/hvlTop/slaveAgent/AhbSlaveMonitorProxy.sv(74) @ 25: uvm_test_top.swasthik.ahbSlaveAgent[1].ahbSlaveMonitorProxy [AhbSlaveMonitorProxy] Sending packet via analysis_port: , 
#  -----------------------------------------------------------------
# Name                Type                 Size  Value             
# -----------------------------------------------------------------
# slave Packet        AhbSlaveTransaction  -     @1777             
#   haddr             integral             32    'h0               
#   hselx             integral             2     'b0               
#   hburst            string               6     SINGLE            
#   hmastlock         integral             1     'h0               
#   hprot             string               18    NORMAL_SECURE_DATA
#   hsize             string               4     BYTE              
#   hnonsec           integral             1     'h0               
#   hexcl             integral             1     'h0               
#   hmaster           integral             1     'd0               
#   htrans            string               4     IDLE              
#   hwrite            string               4     READ              
#   hreadyout         integral             1     'h1               
#   hresp             string               0     ""                
#   hexokay           integral             1     'h0               
#   hready            integral             1     'h0               
#   choosePacketData  integral             1     'd0               
# -----------------------------------------------------------------
# 
# UVM_INFO ../../src/hvlTop/slaveAgent/AhbSlaveCoverage.sv(39) @ 25: uvm_test_top.swasthik.ahbSlaveAgent[1].ahbSlaveCoverage [AhbSlaveCoverage] AHB SLAVE COVERAGE
# CONNVERTER NO OF WAIT STATES IS 0
#                   25new call 0
# [25] addressTemp = 0, SlaveDriverCb.haddr = 1156
#                   25old one done 0 
# ishika 25 haddr = 0
# UVM_INFO ../../src/hvlTop/slaveAgent/AhbSlaveMonitorProxy.sv(74) @ 25: uvm_test_top.swasthik.ahbSlaveAgent[0].ahbSlaveMonitorProxy [AhbSlaveMonitorProxy] Sending packet via analysis_port: , 
#  -----------------------------------------------------------------
# Name                Type                 Size  Value             
# -----------------------------------------------------------------
# slave Packet        AhbSlaveTransaction  -     @1781             
#   haddr             integral             32    'h0               
#   hselx             integral             2     'b0               
#   hburst            string               6     SINGLE            
#   hmastlock         integral             1     'h0               
#   hprot             string               18    NORMAL_SECURE_DATA
#   hsize             string               4     BYTE              
#   hnonsec           integral             1     'h0               
#   hexcl             integral             1     'h0               
#   hmaster           integral             1     'd0               
#   htrans            string               4     IDLE              
#   hwrite            string               4     READ              
#   hreadyout         integral             1     'h1               
#   hresp             string               0     ""                
#   hexokay           integral             1     'h0               
#   hready            integral             1     'h0               
#   choosePacketData  integral             1     'd0               
# -----------------------------------------------------------------
# 
# UVM_INFO ../../src/hvlTop/slaveAgent/AhbSlaveCoverage.sv(39) @ 25: uvm_test_top.swasthik.ahbSlaveAgent[0].ahbSlaveCoverage [AhbSlaveCoverage] AHB SLAVE COVERAGE
# CONNVERTER NO OF WAIT STATES IS 0
#                   25new call 0
# [25] addressTemp = 0, SlaveDriverCb.haddr = 684
#                   25old one done 0 
# [25] run phase got m_tx haddr=0, mtx=2, htrans= 0 
# -----------------------------------------------------------
# Name                      Type                  Size  Value
# -----------------------------------------------------------
# ahbMasterPacket           AhbMasterTransaction  -     @1769
#   haddr                   integral              32    'h0  
#   hselx                   integral              2     'b0  
#   hburst                  string                0     ""   
#   hmastlock               integral              1     'h0  
#   hprot                   string                0     ""   
#   hsize                   string                0     ""   
#   hnonsec                 integral              1     'h0  
#   hexcl                   integral              1     'h0  
#   hmaster                 integral              1     'd0  
#   htrans                  string                4     IDLE 
#   hwrite                  string                4     READ 
#   hreadyout               integral              1     'h0  
#   hresp                   string                4     OKAY 
#   hexokay                 integral              1     'h0  
#   hready                  integral              1     'h0  
#   noOfwaitStatesDetected  integral              32    'h0  
# -----------------------------------------------------------
# [25] run phase got m_tx haddr=0, mtx=2, htrans= 0 
# -----------------------------------------------------------
# Name                      Type                  Size  Value
# -----------------------------------------------------------
# ahbMasterPacket           AhbMasterTransaction  -     @1773
#   haddr                   integral              32    'h0  
#   hselx                   integral              2     'b0  
#   hburst                  string                0     ""   
#   hmastlock               integral              1     'h0  
#   hprot                   string                0     ""   
#   hsize                   string                0     ""   
#   hnonsec                 integral              1     'h0  
#   hexcl                   integral              1     'h0  
#   hmaster                 integral              1     'd0  
#   htrans                  string                4     IDLE 
#   hwrite                  string                4     READ 
#   hreadyout               integral              1     'h0  
#   hresp                   string                4     OKAY 
#   hexokay                 integral              1     'h0  
#   hready                  integral              1     'h0  
#   noOfwaitStatesDetected  integral              32    'h0  
# -----------------------------------------------------------
# run phase got s_tx
# -----------------------------------------------------------------
# Name                Type                 Size  Value             
# -----------------------------------------------------------------
# slave Packet        AhbSlaveTransaction  -     @1777             
#   haddr             integral             32    'h0               
#   hselx             integral             2     'b0               
#   hburst            string               6     SINGLE            
#   hmastlock         integral             1     'h0               
#   hprot             string               18    NORMAL_SECURE_DATA
#   hsize             string               4     BYTE              
#   hnonsec           integral             1     'h0               
#   hexcl             integral             1     'h0               
#   hmaster           integral             1     'd0               
#   htrans            string               4     IDLE              
#   hwrite            string               4     READ              
#   hreadyout         integral             1     'h1               
#   hresp             string               0     ""                
#   hexokay           integral             1     'h0               
#   hready            integral             1     'h0               
#   choosePacketData  integral             1     'd0               
# -----------------------------------------------------------------
# run phase got s_tx
# -----------------------------------------------------------------
# Name                Type                 Size  Value             
# -----------------------------------------------------------------
# slave Packet        AhbSlaveTransaction  -     @1781             
#   haddr             integral             32    'h0               
#   hselx             integral             2     'b0               
#   hburst            string               6     SINGLE            
#   hmastlock         integral             1     'h0               
#   hprot             string               18    NORMAL_SECURE_DATA
#   hsize             string               4     BYTE              
#   hnonsec           integral             1     'h0               
#   hexcl             integral             1     'h0               
#   hmaster           integral             1     'd0               
#   htrans            string               4     IDLE              
#   hwrite            string               4     READ              
#   hreadyout         integral             1     'h1               
#   hresp             string               0     ""                
#   hexokay           integral             1     'h0               
#   hready            integral             1     'h0               
#   choosePacketData  integral             1     'd0               
# -----------------------------------------------------------------
# ENTERED THIS BLOCK @25
# [25] slave_hwdata_stable[1] = 708b81f8
# ENTERED THIS BLOCK @25
# [25] slave_hwdata_stable[0] = cfb7ce3f
#  1st hwdata = cfb7ce3f
# [25] ahbSlaveInterface[0].haddr = 684
#  2nd hwdata = cfb7ce3f
#  1st hwdata = 708b81f8
# [25] ahbSlaveInterface[1].haddr = 1156
#  2nd hwdata = 708b81f8
# [25] 3rd  slave_data_phase.[1].haddr = 1156
# [25] 3rd  slave_data_phase.[0].haddr = 684
# ** Info: THE REQ IS 1x for the slave 0
#    Time: 26 ns  Scope: HdlTop.ahbinterconnect.genblk5[0].genblk1[0] File: ../../src/hdlTop/interconnect/AhbInterconnect.sv Line: 187
# ** Info: THE GRANT IS x for the slave 0 addr is 1160 for master 0
#    Time: 26 ns  Scope: HdlTop.ahbinterconnect.genblk5[0].genblk1[0] File: ../../src/hdlTop/interconnect/AhbInterconnect.sv Line: 188
# ** Info: THE REQ IS x1 for the slave 1
#    Time: 26 ns  Scope: HdlTop.ahbinterconnect.genblk5[1].genblk1[0] File: ../../src/hdlTop/interconnect/AhbInterconnect.sv Line: 187
# ** Info: THE GRANT IS 1 for the slave 1 addr is 1160 for master 0
#    Time: 26 ns  Scope: HdlTop.ahbinterconnect.genblk5[1].genblk1[0] File: ../../src/hdlTop/interconnect/AhbInterconnect.sv Line: 188
# ** Info: THE REQ IS 1x for the slave 0
#    Time: 26 ns  Scope: HdlTop.ahbinterconnect.genblk5[0].genblk1[1] File: ../../src/hdlTop/interconnect/AhbInterconnect.sv Line: 187
# ** Info: THE GRANT IS 1 for the slave 0 addr is 688 for master 1
#    Time: 26 ns  Scope: HdlTop.ahbinterconnect.genblk5[0].genblk1[1] File: ../../src/hdlTop/interconnect/AhbInterconnect.sv Line: 188
# ** Info: THE REQ IS x1 for the slave 1
#    Time: 26 ns  Scope: HdlTop.ahbinterconnect.genblk5[1].genblk1[1] File: ../../src/hdlTop/interconnect/AhbInterconnect.sv Line: 187
# ** Info: THE GRANT IS x for the slave 1 addr is 688 for master 1
#    Time: 26 ns  Scope: HdlTop.ahbinterconnect.genblk5[1].genblk1[1] File: ../../src/hdlTop/interconnect/AhbInterconnect.sv Line: 188
# [26] master_pipeline[1][master_wr_ptr[1]].haddr = 0
# slave number 0 address 688
# [26] master_pipeline[0][master_wr_ptr[0]].haddr = 0
# slave number 1 address 1160
#                   26 2nd else if block can_accept=1 htrans=3 slave_has_owner=1
#                   26 2nd blk grant 1 alsve=1
#                   26 2nd else if block can_accept=1 htrans=3 slave_has_owner=1
#                   26 2nd blk grant 1 alsve=0
# slave number 0 address 688
# slave number 1 address 1160
# slave number 0 address 688
# slave number 1 address 1160
# ** Info: THE REQ IS 1x for the slave 0
#    Time: 26 ns  Scope: HdlTop.ahbinterconnect.genblk5[0].genblk1[0] File: ../../src/hdlTop/interconnect/AhbInterconnect.sv Line: 187
# ** Info: THE GRANT IS 0 for the slave 0 addr is 1160 for master 0
#    Time: 26 ns  Scope: HdlTop.ahbinterconnect.genblk5[0].genblk1[0] File: ../../src/hdlTop/interconnect/AhbInterconnect.sv Line: 188
# ** Info: THE REQ IS 1x for the slave 0
#    Time: 26 ns  Scope: HdlTop.ahbinterconnect.genblk5[0].genblk1[1] File: ../../src/hdlTop/interconnect/AhbInterconnect.sv Line: 187
# ** Info: THE GRANT IS 1 for the slave 0 addr is 688 for master 1
#    Time: 26 ns  Scope: HdlTop.ahbinterconnect.genblk5[0].genblk1[1] File: ../../src/hdlTop/interconnect/AhbInterconnect.sv Line: 188
# ** Info: THE REQ IS x1 for the slave 1
#    Time: 26 ns  Scope: HdlTop.ahbinterconnect.genblk5[1].genblk1[0] File: ../../src/hdlTop/interconnect/AhbInterconnect.sv Line: 187
# ** Info: THE GRANT IS 1 for the slave 1 addr is 1160 for master 0
#    Time: 26 ns  Scope: HdlTop.ahbinterconnect.genblk5[1].genblk1[0] File: ../../src/hdlTop/interconnect/AhbInterconnect.sv Line: 188
# ** Info: THE REQ IS x1 for the slave 1
#    Time: 26 ns  Scope: HdlTop.ahbinterconnect.genblk5[1].genblk1[1] File: ../../src/hdlTop/interconnect/AhbInterconnect.sv Line: 187
# ** Info: THE GRANT IS 0 for the slave 1 addr is 688 for master 1
#    Time: 26 ns  Scope: HdlTop.ahbinterconnect.genblk5[1].genblk1[1] File: ../../src/hdlTop/interconnect/AhbInterconnect.sv Line: 188
# 26 check slave_hreadyout[1] = 1
# last grant s=1 m=0 g==1
#                   26else hready 1 master [0] can_accept=1 oldest_is_ready=1
# 26 check slave_hreadyout[0] = 1
# last grant s=0 m=1 g==1
#                   26else hready 1 master [1] can_accept=1 oldest_is_ready=1
# ENTERED THIS BLOCK @26
# [26] slave_hwdata_stable[1] = 708b81f8
# ENTERED THIS BLOCK @26
# [26] slave_hwdata_stable[0] = cfb7ce3f
# [26] master_pipeline[1][master_wr_ptr[1]].haddr = 0
# slave number 0 address 688
# [26] master_pipeline[0][master_wr_ptr[0]].haddr = 0
# slave number 1 address 1160
#  1st hwdata = cfb7ce3f
# [26] ahbSlaveInterface[0].haddr = 688
#  2nd hwdata = cfb7ce3f
#  1st hwdata = 708b81f8
# [26] ahbSlaveInterface[1].haddr = 1160
#  2nd hwdata = 708b81f8
# [26] 2nd  slave_data_phase.[1].haddr = 1160
# [26] 2nd  slave_data_phase.[0].haddr = 688
#                   35 first master_grant[slaveloop=1][masterloop=0]=1
# [35] current_owner[1] = 0
# [35] new_c_owner[1] = 0
# [35] my_slave = 1, my_read_owner = 0
# [35] my_slave = 0, my_read_owner = x
#                   35 first master_grant[slaveloop=0][masterloop=1]=1
# [35] current_owner[0] = 1
# [35] new_c_owner[0] = 1
# [35] my_slave = 0, my_read_owner = 1
#  time = 35, master = 0, slave = 1,  read_owner = 0
#  time = 35, master = 1, slave = 0,  read_owner = 1
# ishika 35 haddr = 2ac
# [35] from master monitor = haddr=688
# UVM_INFO ../../src/hvlTop/masterAgent/AhbMasterMonitorProxy.sv(72) @ 35: uvm_test_top.swasthik.ahbMasterAgent[1].ahbMasterMonitorProxy [AhbMasterMonitorProxy] Sending packet via analysis_port: , 
#  ----------------------------------------------------------------------------
# Name                      Type                  Size  Value                 
# ----------------------------------------------------------------------------
# ahbMasterPacket           AhbMasterTransaction  -     @1785                 
#   haddr                   integral              32    'h2ac                 
#   hselx                   integral              2     'b0                   
#   hburst                  string                5     INCR8                 
#   hmastlock               integral              1     'h0                   
#   hprot                   string                22    PRIVILEGED_SECURE_DATA
#   hsize                   string                4     WORD                  
#   hnonsec                 integral              1     'h1                   
#   hexcl                   integral              1     'h0                   
#   hmaster                 integral              1     'd0                   
#   htrans                  string                6     NONSEQ                
#   hwrite                  string                5     WRITE                 
#   hreadyout               integral              1     'h0                   
#   hresp                   string                4     OKAY                  
#   hexokay                 integral              1     'h0                   
#   hready                  integral              1     'h0                   
#   noOfwaitStatesDetected  integral              32    'h0                   
#   hwdata[0]               integral              32    'hcfb7ce3f            
#   hwstrb[0]               integral              4     'b1111                
# ----------------------------------------------------------------------------
# 
# UVM_INFO ../../src/hvlTop/masterAgent/AhbMasterCoverage.sv(107) @ 35: uvm_test_top.swasthik.ahbMasterAgent[1].ahbMasterCoverage [AhbMasterCoverage] Before calling SAMPLE METHOD
# UVM_INFO ../../src/hvlTop/masterAgent/AhbMasterCoverage.sv(109) @ 35: uvm_test_top.swasthik.ahbMasterAgent[1].ahbMasterCoverage [AhbMasterCoverage] After calling SAMPLE METHOD
# HEY I AM INSIDE BURST
# ishika 35 haddr = 484
# [35] from master monitor = haddr=1160
# UVM_INFO ../../src/hvlTop/masterAgent/AhbMasterMonitorProxy.sv(72) @ 35: uvm_test_top.swasthik.ahbMasterAgent[0].ahbMasterMonitorProxy [AhbMasterMonitorProxy] Sending packet via analysis_port: , 
#  ----------------------------------------------------------------------------------
# Name                      Type                  Size  Value                       
# ----------------------------------------------------------------------------------
# ahbMasterPacket           AhbMasterTransaction  -     @1789                       
#   haddr                   integral              32    'h484                       
