# vsim -vopt work.HvlTop work.HdlTop -voptargs="+acc=npr" -sv_seed random -assertdebug "+UVM_TESTNAME=AhbWriteFollowedByReadTest" "+UVM_VERBOSITY=UVM_HIGH" "+define+" -l AhbWriteFollowedByReadTest/AhbWriteFollowedByReadTest.log -sva -coverage -c -do "log -r /*; add wave -r /*; coverage save -onexit -assert -directive -cvg -codeAll AhbWriteFollowedByReadTest/AhbWriteFollowedByReadTest_coverage.ucdb; run -all; exit" -wlf AhbWriteFollowedByReadTest/waveform.wlf 
# Start time: 14:14:45 on Jan 13,2026
# ** Note: (vsim-3812) Design is being optimized...
# ** Warning: ../../src/hvlTop/environment/AhbScoreboard.sv(174): (vopt-8491) 'new' must be used to assign to a dynamic array; 'new' is not legal with a queue.
# ** Warning: ../../src/hvlTop/tb/test/AhbBaseTest.sv(63): (vopt-2240) Treating stand-alone use of function 'randomize' as an implicit VOID cast.
# ** Warning: ../../src/hdlTop/masterAgentBFM/AhbMasterAgentBFM.sv(41): (vopt-2685) [TFMPC] - Too few port connections for 'ahbMasterMonitorBFM'.  Expected 20, found 19.
# ** Warning: ../../src/hdlTop/masterAgentBFM/AhbMasterAgentBFM.sv(41): (vopt-2718) [TFMPC] - Missing connection for port 'hselx'.
# ** Warning: ../../src/hdlTop/masterAgentBFM/AhbMasterAgentBFM.sv(41): (vopt-2685) [TFMPC] - Too few port connections for 'ahbMasterMonitorBFM'.  Expected 20, found 19.
# ** Warning: ../../src/hdlTop/masterAgentBFM/AhbMasterAgentBFM.sv(41): (vopt-2718) [TFMPC] - Missing connection for port 'hselx'.
# ** Note: (vsim-12126) Error and warning message counts have been restored: Errors=0, Warnings=6.
# //  Questa Sim-64
# //  Version 2021.2_1 linux_x86_64 May 15 2021
# //
# //  Copyright 1991-2021 Mentor Graphics Corporation
# //  All Rights Reserved.
# //
# //  QuestaSim and its associated documentation contain trade
# //  secrets and commercial or financial information that are the property of
# //  Mentor Graphics Corporation and are privileged, confidential,
# //  and exempt from disclosure under the Freedom of Information Act,
# //  5 U.S.C. Section 552. Furthermore, this information
# //  is prohibited from disclosure under the Trade Secrets Act,
# //  18 U.S.C. Section 1905.
# //
# Loading sv_std.std
# Loading work.AhbMasterDriverBFM(fast)
# Loading work.AhbMasterMonitorBFM(fast)
# Loading work.AhbSlaveDriverBFM(fast)
# Loading work.AhbSlaveMonitorBFM(fast)
# Loading work.AhbGlobalPackage(fast)
# Loading mtiUvm.uvm_pkg(fast)
# Loading work.AhbSlavePackage(fast)
# Loading work.AhbMasterPackage(fast)
# Loading work.AhbEnvironmentPackage(fast)
# Loading work.AhbSlaveSequencePackage(fast)
# Loading work.AhbMasterSequencePackage(fast)
# Loading work.AhbVirtualSequencePackage(fast)
# Loading work.AhbTestPackage(fast)
# Loading mtiUvm.questa_uvm_pkg(fast)
# Loading work.HvlTop(fast)
# Loading work.HdlTop(fast)
# Loading work.AhbInterconnect_sv_unit(fast)
# Loading work.AhbInterconnect(fast__1)
# Loading work.AhbMasterAgentBFM(fast)
# Loading work.AhbMasterDriverBFM_sv_unit(fast)
# Loading work.AhbMasterDriverBFM(fast__1)
# Loading work.AhbMasterMonitorBFM_sv_unit(fast)
# Loading work.AhbMasterMonitorBFM(fast__1)
# Loading work.AhbMasterAgentBFM(fast__1)
# Loading work.AhbSlaveAgentBFM(fast)
# Loading work.AhbSlaveDriverBFM_sv_unit(fast)
# Loading work.AhbSlaveDriverBFM(fast__1)
# Loading work.AhbSlaveMonitorBFM_sv_unit(fast)
# Loading work.AhbSlaveMonitorBFM(fast__1)
# Loading work.AhbSlaveAgentBFM(fast__1)
# Loading work.AhbInterface_sv_unit(fast)
# Loading work.AhbInterface(fast__1)
# Loading work.AhbInterface(fast__2)
# Loading /home/nihalns/.local/.vault.mount/.pkg_cache/questasim/uvm-1.1d/linux_x86_64/uvm_dpi.so
# Sv_Seed = 1944063862
# log -r /*
#  add wave -r /*
#  coverage save -onexit -assert -directive -cvg -codeAll AhbWriteFollowedByReadTest/AhbWriteFollowedByReadTest_coverage.ucdb
#  run -all
# ----------------------------------------------------------------
# UVM-1.1d
# (C) 2007-2013 Mentor Graphics Corporation
# (C) 2007-2013 Cadence Design Systems, Inc.
# (C) 2006-2013 Synopsys, Inc.
# (C) 2011-2013 Cypress Semiconductor Corp.
# ----------------------------------------------------------------
# 
#   ***********       IMPORTANT RELEASE NOTES         ************
# 
#   You are using a version of the UVM library that has been compiled
#   with `UVM_NO_DEPRECATED undefined.
#   See http://www.eda.org/svdb/view.php?id=3313 for more details.
# 
#   You are using a version of the UVM library that has been compiled
#   with `UVM_OBJECT_MUST_HAVE_CONSTRUCTOR undefined.
#   See http://www.eda.org/svdb/view.php?id=3770 for more details.
# 
#       (Specify +UVM_NO_RELNOTES to turn off this notice)
# 
# UVM_INFO verilog_src/questa_uvm_pkg-1.2/src/questa_uvm_pkg.sv(277) @ 0: reporter [Questa UVM] QUESTA_UVM-1.2.3
# UVM_INFO verilog_src/questa_uvm_pkg-1.2/src/questa_uvm_pkg.sv(278) @ 0: reporter [Questa UVM]  questa_uvm::init(+struct)
# UVM_INFO @ 0: reporter [RNTST] Running test AhbWriteFollowedByReadTest...
# UVM_INFO ../../src/hdlTop/HdlTop.sv(13) @ 0: reporter [HDL_TOP] HDL_TOP
# UVM_INFO ../../src/hdlTop/masterAgentBFM/AhbMasterAgentBFM.sv(15) @ 0: reporter [ahb master agent bfm] AHB MASTER AGENT BFM id is 0
# UVM_INFO ../../src/hdlTop/masterAgentBFM/AhbMasterDriverBFM.sv(37) @ 0: reporter [MASTER AGENT DRIVER BFM] [0]  MASTER AGENT DRIVER BFM STARTED AND CREATED AS EXPECTED HdlTop.genblk1[0].ahbMasterAgentBFM.ahbMasterDriverBFM.MASTER_DRIVER
# UVM_INFO ../../src/hdlTop/masterAgentBFM/AhbMasterMonitorBFM.sv(38) @ 0: reporter [AHB_MASTER_MONITOR_BFM] AHB MASTER MONITOR BFM
# UVM_INFO ../../src/hdlTop/masterAgentBFM/AhbMasterAgentBFM.sv(15) @ 0: reporter [ahb master agent bfm] AHB MASTER AGENT BFM id is 1
# UVM_INFO ../../src/hdlTop/masterAgentBFM/AhbMasterDriverBFM.sv(37) @ 0: reporter [MASTER AGENT DRIVER BFM] [0]  MASTER AGENT DRIVER BFM STARTED AND CREATED AS EXPECTED HdlTop.genblk1[1].ahbMasterAgentBFM.ahbMasterDriverBFM.MASTER_DRIVER
# UVM_INFO ../../src/hdlTop/masterAgentBFM/AhbMasterMonitorBFM.sv(38) @ 0: reporter [AHB_MASTER_MONITOR_BFM] AHB MASTER MONITOR BFM
# UVM_INFO ../../src/hdlTop/slaveAgentBFM/AhbSlaveAgentBFM.sv(14) @ 0: reporter [ahb slave agent bfm] AHB SLAVE AGENT BFM 0
# UVM_INFO ../../src/hdlTop/slaveAgentBFM/AhbSlaveDriverBFM.sv(54) @ 0: reporter [AHB_SLAVE_DRIVER_BFM] AHB_SLAVE_DRIVER_BFM
# UVM_INFO ../../src/hdlTop/slaveAgentBFM/AhbSlaveMonitorBFM.sv(40) @ 0: reporter [AHB_SLAVE_MONITOR_BFM] AHB_SLAVE_MONITOR_BFM
# UVM_INFO ../../src/hdlTop/slaveAgentBFM/AhbSlaveAgentBFM.sv(14) @ 0: reporter [ahb slave agent bfm] AHB SLAVE AGENT BFM 1
# UVM_INFO ../../src/hdlTop/slaveAgentBFM/AhbSlaveDriverBFM.sv(54) @ 0: reporter [AHB_SLAVE_DRIVER_BFM] AHB_SLAVE_DRIVER_BFM
# UVM_INFO ../../src/hdlTop/slaveAgentBFM/AhbSlaveMonitorBFM.sv(40) @ 0: reporter [AHB_SLAVE_MONITOR_BFM] AHB_SLAVE_MONITOR_BFM
# ** Info: THE REQ IS x for the slave 1
#    Time: 0 ns  Scope: HdlTop.ahbinterconnect.genblk5[1].genblk1[1] File: ../../src/hdlTop/interconnect/AhbInterconnect.sv Line: 164
# ** Info: THE GRANT IS 0 for the slave 1
#    Time: 0 ns  Scope: HdlTop.ahbinterconnect.genblk5[1].genblk1[1] File: ../../src/hdlTop/interconnect/AhbInterconnect.sv Line: 165
# THE ADDRESS IS x for the master =1
# ** Info: THE REQ IS x for the slave 1
#    Time: 0 ns  Scope: HdlTop.ahbinterconnect.genblk5[1].genblk1[0] File: ../../src/hdlTop/interconnect/AhbInterconnect.sv Line: 164
# ** Info: THE GRANT IS 0 for the slave 1
#    Time: 0 ns  Scope: HdlTop.ahbinterconnect.genblk5[1].genblk1[0] File: ../../src/hdlTop/interconnect/AhbInterconnect.sv Line: 165
# THE ADDRESS IS x for the master =0
# ** Info: THE REQ IS x for the slave 0
#    Time: 0 ns  Scope: HdlTop.ahbinterconnect.genblk5[0].genblk1[1] File: ../../src/hdlTop/interconnect/AhbInterconnect.sv Line: 164
# ** Info: THE GRANT IS 0 for the slave 0
#    Time: 0 ns  Scope: HdlTop.ahbinterconnect.genblk5[0].genblk1[1] File: ../../src/hdlTop/interconnect/AhbInterconnect.sv Line: 165
# THE ADDRESS IS x for the master =1
# ** Info: THE REQ IS x for the slave 0
#    Time: 0 ns  Scope: HdlTop.ahbinterconnect.genblk5[0].genblk1[0] File: ../../src/hdlTop/interconnect/AhbInterconnect.sv Line: 164
# ** Info: THE GRANT IS 0 for the slave 0
#    Time: 0 ns  Scope: HdlTop.ahbinterconnect.genblk5[0].genblk1[0] File: ../../src/hdlTop/interconnect/AhbInterconnect.sv Line: 165
# THE ADDRESS IS x for the master =0
# ** Info: THE REQ IS x for the slave 0
#    Time: 0 ns  Scope: HdlTop.ahbinterconnect.genblk5[0].genblk1[0] File: ../../src/hdlTop/interconnect/AhbInterconnect.sv Line: 164
# ** Info: THE GRANT IS 0 for the slave 0
#    Time: 0 ns  Scope: HdlTop.ahbinterconnect.genblk5[0].genblk1[0] File: ../../src/hdlTop/interconnect/AhbInterconnect.sv Line: 165
# THE ADDRESS IS x for the master =0
# ** Info: THE REQ IS x for the slave 0
#    Time: 0 ns  Scope: HdlTop.ahbinterconnect.genblk5[0].genblk1[1] File: ../../src/hdlTop/interconnect/AhbInterconnect.sv Line: 164
# ** Info: THE GRANT IS 0 for the slave 0
#    Time: 0 ns  Scope: HdlTop.ahbinterconnect.genblk5[0].genblk1[1] File: ../../src/hdlTop/interconnect/AhbInterconnect.sv Line: 165
# THE ADDRESS IS x for the master =1
# ** Info: THE REQ IS 0 for the slave 1
#    Time: 0 ns  Scope: HdlTop.ahbinterconnect.genblk5[1].genblk1[0] File: ../../src/hdlTop/interconnect/AhbInterconnect.sv Line: 164
# ** Info: THE GRANT IS 0 for the slave 1
#    Time: 0 ns  Scope: HdlTop.ahbinterconnect.genblk5[1].genblk1[0] File: ../../src/hdlTop/interconnect/AhbInterconnect.sv Line: 165
# THE ADDRESS IS x for the master =0
# ** Info: THE REQ IS 0 for the slave 1
#    Time: 0 ns  Scope: HdlTop.ahbinterconnect.genblk5[1].genblk1[1] File: ../../src/hdlTop/interconnect/AhbInterconnect.sv Line: 164
# ** Info: THE GRANT IS 0 for the slave 1
#    Time: 0 ns  Scope: HdlTop.ahbinterconnect.genblk5[1].genblk1[1] File: ../../src/hdlTop/interconnect/AhbInterconnect.sv Line: 165
# THE ADDRESS IS x for the master =1
# THE MASTER FIELD IS AhbMasterDriverBFM0 
# THE MASTER FIELD IS AhbMasterDriverBFM1 
# UVM_INFO ../../src/hvlTop/tb/test/AhbBaseTest.sv(57) @ 0: uvm_test_top [AhbWriteFollowedByReadTest] 
# AHB_MASTER_CONFIG[0]
# ----------------------------------------------------------
# Name                     Type                  Size  Value
# ----------------------------------------------------------
# AhbMasterAgentConfig[0]  AhbMasterAgentConfig  -     @505 
#   is_active              integral              1     1    
#   hasCoverage            integral              1     1    
# ----------------------------------------------------------
# 
# UVM_INFO ../../src/hvlTop/tb/test/AhbBaseTest.sv(57) @ 0: uvm_test_top [AhbWriteFollowedByReadTest] 
# AHB_MASTER_CONFIG[1]
# ----------------------------------------------------------
# Name                     Type                  Size  Value
# ----------------------------------------------------------
# AhbMasterAgentConfig[1]  AhbMasterAgentConfig  -     @506 
#   is_active              integral              1     1    
#   hasCoverage            integral              1     1    
# ----------------------------------------------------------
# 
# THE FIELD IS AhbSlaveDriverBFM0
# THE FIELD IS AhbSlaveDriverBFM1
# UVM_INFO ../../src/hvlTop/tb/test/AhbBaseTest.sv(70) @ 0: uvm_test_top [AhbWriteFollowedByReadTest] 
# AHB_SLAVE_CONFIG[0]
# -------------------------------------------------------------
# Name                    Type                 Size  Value     
# -------------------------------------------------------------
# AhbSlaveAgentConfig[0]  AhbSlaveAgentConfig  -     @517      
#   is_active             string               10    UVM_ACTIVE
#   hasCoverage           integral             1     1         
#   maximumAddress        integral             32    'h0       
#   minimumAddress        integral             32    'h0       
# -------------------------------------------------------------
# 
# UVM_INFO ../../src/hvlTop/tb/test/AhbBaseTest.sv(70) @ 0: uvm_test_top [AhbWriteFollowedByReadTest] 
# AHB_SLAVE_CONFIG[1]
# -------------------------------------------------------------
# Name                    Type                 Size  Value     
# -------------------------------------------------------------
# AhbSlaveAgentConfig[1]  AhbSlaveAgentConfig  -     @518      
#   is_active             string               10    UVM_ACTIVE
#   hasCoverage           integral             1     1         
#   maximumAddress        integral             32    'h0       
#   minimumAddress        integral             32    'h0       
# -------------------------------------------------------------
# 
# UVM_INFO ../../src/hvlTop/tb/test/AhbBaseTest.sv(74) @ 0: uvm_test_top [AhbWriteFollowedByReadTest] 
# AHB_ENV_CONFIG
# -------------------------------------------------------------
# Name                   Type                  Size  Value     
# -------------------------------------------------------------
# ahbEnvironmentConfig   AhbEnvironmentConfig  -     @504      
#   hasScoreboard        integral              1     1         
#   hasVirtualSequencer  integral              1     1         
#   noOfMasters          integral              32    'd2       
#   noOfSlaves           integral              32    'd2       
#   operationMode        integral              2     2         
#   operationMode        string                10    WRITE_READ
# -------------------------------------------------------------
# 
# ASSIGNMENT IN ENV IS 3
# ASSIGNMENT IN ENV IS 3
# THE CONFIG IS 65942
# THE CONFIG IS 131478
# UVM_INFO ../../src/hvlTop/slaveAgent/AhbSlaveAgent.sv(28) @ 0: uvm_test_top.swasthik.ahbSlaveAgent[0] [AhbSlaveAgent] SLAVE AGENT CREATED
# UVM_INFO ../../src/hvlTop/slaveAgent/AhbSlaveAgent.sv(30) @ 0: uvm_test_top.swasthik.ahbSlaveAgent[0] [AhbSlaveAgent] NO OF WAIT STATES: 3
# UVM_INFO ../../src/hvlTop/slaveAgent/AhbSlaveDriverProxy.sv(146) @ 0: uvm_test_top.swasthik.ahbSlaveAgent[0].ahbSlaveDriverProxy [AhbSlaveDriverProxy] NO OF WAIT STATES: 3
# UVM_INFO ../../src/hvlTop/slaveAgent/AhbSlaveDriverProxy.sv(34) @ 0: uvm_test_top.swasthik.ahbSlaveAgent[0].ahbSlaveDriverProxy [AhbSlaveDriverProxy] SLAVE DRIVER PROXY CREATED
# UVM_INFO ../../src/hvlTop/slaveAgent/AhbSlaveMonitorProxy.sv(32) @ 0: uvm_test_top.swasthik.ahbSlaveAgent[0].ahbSlaveMonitorProxy [AhbSlaveMonitorProxy] SLAVE MONITOR PROXY CREATED
# UVM_INFO ../../src/hvlTop/slaveAgent/AhbSlaveAgent.sv(28) @ 0: uvm_test_top.swasthik.ahbSlaveAgent[1] [AhbSlaveAgent] SLAVE AGENT CREATED
# UVM_INFO ../../src/hvlTop/slaveAgent/AhbSlaveAgent.sv(30) @ 0: uvm_test_top.swasthik.ahbSlaveAgent[1] [AhbSlaveAgent] NO OF WAIT STATES: 3
# UVM_INFO ../../src/hvlTop/slaveAgent/AhbSlaveDriverProxy.sv(146) @ 0: uvm_test_top.swasthik.ahbSlaveAgent[1].ahbSlaveDriverProxy [AhbSlaveDriverProxy] NO OF WAIT STATES: 3
# UVM_INFO ../../src/hvlTop/slaveAgent/AhbSlaveDriverProxy.sv(34) @ 0: uvm_test_top.swasthik.ahbSlaveAgent[1].ahbSlaveDriverProxy [AhbSlaveDriverProxy] SLAVE DRIVER PROXY CREATED
# UVM_INFO ../../src/hvlTop/slaveAgent/AhbSlaveMonitorProxy.sv(32) @ 0: uvm_test_top.swasthik.ahbSlaveAgent[1].ahbSlaveMonitorProxy [AhbSlaveMonitorProxy] SLAVE MONITOR PROXY CREATED
# UVM_INFO @ 0: reporter [UVMTOP] UVM testbench topology:
# -----------------------------------------------------------------------
# Name                            Type                        Size  Value
# -----------------------------------------------------------------------
# uvm_test_top                    AhbWriteFollowedByReadTest  -     @473 
#   swasthik                      AhbEnvironment              -     @533 
#     ahbMasterAgent[0]           AhbMasterAgent              -     @543 
#       ahbMasterCoverage         AhbMasterCoverage           -     @1025
#         analysis_imp            uvm_analysis_imp            -     @1032
#       ahbMasterDriverProxy      AhbMasterDriverProxy        -     @987 
#         rsp_port                uvm_analysis_port           -     @1002
#         seq_item_port           uvm_seq_item_pull_port      -     @994 
#       ahbMasterMonitorProxy     AhbMasterMonitorProxy       -     @1010
#         ahbMasterAnalysisPort   uvm_analysis_port           -     @1017
#       ahbMasterSequencer        AhbMasterSequencer          -     @878 
#         rsp_export              uvm_analysis_export         -     @885 
#         seq_item_export         uvm_seq_item_pull_imp       -     @979 
#         arbitration_queue       array                       0     -    
#         lock_queue              array                       0     -    
#         num_last_reqs           integral                    32    'd1  
#         num_last_rsps           integral                    32    'd1  
#     ahbMasterAgent[1]           AhbMasterAgent              -     @550 
#       ahbMasterCoverage         AhbMasterCoverage           -     @1193
#         analysis_imp            uvm_analysis_imp            -     @1200
#       ahbMasterDriverProxy      AhbMasterDriverProxy        -     @1155
#         rsp_port                uvm_analysis_port           -     @1170
#         seq_item_port           uvm_seq_item_pull_port      -     @1162
#       ahbMasterMonitorProxy     AhbMasterMonitorProxy       -     @1178
#         ahbMasterAnalysisPort   uvm_analysis_port           -     @1185
#       ahbMasterSequencer        AhbMasterSequencer          -     @1046
#         rsp_export              uvm_analysis_export         -     @1053
#         seq_item_export         uvm_seq_item_pull_imp       -     @1147
#         arbitration_queue       array                       0     -    
#         lock_queue              array                       0     -    
#         num_last_reqs           integral                    32    'd1  
#         num_last_rsps           integral                    32    'd1  
#     ahbScoreboard               AhbScoreboard               -     @682 
#       ahbMasterAnalysisFifo[0]  uvm_tlm_analysis_fifo #(T)  -     @689 
#         analysis_export         uvm_analysis_imp            -     @728 
#         get_ap                  uvm_analysis_port           -     @720 
#         get_peek_export         uvm_get_peek_imp            -     @704 
#         put_ap                  uvm_analysis_port           -     @712 
#         put_export              uvm_put_imp                 -     @696 
#       ahbMasterAnalysisFifo[1]  uvm_tlm_analysis_fifo #(T)  -     @736 
#         analysis_export         uvm_analysis_imp            -     @775 
#         get_ap                  uvm_analysis_port           -     @767 
#         get_peek_export         uvm_get_peek_imp            -     @751 
#         put_ap                  uvm_analysis_port           -     @759 
#         put_export              uvm_put_imp                 -     @743 
#       ahbSlaveAnalysisFifo[0]   uvm_tlm_analysis_fifo #(T)  -     @783 
#         analysis_export         uvm_analysis_imp            -     @822 
#         get_ap                  uvm_analysis_port           -     @814 
#         get_peek_export         uvm_get_peek_imp            -     @798 
#         put_ap                  uvm_analysis_port           -     @806 
#         put_export              uvm_put_imp                 -     @790 
#       ahbSlaveAnalysisFifo[1]   uvm_tlm_analysis_fifo #(T)  -     @830 
#         analysis_export         uvm_analysis_imp            -     @869 
#         get_ap                  uvm_analysis_port           -     @861 
#         get_peek_export         uvm_get_peek_imp            -     @845 
#         put_ap                  uvm_analysis_port           -     @853 
#         put_export              uvm_put_imp                 -     @837 
#     ahbSlaveAgent[0]            AhbSlaveAgent               -     @559 
#       ahbSlaveCoverage          AhbSlaveCoverage            -     @1362
#         analysis_imp            uvm_analysis_imp            -     @1369
#       ahbSlaveDriverProxy       AhbSlaveDriverProxy         -     @1324
#         rsp_port                uvm_analysis_port           -     @1339
#         seq_item_port           uvm_seq_item_pull_port      -     @1331
#       ahbSlaveMonitorProxy      AhbSlaveMonitorProxy        -     @1347
#         ahbSlaveAnalysisPort    uvm_analysis_port           -     @1354
#       ahbSlaveSequencer         AhbSlaveSequencer           -     @1215
#         rsp_export              uvm_analysis_export         -     @1222
#         seq_item_export         uvm_seq_item_pull_imp       -     @1316
#         arbitration_queue       array                       0     -    
#         lock_queue              array                       0     -    
#         num_last_reqs           integral                    32    'd1  
#         num_last_rsps           integral                    32    'd1  
#     ahbSlaveAgent[1]            AhbSlaveAgent               -     @566 
#       ahbSlaveCoverage          AhbSlaveCoverage            -     @1530
#         analysis_imp            uvm_analysis_imp            -     @1537
#       ahbSlaveDriverProxy       AhbSlaveDriverProxy         -     @1492
#         rsp_port                uvm_analysis_port           -     @1507
#         seq_item_port           uvm_seq_item_pull_port      -     @1499
#       ahbSlaveMonitorProxy      AhbSlaveMonitorProxy        -     @1515
#         ahbSlaveAnalysisPort    uvm_analysis_port           -     @1522
#       ahbSlaveSequencer         AhbSlaveSequencer           -     @1383
#         rsp_export              uvm_analysis_export         -     @1390
#         seq_item_export         uvm_seq_item_pull_imp       -     @1484
#         arbitration_queue       array                       0     -    
#         lock_queue              array                       0     -    
#         num_last_reqs           integral                    32    'd1  
#         num_last_rsps           integral                    32    'd1  
#     ahbVirtualSequencer         AhbVirtualSequencer         -     @573 
#       rsp_export                uvm_analysis_export         -     @580 
#       seq_item_export           uvm_seq_item_pull_imp       -     @674 
#       arbitration_queue         array                       0     -    
#       lock_queue                array                       0     -    
#       num_last_reqs             integral                    32    'd1  
#       num_last_rsps             integral                    32    'd1  
# -----------------------------------------------------------------------
# 
# UVM_INFO verilog_src/questa_uvm_pkg-1.2/src/questa_uvm_pkg.sv(339) @ 0: reporter [Questa UVM] End Of Elaboration
# UVM_INFO ../../src/hvlTop/tb/test/AhbWriteFollowedByReadTest.sv(29) @ 0: uvm_test_top [AhbWriteFollowedByReadTest] AhbWriteFollowedByReadTest
# CONNVERTER NO OF WAIT STATES IS 0
# UVM_INFO ../../src/hvlTop/slaveAgent/AhbSlaveDriverProxy.sv(50) @ 0: uvm_test_top.swasthik.ahbSlaveAgent[1].ahbSlaveDriverProxy [AhbSlaveDriverProxy]  BEFORE RESET 
#  
# CONNVERTER NO OF WAIT STATES IS 0
# UVM_INFO ../../src/hvlTop/slaveAgent/AhbSlaveDriverProxy.sv(50) @ 0: uvm_test_top.swasthik.ahbSlaveAgent[0].ahbSlaveDriverProxy [AhbSlaveDriverProxy]  BEFORE RESET 
#  
# UVM_INFO ../../src/hvlTop/masterAgent/AhbMasterMonitorProxy.sv(88) @ 0: uvm_test_top.swasthik.ahbMasterAgent[1].ahbMasterMonitorProxy [AhbMasterMonitorProxy] Inside the master_monitor_proxy
# UVM_INFO ../../src/hdlTop/masterAgentBFM/AhbMasterMonitorBFM.sv(42) @ 0: reporter [MASTER AGENT MONITOR BFM] [0]  waitForResetn CALLED
# UVM_INFO ../../src/hdlTop/masterAgentBFM/AhbMasterDriverBFM.sv(48) @ 0: reporter [MASTER AGENT DRIVER BFM] [0]  waitForRestn CALLED
# UVM_INFO ../../src/hvlTop/masterAgent/AhbMasterMonitorProxy.sv(88) @ 0: uvm_test_top.swasthik.ahbMasterAgent[0].ahbMasterMonitorProxy [AhbMasterMonitorProxy] Inside the master_monitor_proxy
# UVM_INFO ../../src/hdlTop/masterAgentBFM/AhbMasterMonitorBFM.sv(42) @ 0: reporter [MASTER AGENT MONITOR BFM] [0]  waitForResetn CALLED
# UVM_INFO ../../src/hdlTop/masterAgentBFM/AhbMasterDriverBFM.sv(48) @ 0: reporter [MASTER AGENT DRIVER BFM] [0]  waitForRestn CALLED
# UVM_INFO ../../src/hvlTop/tb/virtualSequences//AhbVirtualWriteFollowedByReadSequence.sv(61) @ 0: uvm_test_top.swasthik.ahbVirtualSequencer@@ahbVirtualWriteFollowedByReadSequence [AhbVirtualWriteFollowedByReadSequence] temp_addr[0] = 480
# UVM_INFO ../../src/hvlTop/tb/virtualSequences//AhbVirtualWriteFollowedByReadSequence.sv(61) @ 0: uvm_test_top.swasthik.ahbVirtualSequencer@@ahbVirtualWriteFollowedByReadSequence [AhbVirtualWriteFollowedByReadSequence] temp_addr[1] = 7ec
# UVM_INFO ../../src/hvlTop/tb/virtualSequences//AhbVirtualWriteFollowedByReadSequence.sv(77) @ 0: uvm_test_top.swasthik.ahbVirtualSequencer@@ahbVirtualWriteFollowedByReadSequence [AhbVirtualWriteFollowedByReadSequence] temp_addr[0] = 480
# UVM_INFO ../../src/hvlTop/tb/virtualSequences//AhbVirtualWriteFollowedByReadSequence.sv(77) @ 0: uvm_test_top.swasthik.ahbVirtualSequencer@@ahbVirtualWriteFollowedByReadSequence [AhbVirtualWriteFollowedByReadSequence] temp_addr[1] = 7ec
# UVM_INFO ../../src/hvlTop/slaveAgent/AhbSlaveMonitorProxy.sv(77) @ 5: uvm_test_top.swasthik.ahbSlaveAgent[0].ahbSlaveMonitorProxy [AhbSlaveMonitorProxy] Sending packet via analysis_port: , 
#  ----------------------------------------------------
# Name                Type                 Size  Value
# ----------------------------------------------------
# slave Packet        AhbSlaveTransaction  -     @1771
#   haddr             integral             32    'h0  
#   hselx             integral             2     'b0  
#   hburst            string               0     ""   
#   hmastlock         integral             1     'h0  
#   hprot             string               0     ""   
#   hsize             string               0     ""   
#   hnonsec           integral             1     'h0  
#   hexcl             integral             1     'h0  
#   hmaster           integral             1     'd0  
#   htrans            string               0     ""   
#   hwrite            string               4     READ 
#   hreadyout         integral             1     'h0  
#   hresp             string               0     ""   
#   hexokay           integral             1     'h0  
#   hready            integral             1     'h0  
#   choosePacketData  integral             1     'd0  
# ----------------------------------------------------
# 
# UVM_INFO ../../src/hvlTop/slaveAgent/AhbSlaveCoverage.sv(39) @ 5: uvm_test_top.swasthik.ahbSlaveAgent[0].ahbSlaveCoverage [AhbSlaveCoverage] AHB SLAVE COVERAGE
# CONNVERTER NO OF WAIT STATES IS 0
# UVM_INFO ../../src/hvlTop/slaveAgent/AhbSlaveMonitorProxy.sv(77) @ 5: uvm_test_top.swasthik.ahbSlaveAgent[1].ahbSlaveMonitorProxy [AhbSlaveMonitorProxy] Sending packet via analysis_port: , 
#  ----------------------------------------------------
# Name                Type                 Size  Value
# ----------------------------------------------------
# slave Packet        AhbSlaveTransaction  -     @1779
#   haddr             integral             32    'h0  
#   hselx             integral             2     'b0  
#   hburst            string               0     ""   
#   hmastlock         integral             1     'h0  
#   hprot             string               0     ""   
#   hsize             string               0     ""   
#   hnonsec           integral             1     'h0  
#   hexcl             integral             1     'h0  
#   hmaster           integral             1     'd0  
#   htrans            string               0     ""   
#   hwrite            string               4     READ 
#   hreadyout         integral             1     'h0  
#   hresp             string               0     ""   
#   hexokay           integral             1     'h0  
#   hready            integral             1     'h0  
#   choosePacketData  integral             1     'd0  
# ----------------------------------------------------
# 
# UVM_INFO ../../src/hvlTop/slaveAgent/AhbSlaveCoverage.sv(39) @ 5: uvm_test_top.swasthik.ahbSlaveAgent[1].ahbSlaveCoverage [AhbSlaveCoverage] AHB SLAVE COVERAGE
# CONNVERTER NO OF WAIT STATES IS 0
# UVM_INFO ../../src/hvlTop/environment/AhbScoreboard.sv(251) @ 5: uvm_test_top.swasthik.ahbScoreboard [SCB_SKIP] Skipping Slave Packet with empty Data (Address Phase)
# UVM_INFO ../../src/hvlTop/environment/AhbScoreboard.sv(251) @ 5: uvm_test_top.swasthik.ahbScoreboard [SCB_SKIP] Skipping Slave Packet with empty Data (Address Phase)
# UVM_INFO ../../src/hdlTop/slaveAgentBFM/AhbSlaveDriverBFM.sv(66) @ 5: reporter [AHB_SLAVE_DRIVER_BFM] SYSTEM RESET DETECTED
# UVM_INFO ../../src/hdlTop/slaveAgentBFM/AhbSlaveDriverBFM.sv(66) @ 5: reporter [AHB_SLAVE_DRIVER_BFM] SYSTEM RESET DETECTED
# UVM_INFO ../../src/hdlTop/masterAgentBFM/AhbMasterDriverBFM.sv(51) @ 5: reporter [MASTER AGENT DRIVER BFM] [5]  SYSTEM RESET DETECTED
# UVM_INFO ../../src/hdlTop/masterAgentBFM/AhbMasterMonitorBFM.sv(45) @ 5: reporter [MASTER AGENT MONITOR BFM] [5]  SYETEM RESET DETECTED
# UVM_INFO ../../src/hdlTop/masterAgentBFM/AhbMasterDriverBFM.sv(51) @ 5: reporter [MASTER AGENT DRIVER BFM] [5]  SYSTEM RESET DETECTED
# UVM_INFO ../../src/hdlTop/masterAgentBFM/AhbMasterMonitorBFM.sv(45) @ 5: reporter [MASTER AGENT MONITOR BFM] [5]  SYETEM RESET DETECTED
# ** Info: THE REQ IS 0 for the slave 0
#    Time: 5 ns  Scope: HdlTop.ahbinterconnect.genblk5[0].genblk1[0] File: ../../src/hdlTop/interconnect/AhbInterconnect.sv Line: 164
# ** Info: THE GRANT IS 0 for the slave 0
#    Time: 5 ns  Scope: HdlTop.ahbinterconnect.genblk5[0].genblk1[0] File: ../../src/hdlTop/interconnect/AhbInterconnect.sv Line: 165
# THE ADDRESS IS x for the master =0
# ** Info: THE REQ IS 0 for the slave 0
#    Time: 5 ns  Scope: HdlTop.ahbinterconnect.genblk5[0].genblk1[1] File: ../../src/hdlTop/interconnect/AhbInterconnect.sv Line: 164
# ** Info: THE GRANT IS 0 for the slave 0
#    Time: 5 ns  Scope: HdlTop.ahbinterconnect.genblk5[0].genblk1[1] File: ../../src/hdlTop/interconnect/AhbInterconnect.sv Line: 165
# THE ADDRESS IS x for the master =1
# ** Info: THE REQ IS 0 for the slave 1
#    Time: 5 ns  Scope: HdlTop.ahbinterconnect.genblk5[1].genblk1[0] File: ../../src/hdlTop/interconnect/AhbInterconnect.sv Line: 164
# ** Info: THE GRANT IS 0 for the slave 1
#    Time: 5 ns  Scope: HdlTop.ahbinterconnect.genblk5[1].genblk1[0] File: ../../src/hdlTop/interconnect/AhbInterconnect.sv Line: 165
# THE ADDRESS IS x for the master =0
# ** Info: THE REQ IS 0 for the slave 1
#    Time: 5 ns  Scope: HdlTop.ahbinterconnect.genblk5[1].genblk1[1] File: ../../src/hdlTop/interconnect/AhbInterconnect.sv Line: 164
# ** Info: THE GRANT IS 0 for the slave 1
#    Time: 5 ns  Scope: HdlTop.ahbinterconnect.genblk5[1].genblk1[1] File: ../../src/hdlTop/interconnect/AhbInterconnect.sv Line: 165
# THE ADDRESS IS x for the master =1
# @                  15 H EY MAN
# UVM_INFO ../../src/hvlTop/slaveAgent/AhbSlaveMonitorProxy.sv(77) @ 15: uvm_test_top.swasthik.ahbSlaveAgent[0].ahbSlaveMonitorProxy [AhbSlaveMonitorProxy] Sending packet via analysis_port: , 
#  ----------------------------------------------------
# Name                Type                 Size  Value
# ----------------------------------------------------
# slave Packet        AhbSlaveTransaction  -     @1787
#   haddr             integral             32    'h0  
#   hselx             integral             2     'b0  
#   hburst            string               0     ""   
#   hmastlock         integral             1     'h0  
#   hprot             string               0     ""   
#   hsize             string               0     ""   
#   hnonsec           integral             1     'h0  
#   hexcl             integral             1     'h0  
#   hmaster           integral             1     'd0  
#   htrans            string               0     ""   
#   hwrite            string               4     READ 
#   hreadyout         integral             1     'h1  
#   hresp             string               0     ""   
#   hexokay           integral             1     'h0  
#   hready            integral             1     'h0  
#   choosePacketData  integral             1     'd0  
# ----------------------------------------------------
# 
# UVM_INFO ../../src/hvlTop/slaveAgent/AhbSlaveCoverage.sv(39) @ 15: uvm_test_top.swasthik.ahbSlaveAgent[0].ahbSlaveCoverage [AhbSlaveCoverage] AHB SLAVE COVERAGE
# CONNVERTER NO OF WAIT STATES IS 0
# UVM_INFO ../../src/hvlTop/slaveAgent/AhbSlaveMonitorProxy.sv(77) @ 15: uvm_test_top.swasthik.ahbSlaveAgent[1].ahbSlaveMonitorProxy [AhbSlaveMonitorProxy] Sending packet via analysis_port: , 
#  ----------------------------------------------------
# Name                Type                 Size  Value
# ----------------------------------------------------
# slave Packet        AhbSlaveTransaction  -     @1795
#   haddr             integral             32    'h0  
#   hselx             integral             2     'b0  
#   hburst            string               0     ""   
#   hmastlock         integral             1     'h0  
#   hprot             string               0     ""   
#   hsize             string               0     ""   
#   hnonsec           integral             1     'h0  
#   hexcl             integral             1     'h0  
#   hmaster           integral             1     'd0  
#   htrans            string               0     ""   
#   hwrite            string               4     READ 
#   hreadyout         integral             1     'h1  
#   hresp             string               0     ""   
#   hexokay           integral             1     'h0  
#   hready            integral             1     'h0  
#   choosePacketData  integral             1     'd0  
# ----------------------------------------------------
# 
# UVM_INFO ../../src/hvlTop/slaveAgent/AhbSlaveCoverage.sv(39) @ 15: uvm_test_top.swasthik.ahbSlaveAgent[1].ahbSlaveCoverage [AhbSlaveCoverage] AHB SLAVE COVERAGE
# CONNVERTER NO OF WAIT STATES IS 0
# UVM_INFO ../../src/hvlTop/environment/AhbScoreboard.sv(251) @ 15: uvm_test_top.swasthik.ahbScoreboard [SCB_SKIP] Skipping Slave Packet with empty Data (Address Phase)
# UVM_INFO ../../src/hvlTop/environment/AhbScoreboard.sv(251) @ 15: uvm_test_top.swasthik.ahbScoreboard [SCB_SKIP] Skipping Slave Packet with empty Data (Address Phase)
# UVM_INFO ../../src/hdlTop/masterAgentBFM/AhbMasterMonitorBFM.sv(48) @ 15: reporter [MASTER AGENT MONITOR BFM] [15]  waitForResetn DEACTIVATED
# UVM_INFO ../../src/hdlTop/masterAgentBFM/AhbMasterMonitorBFM.sv(52) @ 15: reporter [MASTER AGENT MONITOR BFM] [15]  sampleData CALLED
# UVM_INFO ../../src/hdlTop/masterAgentBFM/AhbMasterMonitorBFM.sv(48) @ 15: reporter [MASTER AGENT MONITOR BFM] [15]  waitForResetn DEACTIVATED
# UVM_INFO ../../src/hdlTop/masterAgentBFM/AhbMasterMonitorBFM.sv(52) @ 15: reporter [MASTER AGENT MONITOR BFM] [15]  sampleData CALLED
# UVM_INFO ../../src/hdlTop/masterAgentBFM/AhbMasterDriverBFM.sv(56) @ 15: reporter [MASTER AGENT DRIVER BFM] [15]  SYSTEM RESET DEACTIVATED
# UVM_INFO ../../src/hdlTop/masterAgentBFM/AhbMasterDriverBFM.sv(56) @ 15: reporter [MASTER AGENT DRIVER BFM] [15]  SYSTEM RESET DEACTIVATED
# UVM_INFO ../../src/hdlTop/slaveAgentBFM/AhbSlaveDriverBFM.sv(70) @ 15: reporter [AHB_SLAVE_DRIVER_BFM] SYSTEM RESET DEACTIVATED
# UVM_INFO ../../src/hdlTop/slaveAgentBFM/AhbSlaveDriverBFM.sv(70) @ 15: reporter [AHB_SLAVE_DRIVER_BFM] SYSTEM RESET DEACTIVATED
# ---------------------------------------------------------
# Name                Type                 Size  Value     
# ---------------------------------------------------------
# req                 AhbSlaveTransaction  -     @1647     
#   haddr             integral             32    'h0       
#   hselx             integral             2     'b0       
#   hburst            string               0     ""        
#   hmastlock         integral             1     'h0       
#   hprot             string               0     ""        
#   hsize             string               0     ""        
#   hnonsec           integral             1     'h0       
#   hexcl             integral             1     'h0       
#   hmaster           integral             1     'd0       
#   htrans            string               0     ""        
#   hwrite            string               4     READ      
#   hreadyout         integral             1     'h1       
#   hresp             string               0     ""        
#   hexokay           integral             1     'h0       
#   hready            integral             1     'h0       
#   choosePacketData  integral             1     'd0       
#   hwdata[0]         integral             32    'hc1eb9777
#   hwdata[1]         integral             32    'h6fe19a89
#   hwdata[2]         integral             32    'h448854eb
#   hwdata[3]         integral             32    'h97de9e8a
#   hwdata[4]         integral             32    'h28ec8cd1
#   hwdata[5]         integral             32    'h429201ef
#   hwdata[6]         integral             32    'h68a891ff
#   hwdata[7]         integral             32    'h78a18fb5
#   hwdata[8]         integral             32    'had17c9b0
#   hwdata[9]         integral             32    'hf9dcf293
#   hwdata[10]        integral             32    'hbc7cf24f
#   hwdata[11]        integral             32    'h4195f731
#   hwdata[12]        integral             32    'h5be1e38f
#   hwdata[13]        integral             32    'hcb2e02eb
#   hwdata[14]        integral             32    'h70929e02
#   hwdata[15]        integral             32    'h1f66ce4e
#   hwstrb[0]         integral             4     'b100     
#   hwstrb[1]         integral             4     'b111     
#   hwstrb[2]         integral             4     'b1011    
#   hwstrb[3]         integral             4     'b10      
#   hwstrb[4]         integral             4     'b1000    
#   hwstrb[5]         integral             4     'b110     
#   hwstrb[6]         integral             4     'b11      
#   hwstrb[7]         integral             4     'b1000    
#   hwstrb[8]         integral             4     'b1000    
#   hwstrb[9]         integral             4     'b101     
#   hwstrb[10]        integral             4     'b1       
#   hwstrb[11]        integral             4     'b100     
#   hwstrb[12]        integral             4     'b1111    
#   hwstrb[13]        integral             4     'b1100    
#   hwstrb[14]        integral             4     'b1011    
#   hwstrb[15]        integral             4     'b1111    
#   hrdata[0]         integral             32    'h14b353d7
#   hrdata[1]         integral             32    'hb2d75b79
#   hrdata[2]         integral             32    'h96e86b35
#   hrdata[3]         integral             32    'h4d38adfa
#   hrdata[4]         integral             32    'hc586c012
#   hrdata[5]         integral             32    'h3f4b3514
#   hrdata[6]         integral             32    'h949d70db
#   hrdata[7]         integral             32    'hd6097b67
#   hrdata[8]         integral             32    'ha1d32f10
#   hrdata[9]         integral             32    'h3f0da733
#   hrdata[10]        integral             32    'hb36e95e2
#   hrdata[11]        integral             32    'h5e545c1b
#   hrdata[12]        integral             32    'hfb14373c
#   hrdata[13]        integral             32    'h5309fc87
#   hrdata[14]        integral             32    'h78046afb
#   hrdata[15]        integral             32    'h4cdac906
# ---------------------------------------------------------
# ---------------------------------------------------------
# Name                Type                 Size  Value     
# ---------------------------------------------------------
# req                 AhbSlaveTransaction  -     @1643     
#   haddr             integral             32    'h0       
#   hselx             integral             2     'b0       
#   hburst            string               0     ""        
#   hmastlock         integral             1     'h0       
#   hprot             string               0     ""        
#   hsize             string               0     ""        
#   hnonsec           integral             1     'h0       
#   hexcl             integral             1     'h0       
#   hmaster           integral             1     'd0       
#   htrans            string               0     ""        
#   hwrite            string               4     READ      
#   hreadyout         integral             1     'h0       
#   hresp             string               0     ""        
#   hexokay           integral             1     'h1       
#   hready            integral             1     'h0       
#   choosePacketData  integral             1     'd0       
#   hwdata[0]         integral             32    'h5e3cb1f8
#   hwdata[1]         integral             32    'hd601b9ec
#   hwdata[2]         integral             32    'hc04e6ad9
#   hwdata[3]         integral             32    'hb142c3b2
#   hwdata[4]         integral             32    'h36625988
#   hwdata[5]         integral             32    'hac0f488d
#   hwdata[6]         integral             32    'h22d7b526
#   hwdata[7]         integral             32    'h945eebe7
#   hwdata[8]         integral             32    'h9a01da7a
#   hwdata[9]         integral             32    'h90b97bdf
#   hwdata[10]        integral             32    'hd644eb01
#   hwdata[11]        integral             32    'hbfe6a8e2
#   hwdata[12]        integral             32    'hd28385b9
#   hwdata[13]        integral             32    'hd11e8368
#   hwdata[14]        integral             32    'h8ddfc0a5
#   hwdata[15]        integral             32    'hd71ae7af
#   hwstrb[0]         integral             4     'b1111    
#   hwstrb[1]         integral             4     'b1001    
#   hwstrb[2]         integral             4     'b1110    
#   hwstrb[3]         integral             4     'b1101    
#   hwstrb[4]         integral             4     'b1111    
#   hwstrb[5]         integral             4     'b1011    
#   hwstrb[6]         integral             4     'b1000    
#   hwstrb[7]         integral             4     'b110     
#   hwstrb[8]         integral             4     'b1101    
#   hwstrb[9]         integral             4     'b100     
#   hwstrb[10]        integral             4     'b1000    
#   hwstrb[11]        integral             4     'b1110    
#   hwstrb[12]        integral             4     'b11      
#   hwstrb[13]        integral             4     'b110     
#   hwstrb[14]        integral             4     'b101     
#   hwstrb[15]        integral             4     'b101     
#   hrdata[0]         integral             32    'h670b3113
#   hrdata[1]         integral             32    'hb234905e
#   hrdata[2]         integral             32    'hde9e0237
#   hrdata[3]         integral             32    'h68d887ba
#   hrdata[4]         integral             32    'heca721c2
#   hrdata[5]         integral             32    'h535bf55f
#   hrdata[6]         integral             32    'h37abeed3
#   hrdata[7]         integral             32    'h662de133
#   hrdata[8]         integral             32    'hb9677b14
#   hrdata[9]         integral             32    'he4f025a0
#   hrdata[10]        integral             32    'h82793cf6
#   hrdata[11]        integral             32    'h3400e7bb
#   hrdata[12]        integral             32    'h7e7448ba
#   hrdata[13]        integral             32    'h9632c072
#   hrdata[14]        integral             32    'h7f407c35
#   hrdata[15]        integral             32    'h4718e73c
# ---------------------------------------------------------
# UVM_INFO ../../src/hvlTop/masterAgent/masterSequences/AhbMasterSequence.sv(116) @ 15: uvm_test_top.swasthik.ahbMasterAgent[0].ahbMasterSequencer@@ahbMasterWriteSequence [AHB] req is of type: AhbMasterTransaction
# *****************************************master sequence***********************************
# -----------------------------------------------------------------------------------
# Name                      Type                  Size  Value                        
# -----------------------------------------------------------------------------------
# req                       AhbMasterTransaction  -     @1639                        
#   haddr                   integral              32    'h480                        
#   hselx                   integral              2     'b1                          
#   hburst                  string                6     SINGLE                       
#   hmastlock               integral              1     'h0                          
#   hprot                   string                29    PRIVILEGED_SECURE_INSTRUCTION
#   hsize                   string                4     WORD                         
#   hnonsec                 integral              1     'h0                          
#   hexcl                   integral              1     'h1                          
#   hmaster                 integral              1     'd0                          
#   htrans                  string                6     NONSEQ                       
#   hwrite                  string                5     WRITE                        
#   hreadyout               integral              1     'h0                          
#   hresp                   string                0     ""                           
#   hexokay                 integral              1     'h0                          
#   hready                  integral              1     'h0                          
#   noOfwaitStatesDetected  integral              32    'h0                          
#   hwdata[0]               integral              32    'h7a0a9ac9                   
#   hwstrb[0]               integral              4     'b1111                       
#   busyControl[0]          integral              1     'h0                          
# -----------------------------------------------------------------------------------
# ********************************************************************************************
# UVM_INFO ../../src/hvlTop/masterAgent/masterSequences/AhbMasterSequence.sv(116) @ 15: uvm_test_top.swasthik.ahbMasterAgent[1].ahbMasterSequencer@@ahbMasterWriteSequence [AHB] req is of type: AhbMasterTransaction
# *****************************************master sequence***********************************
# -------------------------------------------------------------------------------
# Name                      Type                  Size  Value                    
# -------------------------------------------------------------------------------
# req                       AhbMasterTransaction  -     @1635                    
#   haddr                   integral              32    'h7ec                    
#   hselx                   integral              2     'b10                     
#   hburst                  string                6     SINGLE                   
#   hmastlock               integral              1     'h0                      
#   hprot                   string                25    PRIVILEGED_NONSECURE_DATA
#   hsize                   string                4     WORD                     
#   hnonsec                 integral              1     'h0                      
#   hexcl                   integral              1     'h1                      
#   hmaster                 integral              1     1                        
#   htrans                  string                6     NONSEQ                   
#   hwrite                  string                5     WRITE                    
#   hreadyout               integral              1     'h0                      
#   hresp                   string                0     ""                       
#   hexokay                 integral              1     'h1                      
#   hready                  integral              1     'h0                      
#   noOfwaitStatesDetected  integral              32    'h0                      
#   hwdata[0]               integral              32    'head907c4               
#   hwstrb[0]               integral              4     'b1111                   
#   busyControl[0]          integral              1     'h0                      
# -------------------------------------------------------------------------------
# ********************************************************************************************
# UVM_INFO ../../src/hvlTop/slaveAgent/AhbSlaveSequenceItemConverter.sv(91) @ 15: reporter [ahbSlaveSequeceItemconverterClass] -------------------------------------------------------------
# UVM_INFO ../../src/hvlTop/slaveAgent/AhbSlaveDriverProxy.sv(92) @ 15: uvm_test_top.swasthik.ahbSlaveAgent[0].ahbSlaveDriverProxy [AhbSlaveDriverProxy] RUN PHASE: NO OF WAIT STATES: 0
# CONNVERTER NO OF WAIT STATES IS 0
# UVM_INFO ../../src/hvlTop/slaveAgent/AhbSlaveDriverProxy.sv(100) @ 15: uvm_test_top.swasthik.ahbSlaveAgent[0].ahbSlaveDriverProxy [AhbSlaveDriverProxy] ACK SENT
# UVM_INFO ../../src/hvlTop/slaveAgent/AhbSlaveSequenceItemConverter.sv(91) @ 15: reporter [ahbSlaveSequeceItemconverterClass] -------------------------------------------------------------
# UVM_INFO ../../src/hvlTop/slaveAgent/AhbSlaveDriverProxy.sv(92) @ 15: uvm_test_top.swasthik.ahbSlaveAgent[1].ahbSlaveDriverProxy [AhbSlaveDriverProxy] RUN PHASE: NO OF WAIT STATES: 0
# CONNVERTER NO OF WAIT STATES IS 0
# UVM_INFO ../../src/hvlTop/slaveAgent/AhbSlaveDriverProxy.sv(100) @ 15: uvm_test_top.swasthik.ahbSlaveAgent[1].ahbSlaveDriverProxy [AhbSlaveDriverProxy] ACK SENT
# UVM_INFO ../../src/hvlTop/masterAgent/AhbMasterDriverProxy.sv(100) @ 15: uvm_test_top.swasthik.ahbMasterAgent[0].ahbMasterDriverProxy [AhbMasterDriverProxy] Received Transaction: 
# -----------------------------------------------------------------------------------
# Name                      Type                  Size  Value                        
# -----------------------------------------------------------------------------------
# req                       AhbMasterTransaction  -     @1639                        
#   haddr                   integral              32    'h480                        
#   hselx                   integral              2     'b1                          
#   hburst                  string                6     SINGLE                       
#   hmastlock               integral              1     'h0                          
#   hprot                   string                29    PRIVILEGED_SECURE_INSTRUCTION
#   hsize                   string                4     WORD                         
#   hnonsec                 integral              1     'h0                          
#   hexcl                   integral              1     'h1                          
#   hmaster                 integral              1     'd0                          
#   htrans                  string                6     NONSEQ                       
#   hwrite                  string                5     WRITE                        
#   hreadyout               integral              1     'h0                          
#   hresp                   string                0     ""                           
#   hexokay                 integral              1     'h0                          
#   hready                  integral              1     'h0                          
#   noOfwaitStatesDetected  integral              32    'h0                          
#   hwdata[0]               integral              32    'h7a0a9ac9                   
#   hwstrb[0]               integral              4     'b1111                       
#   busyControl[0]          integral              1     'h0                          
# -----------------------------------------------------------------------------------
# 
# UVM_INFO ../../src/hdlTop/masterAgentBFM/AhbMasterDriverBFM.sv(60) @ 15: reporter [MASTER AGENT DRIVER BFM] [15]  driveToBFM CALLED
# UVM_INFO ../../src/hdlTop/masterAgentBFM/AhbMasterDriverBFM.sv(73) @ 15: reporter [MASTER AGENT DRIVER BFM] [15]  driveSingleTransfer CALLED
# UVM_INFO ../../src/hvlTop/masterAgent/AhbMasterDriverProxy.sv(100) @ 15: uvm_test_top.swasthik.ahbMasterAgent[1].ahbMasterDriverProxy [AhbMasterDriverProxy] Received Transaction: 
# -------------------------------------------------------------------------------
# Name                      Type                  Size  Value                    
# -------------------------------------------------------------------------------
# req                       AhbMasterTransaction  -     @1635                    
#   haddr                   integral              32    'h7ec                    
#   hselx                   integral              2     'b10                     
#   hburst                  string                6     SINGLE                   
#   hmastlock               integral              1     'h0                      
#   hprot                   string                25    PRIVILEGED_NONSECURE_DATA
#   hsize                   string                4     WORD                     
#   hnonsec                 integral              1     'h0                      
#   hexcl                   integral              1     'h1                      
#   hmaster                 integral              1     1                        
#   htrans                  string                6     NONSEQ                   
#   hwrite                  string                5     WRITE                    
#   hreadyout               integral              1     'h0                      
#   hresp                   string                0     ""                       
#   hexokay                 integral              1     'h1                      
#   hready                  integral              1     'h0                      
#   noOfwaitStatesDetected  integral              32    'h0                      
#   hwdata[0]               integral              32    'head907c4               
#   hwstrb[0]               integral              4     'b1111                   
#   busyControl[0]          integral              1     'h0                      
# -------------------------------------------------------------------------------
# 
# UVM_INFO ../../src/hdlTop/masterAgentBFM/AhbMasterDriverBFM.sv(60) @ 15: reporter [MASTER AGENT DRIVER BFM] [15]  driveToBFM CALLED
# UVM_INFO ../../src/hdlTop/masterAgentBFM/AhbMasterDriverBFM.sv(73) @ 15: reporter [MASTER AGENT DRIVER BFM] [15]  driveSingleTransfer CALLED
# SLAVE SEQUENCE DONE 
# SLAVE SEQUENCE DONE 
# ** Info: THE REQ IS 0 for the slave 0
#    Time: 16 ns  Scope: HdlTop.ahbinterconnect.genblk5[0].genblk1[1] File: ../../src/hdlTop/interconnect/AhbInterconnect.sv Line: 164
# ** Info: THE GRANT IS 0 for the slave 0
#    Time: 16 ns  Scope: HdlTop.ahbinterconnect.genblk5[0].genblk1[1] File: ../../src/hdlTop/interconnect/AhbInterconnect.sv Line: 165
# THE ADDRESS IS 11111101100 for the master =1
# ** Info: THE REQ IS 0 for the slave 1
#    Time: 16 ns  Scope: HdlTop.ahbinterconnect.genblk5[1].genblk1[1] File: ../../src/hdlTop/interconnect/AhbInterconnect.sv Line: 164
# ** Info: THE GRANT IS 0 for the slave 1
#    Time: 16 ns  Scope: HdlTop.ahbinterconnect.genblk5[1].genblk1[1] File: ../../src/hdlTop/interconnect/AhbInterconnect.sv Line: 165
# THE ADDRESS IS 11111101100 for the master =1
# ** Info: THE REQ IS 0 for the slave 0
#    Time: 16 ns  Scope: HdlTop.ahbinterconnect.genblk5[0].genblk1[0] File: ../../src/hdlTop/interconnect/AhbInterconnect.sv Line: 164
# ** Info: THE GRANT IS 0 for the slave 0
#    Time: 16 ns  Scope: HdlTop.ahbinterconnect.genblk5[0].genblk1[0] File: ../../src/hdlTop/interconnect/AhbInterconnect.sv Line: 165
# THE ADDRESS IS 10010000000 for the master =0
# ** Info: THE REQ IS 0 for the slave 1
#    Time: 16 ns  Scope: HdlTop.ahbinterconnect.genblk5[1].genblk1[0] File: ../../src/hdlTop/interconnect/AhbInterconnect.sv Line: 164
# ** Info: THE GRANT IS 0 for the slave 1
#    Time: 16 ns  Scope: HdlTop.ahbinterconnect.genblk5[1].genblk1[0] File: ../../src/hdlTop/interconnect/AhbInterconnect.sv Line: 165
# THE ADDRESS IS 10010000000 for the master =0
# ** Info: THE REQ IS 0 for the slave 0
#    Time: 16 ns  Scope: HdlTop.ahbinterconnect.genblk5[0].genblk1[0] File: ../../src/hdlTop/interconnect/AhbInterconnect.sv Line: 164
# ** Info: THE GRANT IS 0 for the slave 0
#    Time: 16 ns  Scope: HdlTop.ahbinterconnect.genblk5[0].genblk1[0] File: ../../src/hdlTop/interconnect/AhbInterconnect.sv Line: 165
# THE ADDRESS IS 10010000000 for the master =0
# ** Info: THE REQ IS 0 for the slave 0
#    Time: 16 ns  Scope: HdlTop.ahbinterconnect.genblk5[0].genblk1[1] File: ../../src/hdlTop/interconnect/AhbInterconnect.sv Line: 164
# ** Info: THE GRANT IS 0 for the slave 0
#    Time: 16 ns  Scope: HdlTop.ahbinterconnect.genblk5[0].genblk1[1] File: ../../src/hdlTop/interconnect/AhbInterconnect.sv Line: 165
# THE ADDRESS IS 11111101100 for the master =1
# ** Info: THE REQ IS 11 for the slave 1
#    Time: 16 ns  Scope: HdlTop.ahbinterconnect.genblk5[1].genblk1[0] File: ../../src/hdlTop/interconnect/AhbInterconnect.sv Line: 164
# ** Info: THE GRANT IS 0 for the slave 1
#    Time: 16 ns  Scope: HdlTop.ahbinterconnect.genblk5[1].genblk1[0] File: ../../src/hdlTop/interconnect/AhbInterconnect.sv Line: 165
# THE ADDRESS IS 10010000000 for the master =0
# ** Info: THE REQ IS 11 for the slave 1
#    Time: 16 ns  Scope: HdlTop.ahbinterconnect.genblk5[1].genblk1[1] File: ../../src/hdlTop/interconnect/AhbInterconnect.sv Line: 164
# ** Info: THE GRANT IS 0 for the slave 1
#    Time: 16 ns  Scope: HdlTop.ahbinterconnect.genblk5[1].genblk1[1] File: ../../src/hdlTop/interconnect/AhbInterconnect.sv Line: 165
# THE ADDRESS IS 11111101100 for the master =1
# ** Info: dead case
#    Time: 16 ns  Scope: HdlTop.ahbinterconnect.arbitration[1] File: ../../src/hdlTop/interconnect/AhbInterconnect.sv Line: 228
# ** Info: THE REQ IS 0 for the slave 0
#    Time: 16 ns  Scope: HdlTop.ahbinterconnect.genblk5[0].genblk1[0] File: ../../src/hdlTop/interconnect/AhbInterconnect.sv Line: 164
# ** Info: THE GRANT IS 0 for the slave 0
#    Time: 16 ns  Scope: HdlTop.ahbinterconnect.genblk5[0].genblk1[0] File: ../../src/hdlTop/interconnect/AhbInterconnect.sv Line: 165
# THE ADDRESS IS 10010000000 for the master =0
# ** Info: THE REQ IS 0 for the slave 0
#    Time: 16 ns  Scope: HdlTop.ahbinterconnect.genblk5[0].genblk1[1] File: ../../src/hdlTop/interconnect/AhbInterconnect.sv Line: 164
# ** Info: THE GRANT IS 0 for the slave 0
#    Time: 16 ns  Scope: HdlTop.ahbinterconnect.genblk5[0].genblk1[1] File: ../../src/hdlTop/interconnect/AhbInterconnect.sv Line: 165
# THE ADDRESS IS 11111101100 for the master =1
# ** Info: THE REQ IS 11 for the slave 1
#    Time: 16 ns  Scope: HdlTop.ahbinterconnect.genblk5[1].genblk1[0] File: ../../src/hdlTop/interconnect/AhbInterconnect.sv Line: 164
# ** Info: THE GRANT IS 1 for the slave 1
#    Time: 16 ns  Scope: HdlTop.ahbinterconnect.genblk5[1].genblk1[0] File: ../../src/hdlTop/interconnect/AhbInterconnect.sv Line: 165
# THE ADDRESS IS 10010000000 for the master =0
# ** Info: THE REQ IS 11 for the slave 1
#    Time: 16 ns  Scope: HdlTop.ahbinterconnect.genblk5[1].genblk1[1] File: ../../src/hdlTop/interconnect/AhbInterconnect.sv Line: 164
# ** Info: THE GRANT IS 0 for the slave 1
#    Time: 16 ns  Scope: HdlTop.ahbinterconnect.genblk5[1].genblk1[1] File: ../../src/hdlTop/interconnect/AhbInterconnect.sv Line: 165
# THE ADDRESS IS 11111101100 for the master =1
# ** Info: dead case
#    Time: 16 ns  Scope: HdlTop.ahbinterconnect.arbitration[1] File: ../../src/hdlTop/interconnect/AhbInterconnect.sv Line: 228
# ** Info: THE REQ IS 0 for the slave 0
#    Time: 16 ns  Scope: HdlTop.ahbinterconnect.genblk5[0].genblk1[0] File: ../../src/hdlTop/interconnect/AhbInterconnect.sv Line: 164
# ** Info: THE GRANT IS 0 for the slave 0
#    Time: 16 ns  Scope: HdlTop.ahbinterconnect.genblk5[0].genblk1[0] File: ../../src/hdlTop/interconnect/AhbInterconnect.sv Line: 165
# THE ADDRESS IS 10010000000 for the master =0
# ** Info: THE REQ IS 0 for the slave 0
#    Time: 16 ns  Scope: HdlTop.ahbinterconnect.genblk5[0].genblk1[1] File: ../../src/hdlTop/interconnect/AhbInterconnect.sv Line: 164
# ** Info: THE GRANT IS 0 for the slave 0
#    Time: 16 ns  Scope: HdlTop.ahbinterconnect.genblk5[0].genblk1[1] File: ../../src/hdlTop/interconnect/AhbInterconnect.sv Line: 165
# THE ADDRESS IS 11111101100 for the master =1
# ** Info: THE REQ IS 11 for the slave 1
#    Time: 16 ns  Scope: HdlTop.ahbinterconnect.genblk5[1].genblk1[0] File: ../../src/hdlTop/interconnect/AhbInterconnect.sv Line: 164
# ** Info: THE GRANT IS 1 for the slave 1
#    Time: 16 ns  Scope: HdlTop.ahbinterconnect.genblk5[1].genblk1[0] File: ../../src/hdlTop/interconnect/AhbInterconnect.sv Line: 165
# THE ADDRESS IS 10010000000 for the master =0
# ** Info: THE REQ IS 11 for the slave 1
#    Time: 16 ns  Scope: HdlTop.ahbinterconnect.genblk5[1].genblk1[1] File: ../../src/hdlTop/interconnect/AhbInterconnect.sv Line: 164
# ** Info: THE GRANT IS 0 for the slave 1
#    Time: 16 ns  Scope: HdlTop.ahbinterconnect.genblk5[1].genblk1[1] File: ../../src/hdlTop/interconnect/AhbInterconnect.sv Line: 165
# THE ADDRESS IS 11111101100 for the master =1
# UVM_INFO ../../src/hvlTop/slaveAgent/AhbSlaveMonitorProxy.sv(77) @ 25: uvm_test_top.swasthik.ahbSlaveAgent[0].ahbSlaveMonitorProxy [AhbSlaveMonitorProxy] Sending packet via analysis_port: , 
#  ----------------------------------------------------
# Name                Type                 Size  Value
# ----------------------------------------------------
# slave Packet        AhbSlaveTransaction  -     @1805
#   haddr             integral             32    'h0  
#   hselx             integral             2     'b0  
#   hburst            string               0     ""   
#   hmastlock         integral             1     'h0  
#   hprot             string               0     ""   
#   hsize             string               0     ""   
#   hnonsec           integral             1     'h0  
#   hexcl             integral             1     'h0  
#   hmaster           integral             1     'd0  
#   htrans            string               0     ""   
#   hwrite            string               4     READ 
#   hreadyout         integral             1     'h1  
#   hresp             string               0     ""   
#   hexokay           integral             1     'h0  
#   hready            integral             1     'h0  
#   choosePacketData  integral             1     'd0  
# ----------------------------------------------------
# 
# UVM_INFO ../../src/hvlTop/slaveAgent/AhbSlaveCoverage.sv(39) @ 25: uvm_test_top.swasthik.ahbSlaveAgent[0].ahbSlaveCoverage [AhbSlaveCoverage] AHB SLAVE COVERAGE
# CONNVERTER NO OF WAIT STATES IS 0
# UVM_INFO ../../src/hvlTop/slaveAgent/AhbSlaveMonitorProxy.sv(77) @ 25: uvm_test_top.swasthik.ahbSlaveAgent[1].ahbSlaveMonitorProxy [AhbSlaveMonitorProxy] Sending packet via analysis_port: , 
#  ----------------------------------------------------------------------------
# Name                Type                 Size  Value                        
# ----------------------------------------------------------------------------
# slave Packet        AhbSlaveTransaction  -     @1813                        
#   haddr             integral             32    'h480                        
#   hselx             integral             2     'b1                          
#   hburst            string               6     SINGLE                       
#   hmastlock         integral             1     'h0                          
#   hprot             string               29    PRIVILEGED_SECURE_INSTRUCTION
#   hsize             string               4     WORD                         
#   hnonsec           integral             1     'h0                          
#   hexcl             integral             1     'h0                          
#   hmaster           integral             1     'd0                          
#   htrans            string               6     NONSEQ                       
#   hwrite            string               5     WRITE                        
#   hreadyout         integral             1     'h1                          
#   hresp             string               0     ""                           
#   hexokay           integral             1     'h0                          
#   hready            integral             1     'h0                          
#   choosePacketData  integral             1     'd0                          
# ----------------------------------------------------------------------------
# 
# UVM_INFO ../../src/hvlTop/slaveAgent/AhbSlaveCoverage.sv(39) @ 25: uvm_test_top.swasthik.ahbSlaveAgent[1].ahbSlaveCoverage [AhbSlaveCoverage] AHB SLAVE COVERAGE
# CONNVERTER NO OF WAIT STATES IS 0
# UVM_INFO ../../src/hvlTop/masterAgent/AhbMasterMonitorProxy.sv(103) @ 25: uvm_test_top.swasthik.ahbMasterAgent[0].ahbMasterMonitorProxy [AhbMasterMonitorProxy] [M_PROXY] Raw Struct from BFM: Addr='h480 Data='h0xxxxxxxx Write=1
# UVM_INFO ../../src/hvlTop/masterAgent/AhbMasterMonitorProxy.sv(111) @ 25: uvm_test_top.swasthik.ahbMasterAgent[0].ahbMasterMonitorProxy [AhbMasterMonitorProxy] Sending packet to Scoreboard:
# -----------------------------------------------------------------------------------
# Name                      Type                  Size  Value                        
# -----------------------------------------------------------------------------------
# ahbMasterPacket           AhbMasterTransaction  -     @1821                        
#   haddr                   integral              32    'h480                        
#   hselx                   integral              2     'b0                          
#   hburst                  string                6     SINGLE                       
#   hmastlock               integral              1     'h0                          
#   hprot                   string                29    PRIVILEGED_SECURE_INSTRUCTION
#   hsize                   string                4     WORD                         
#   hnonsec                 integral              1     'h0                          
#   hexcl                   integral              1     'h0                          
#   hmaster                 integral              1     'd0                          
#   htrans                  string                6     NONSEQ                       
#   hwrite                  string                5     WRITE                        
#   hreadyout               integral              1     'h0                          
#   hresp                   string                4     OKAY                         
#   hexokay                 integral              1     'h0                          
#   hready                  integral              1     'h1                          
#   noOfwaitStatesDetected  integral              32    'h0                          
# -----------------------------------------------------------------------------------
# 
# UVM_INFO ../../src/hvlTop/masterAgent/AhbMasterCoverage.sv(107) @ 25: uvm_test_top.swasthik.ahbMasterAgent[0].ahbMasterCoverage [AhbMasterCoverage] Before calling SAMPLE METHOD
# UVM_INFO ../../src/hvlTop/masterAgent/AhbMasterCoverage.sv(109) @ 25: uvm_test_top.swasthik.ahbMasterAgent[0].ahbMasterCoverage [AhbMasterCoverage] After calling SAMPLE METHOD
# UVM_INFO ../../src/hdlTop/masterAgentBFM/AhbMasterMonitorBFM.sv(52) @ 25: reporter [MASTER AGENT MONITOR BFM] [25]  sampleData CALLED
# UVM_INFO ../../src/hvlTop/masterAgent/AhbMasterMonitorProxy.sv(103) @ 25: uvm_test_top.swasthik.ahbMasterAgent[1].ahbMasterMonitorProxy [AhbMasterMonitorProxy] [M_PROXY] Raw Struct from BFM: Addr='h7ec Data='h0xxxxxxxx Write=1
# UVM_INFO ../../src/hvlTop/masterAgent/AhbMasterMonitorProxy.sv(111) @ 25: uvm_test_top.swasthik.ahbMasterAgent[1].ahbMasterMonitorProxy [AhbMasterMonitorProxy] Sending packet to Scoreboard:
# -------------------------------------------------------------------------------
# Name                      Type                  Size  Value                    
# -------------------------------------------------------------------------------
# ahbMasterPacket           AhbMasterTransaction  -     @1825                    
#   haddr                   integral              32    'h7ec                    
#   hselx                   integral              2     'b0                      
#   hburst                  string                6     SINGLE                   
#   hmastlock               integral              1     'h0                      
#   hprot                   string                25    PRIVILEGED_NONSECURE_DATA
#   hsize                   string                4     WORD                     
#   hnonsec                 integral              1     'h0                      
#   hexcl                   integral              1     'h0                      
#   hmaster                 integral              1     'd0                      
#   htrans                  string                6     NONSEQ                   
#   hwrite                  string                5     WRITE                    
#   hreadyout               integral              1     'h0                      
#   hresp                   string                4     OKAY                     
#   hexokay                 integral              1     'h0                      
#   hready                  integral              1     'h0                      
#   noOfwaitStatesDetected  integral              32    'h0                      
# -------------------------------------------------------------------------------
# 
# UVM_INFO ../../src/hvlTop/masterAgent/AhbMasterCoverage.sv(107) @ 25: uvm_test_top.swasthik.ahbMasterAgent[1].ahbMasterCoverage [AhbMasterCoverage] Before calling SAMPLE METHOD
# UVM_INFO ../../src/hvlTop/masterAgent/AhbMasterCoverage.sv(109) @ 25: uvm_test_top.swasthik.ahbMasterAgent[1].ahbMasterCoverage [AhbMasterCoverage] After calling SAMPLE METHOD
# UVM_INFO ../../src/hdlTop/masterAgentBFM/AhbMasterMonitorBFM.sv(52) @ 25: reporter [MASTER AGENT MONITOR BFM] [25]  sampleData CALLED
# UVM_INFO ../../src/hvlTop/environment/AhbScoreboard.sv(251) @ 25: uvm_test_top.swasthik.ahbScoreboard [SCB_SKIP] Skipping Slave Packet with empty Data (Address Phase)
# UVM_INFO ../../src/hvlTop/environment/AhbScoreboard.sv(251) @ 25: uvm_test_top.swasthik.ahbScoreboard [SCB_SKIP] Skipping Slave Packet with empty Data (Address Phase)
# -----------------------------------------------------------------------------------
# Name                      Type                  Size  Value                        
# -----------------------------------------------------------------------------------
# ahbMasterPacket           AhbMasterTransaction  -     @1821                        
#   haddr                   integral              32    'h480                        
#   hselx                   integral              2     'b0                          
#   hburst                  string                6     SINGLE                       
#   hmastlock               integral              1     'h0                          
#   hprot                   string                29    PRIVILEGED_SECURE_INSTRUCTION
#   hsize                   string                4     WORD                         
#   hnonsec                 integral              1     'h0                          
#   hexcl                   integral              1     'h0                          
#   hmaster                 integral              1     'd0                          
#   htrans                  string                6     NONSEQ                       
#   hwrite                  string                5     WRITE                        
#   hreadyout               integral              1     'h0                          
#   hresp                   string                4     OKAY                         
#   hexokay                 integral              1     'h0                          
#   hready                  integral              1     'h1                          
#   noOfwaitStatesDetected  integral              32    'h0                          
# -----------------------------------------------------------------------------------
# MASTER trans
# -------------------------------------------------------------------------------
# Name                      Type                  Size  Value                    
# -------------------------------------------------------------------------------
# ahbMasterPacket           AhbMasterTransaction  -     @1825                    
#   haddr                   integral              32    'h7ec                    
#   hselx                   integral              2     'b0                      
#   hburst                  string                6     SINGLE                   
#   hmastlock               integral              1     'h0                      
#   hprot                   string                25    PRIVILEGED_NONSECURE_DATA
#   hsize                   string                4     WORD                     
#   hnonsec                 integral              1     'h0                      
#   hexcl                   integral              1     'h0                      
#   hmaster                 integral              1     'd0                      
#   htrans                  string                6     NONSEQ                   
#   hwrite                  string                5     WRITE                    
#   hreadyout               integral              1     'h0                      
#   hresp                   string                4     OKAY                     
#   hexokay                 integral              1     'h0                      
#   hready                  integral              1     'h0                      
#   noOfwaitStatesDetected  integral              32    'h0                      
# -------------------------------------------------------------------------------
# MASTER trans
# ** Info: dead case
#    Time: 25 ns  Scope: HdlTop.ahbinterconnect.arbitration[1] File: ../../src/hdlTop/interconnect/AhbInterconnect.sv Line: 228
# ** Info: THE REQ IS 0 for the slave 0
#    Time: 25 ns  Scope: HdlTop.ahbinterconnect.genblk5[0].genblk1[0] File: ../../src/hdlTop/interconnect/AhbInterconnect.sv Line: 164
# ** Info: THE GRANT IS 0 for the slave 0
#    Time: 25 ns  Scope: HdlTop.ahbinterconnect.genblk5[0].genblk1[0] File: ../../src/hdlTop/interconnect/AhbInterconnect.sv Line: 165
# THE ADDRESS IS 10010000000 for the master =0
# ** Info: THE REQ IS 0 for the slave 0
#    Time: 25 ns  Scope: HdlTop.ahbinterconnect.genblk5[0].genblk1[1] File: ../../src/hdlTop/interconnect/AhbInterconnect.sv Line: 164
# ** Info: THE GRANT IS 0 for the slave 0
#    Time: 25 ns  Scope: HdlTop.ahbinterconnect.genblk5[0].genblk1[1] File: ../../src/hdlTop/interconnect/AhbInterconnect.sv Line: 165
# THE ADDRESS IS 11111101100 for the master =1
# ** Info: THE REQ IS 11 for the slave 1
#    Time: 25 ns  Scope: HdlTop.ahbinterconnect.genblk5[1].genblk1[0] File: ../../src/hdlTop/interconnect/AhbInterconnect.sv Line: 164
# ** Info: THE GRANT IS 0 for the slave 1
#    Time: 25 ns  Scope: HdlTop.ahbinterconnect.genblk5[1].genblk1[0] File: ../../src/hdlTop/interconnect/AhbInterconnect.sv Line: 165
# THE ADDRESS IS 10010000000 for the master =0
# ** Info: THE REQ IS 11 for the slave 1
#    Time: 25 ns  Scope: HdlTop.ahbinterconnect.genblk5[1].genblk1[1] File: ../../src/hdlTop/interconnect/AhbInterconnect.sv Line: 164
# ** Info: THE GRANT IS 1 for the slave 1
#    Time: 25 ns  Scope: HdlTop.ahbinterconnect.genblk5[1].genblk1[1] File: ../../src/hdlTop/interconnect/AhbInterconnect.sv Line: 165
# THE ADDRESS IS 11111101100 for the master =1
# UVM_INFO ../../src/hdlTop/masterAgentBFM/AhbMasterDriverBFM.sv(197) @ 25: reporter [MASTER AGENT DRIVER BFM] [25]  makingStrobe CALLED
# UVM_INFO ../../src/hvlTop/masterAgent/AhbMasterDriverProxy.sv(106) @ 25: uvm_test_top.swasthik.ahbMasterAgent[0].ahbMasterDriverProxy [AhbMasterDriverProxy] Completed Driving Transaction at Time: 25
# UVM_INFO ../../src/hdlTop/slaveAgentBFM/AhbSlaveDriverBFM.sv(106) @ 25: reporter [SLAVE DRIVER BFM] the data to be written is :x
# UVM_INFO ../../src/hdlTop/slaveAgentBFM/AhbSlaveDriverBFM.sv(114) @ 25: reporter [SLAVE DRIVER BFM] THE DATA WRITTEN IS '{0:0, 1:0, 2:0, 3:0 } @25
# 
# MONITOR                   25
# 
#  
#  
#  I AM DONE 
#  
#  
#  
# MASTER SEQUENCE DONE 
# UVM_INFO ../../src/hvlTop/slaveAgent/AhbSlaveMonitorProxy.sv(77) @ 35: uvm_test_top.swasthik.ahbSlaveAgent[0].ahbSlaveMonitorProxy [AhbSlaveMonitorProxy] Sending packet via analysis_port: , 
#  ----------------------------------------------------
# Name                Type                 Size  Value
# ----------------------------------------------------
# slave Packet        AhbSlaveTransaction  -     @1838
#   haddr             integral             32    'h0  
#   hselx             integral             2     'b0  
#   hburst            string               0     ""   
#   hmastlock         integral             1     'h0  
#   hprot             string               0     ""   
#   hsize             string               0     ""   
#   hnonsec           integral             1     'h0  
#   hexcl             integral             1     'h0  
#   hmaster           integral             1     'd0  
#   htrans            string               0     ""   
#   hwrite            string               4     READ 
#   hreadyout         integral             1     'h1  
#   hresp             string               0     ""   
#   hexokay           integral             1     'h0  
#   hready            integral             1     'h0  
#   choosePacketData  integral             1     'd0  
# ----------------------------------------------------
# 
# UVM_INFO ../../src/hvlTop/slaveAgent/AhbSlaveCoverage.sv(39) @ 35: uvm_test_top.swasthik.ahbSlaveAgent[0].ahbSlaveCoverage [AhbSlaveCoverage] AHB SLAVE COVERAGE
# CONNVERTER NO OF WAIT STATES IS 0
# UVM_INFO ../../src/hvlTop/slaveAgent/AhbSlaveMonitorProxy.sv(77) @ 35: uvm_test_top.swasthik.ahbSlaveAgent[1].ahbSlaveMonitorProxy [AhbSlaveMonitorProxy] Sending packet via analysis_port: , 
#  ------------------------------------------------------------------------
# Name                Type                 Size  Value                    
# ------------------------------------------------------------------------
# slave Packet        AhbSlaveTransaction  -     @1846                    
#   haddr             integral             32    'h7ec                    
#   hselx             integral             2     'b1                      
#   hburst            string               6     SINGLE                   
#   hmastlock         integral             1     'h0                      
#   hprot             string               25    PRIVILEGED_NONSECURE_DATA
#   hsize             string               4     WORD                     
#   hnonsec           integral             1     'h0                      
#   hexcl             integral             1     'h0                      
#   hmaster           integral             1     'd0                      
#   htrans            string               6     NONSEQ                   
#   hwrite            string               5     WRITE                    
#   hreadyout         integral             1     'h1                      
#   hresp             string               0     ""                       
#   hexokay           integral             1     'h0                      
#   hready            integral             1     'h0                      
#   choosePacketData  integral             1     'd0                      
#   hwdata[0]         integral             32    'h7a0a9ac9               
#   hwstrb[0]         integral             4     'b0                      
# ------------------------------------------------------------------------
# 
# UVM_INFO ../../src/hvlTop/slaveAgent/AhbSlaveCoverage.sv(39) @ 35: uvm_test_top.swasthik.ahbSlaveAgent[1].ahbSlaveCoverage [AhbSlaveCoverage] AHB SLAVE COVERAGE
# CONNVERTER NO OF WAIT STATES IS 0
# UVM_INFO ../../src/hvlTop/masterAgent/AhbMasterMonitorProxy.sv(103) @ 35: uvm_test_top.swasthik.ahbMasterAgent[0].ahbMasterMonitorProxy [AhbMasterMonitorProxy] [M_PROXY] Raw Struct from BFM: Addr='h480 Data='h7a0a9ac9 Write=1
# UVM_INFO ../../src/hvlTop/masterAgent/AhbMasterMonitorProxy.sv(111) @ 35: uvm_test_top.swasthik.ahbMasterAgent[0].ahbMasterMonitorProxy [AhbMasterMonitorProxy] Sending packet to Scoreboard:
# -----------------------------------------------------------------------------------
# Name                      Type                  Size  Value                        
# -----------------------------------------------------------------------------------
# ahbMasterPacket           AhbMasterTransaction  -     @1854                        
#   haddr                   integral              32    'h480                        
#   hselx                   integral              2     'b0                          
#   hburst                  string                6     SINGLE                       
#   hmastlock               integral              1     'h0                          
#   hprot                   string                29    PRIVILEGED_SECURE_INSTRUCTION
#   hsize                   string                4     WORD                         
#   hnonsec                 integral              1     'h0                          
#   hexcl                   integral              1     'h0                          
#   hmaster                 integral              1     'd0                          
#   htrans                  string                6     NONSEQ                       
#   hwrite                  string                5     WRITE                        
#   hreadyout               integral              1     'h0                          
#   hresp                   string                4     OKAY                         
#   hexokay                 integral              1     'h0                          
#   hready                  integral              1     'h0                          
#   noOfwaitStatesDetected  integral              32    'h0                          
#   hwdata[0]               integral              32    'h7a0a9ac9                   
#   hwstrb[0]               integral              4     'b1111                       
# -----------------------------------------------------------------------------------
# 
# UVM_INFO ../../src/hvlTop/masterAgent/AhbMasterCoverage.sv(107) @ 35: uvm_test_top.swasthik.ahbMasterAgent[0].ahbMasterCoverage [AhbMasterCoverage] Before calling SAMPLE METHOD
# UVM_INFO ../../src/hvlTop/masterAgent/AhbMasterCoverage.sv(109) @ 35: uvm_test_top.swasthik.ahbMasterAgent[0].ahbMasterCoverage [AhbMasterCoverage] After calling SAMPLE METHOD
# UVM_INFO ../../src/hdlTop/masterAgentBFM/AhbMasterMonitorBFM.sv(52) @ 35: reporter [MASTER AGENT MONITOR BFM] [35]  sampleData CALLED
# UVM_INFO ../../src/hvlTop/masterAgent/AhbMasterMonitorProxy.sv(103) @ 35: uvm_test_top.swasthik.ahbMasterAgent[1].ahbMasterMonitorProxy [AhbMasterMonitorProxy] [M_PROXY] Raw Struct from BFM: Addr='h7ec Data='h0xxxxxxxx Write=1
# UVM_INFO ../../src/hvlTop/masterAgent/AhbMasterMonitorProxy.sv(111) @ 35: uvm_test_top.swasthik.ahbMasterAgent[1].ahbMasterMonitorProxy [AhbMasterMonitorProxy] Sending packet to Scoreboard:
# -------------------------------------------------------------------------------
# Name                      Type                  Size  Value                    
# -------------------------------------------------------------------------------
# ahbMasterPacket           AhbMasterTransaction  -     @1858                    
#   haddr                   integral              32    'h7ec                    
#   hselx                   integral              2     'b0                      
#   hburst                  string                6     SINGLE                   
#   hmastlock               integral              1     'h0                      
#   hprot                   string                25    PRIVILEGED_NONSECURE_DATA
#   hsize                   string                4     WORD                     
#   hnonsec                 integral              1     'h0                      
#   hexcl                   integral              1     'h0                      
#   hmaster                 integral              1     'd0                      
#   htrans                  string                6     NONSEQ                   
#   hwrite                  string                5     WRITE                    
#   hreadyout               integral              1     'h0                      
#   hresp                   string                4     OKAY                     
#   hexokay                 integral              1     'h0                      
#   hready                  integral              1     'h1                      
#   noOfwaitStatesDetected  integral              32    'h0                      
# -------------------------------------------------------------------------------
# 
# UVM_INFO ../../src/hvlTop/masterAgent/AhbMasterCoverage.sv(107) @ 35: uvm_test_top.swasthik.ahbMasterAgent[1].ahbMasterCoverage [AhbMasterCoverage] Before calling SAMPLE METHOD
# UVM_INFO ../../src/hvlTop/masterAgent/AhbMasterCoverage.sv(109) @ 35: uvm_test_top.swasthik.ahbMasterAgent[1].ahbMasterCoverage [AhbMasterCoverage] After calling SAMPLE METHOD
# UVM_INFO ../../src/hdlTop/masterAgentBFM/AhbMasterMonitorBFM.sv(52) @ 35: reporter [MASTER AGENT MONITOR BFM] [35]  sampleData CALLED
# UVM_INFO ../../src/hvlTop/environment/AhbScoreboard.sv(251) @ 35: uvm_test_top.swasthik.ahbScoreboard [SCB_SKIP] Skipping Slave Packet with empty Data (Address Phase)
# ------------------------------------------------------------------------
# Name                Type                 Size  Value                    
# ------------------------------------------------------------------------
# slave Packet        AhbSlaveTransaction  -     @1846                    
#   haddr             integral             32    'h7ec                    
#   hselx             integral             2     'b1                      
#   hburst            string               6     SINGLE                   
#   hmastlock         integral             1     'h0                      
#   hprot             string               25    PRIVILEGED_NONSECURE_DATA
#   hsize             string               4     WORD                     
#   hnonsec           integral             1     'h0                      
#   hexcl             integral             1     'h0                      
#   hmaster           integral             1     'd0                      
#   htrans            string               6     NONSEQ                   
#   hwrite            string               5     WRITE                    
#   hreadyout         integral             1     'h1                      
#   hresp             string               0     ""                       
#   hexokay           integral             1     'h0                      
#   hready            integral             1     'h0                      
#   choosePacketData  integral             1     'd0                      
#   hwdata[0]         integral             32    'h7a0a9ac9               
#   hwstrb[0]         integral             4     'b0                      
# ------------------------------------------------------------------------
# SLAVE trans
# UVM_INFO ../../src/hvlTop/environment/AhbScoreboard.sv(329) @ 35: uvm_test_top.swasthik.ahbScoreboard [AhbScoreboard] ---------------- AHB SCOREBOARD COMPARISONS [WRITE] ----------------
# UVM_ERROR ../../src/hvlTop/environment/AhbScoreboard.sv(337) @ 35: uvm_test_top.swasthik.ahbScoreboard [SB_HADDR_MISMATCH] Address Mismatch! Exp='h480 Act='h7ec
# UVM_ERROR ../../src/hvlTop/environment/AhbScoreboard.sv(343) @ 35: uvm_test_top.swasthik.ahbScoreboard [SB_HWDATA_SIZE_MISMATCH] HWDATA Size Mismatch: Exp=0 Act=1
# UVM_ERROR ../../src/hvlTop/environment/AhbScoreboard.sv(364) @ 35: uvm_test_top.swasthik.ahbScoreboard [SB_HWSTRB_SIZE_MISMATCH] HWSTRB Size Mismatch
# UVM_ERROR ../../src/hvlTop/environment/AhbScoreboard.sv(384) @ 35: uvm_test_top.swasthik.ahbScoreboard [SB_HPROT_MISMATCH] Hprot Mismatch: Exp=0101 Act=0110
# UVM_INFO ../../src/hvlTop/environment/AhbScoreboard.sv(388) @ 35: uvm_test_top.swasthik.ahbScoreboard [AhbScoreboard] ---------------- END OF WRITE COMPARISONS ----------------
# -----------------------------------------------------------------------------------
# Name                      Type                  Size  Value                        
# -----------------------------------------------------------------------------------
# ahbMasterPacket           AhbMasterTransaction  -     @1854                        
#   haddr                   integral              32    'h480                        
#   hselx                   integral              2     'b0                          
#   hburst                  string                6     SINGLE                       
#   hmastlock               integral              1     'h0                          
#   hprot                   string                29    PRIVILEGED_SECURE_INSTRUCTION
#   hsize                   string                4     WORD                         
#   hnonsec                 integral              1     'h0                          
#   hexcl                   integral              1     'h0                          
#   hmaster                 integral              1     'd0                          
#   htrans                  string                6     NONSEQ                       
#   hwrite                  string                5     WRITE                        
#   hreadyout               integral              1     'h0                          
#   hresp                   string                4     OKAY                         
#   hexokay                 integral              1     'h0                          
#   hready                  integral              1     'h0                          
#   noOfwaitStatesDetected  integral              32    'h0                          
#   hwdata[0]               integral              32    'h7a0a9ac9                   
#   hwstrb[0]               integral              4     'b1111                       
# -----------------------------------------------------------------------------------
# MASTER trans
# UVM_INFO ../../src/hvlTop/environment/AhbScoreboard.sv(163) @ 35: uvm_test_top.swasthik.ahbScoreboard [REF_MODEL_WRITE] SLAVE=1 ADDR=0x480 DATA=0xc9 (beat=0 byte=0)
# UVM_INFO ../../src/hvlTop/environment/AhbScoreboard.sv(163) @ 35: uvm_test_top.swasthik.ahbScoreboard [REF_MODEL_WRITE] SLAVE=1 ADDR=0x481 DATA=0x9a (beat=0 byte=1)
# UVM_INFO ../../src/hvlTop/environment/AhbScoreboard.sv(163) @ 35: uvm_test_top.swasthik.ahbScoreboard [REF_MODEL_WRITE] SLAVE=1 ADDR=0x482 DATA=0x0a (beat=0 byte=2)
# UVM_INFO ../../src/hvlTop/environment/AhbScoreboard.sv(163) @ 35: uvm_test_top.swasthik.ahbScoreboard [REF_MODEL_WRITE] SLAVE=1 ADDR=0x483 DATA=0x7a (beat=0 byte=3)
# -------------------------------------------------------------------------------
# Name                      Type                  Size  Value                    
# -------------------------------------------------------------------------------
# ahbMasterPacket           AhbMasterTransaction  -     @1858                    
#   haddr                   integral              32    'h7ec                    
#   hselx                   integral              2     'b0                      
#   hburst                  string                6     SINGLE                   
#   hmastlock               integral              1     'h0                      
#   hprot                   string                25    PRIVILEGED_NONSECURE_DATA
#   hsize                   string                4     WORD                     
#   hnonsec                 integral              1     'h0                      
#   hexcl                   integral              1     'h0                      
#   hmaster                 integral              1     'd0                      
#   htrans                  string                6     NONSEQ                   
#   hwrite                  string                5     WRITE                    
#   hreadyout               integral              1     'h0                      
#   hresp                   string                4     OKAY                     
#   hexokay                 integral              1     'h0                      
#   hready                  integral              1     'h1                      
#   noOfwaitStatesDetected  integral              32    'h0                      
# -------------------------------------------------------------------------------
# MASTER trans
# ** Info: dead case
#    Time: 35 ns  Scope: HdlTop.ahbinterconnect.arbitration[1] File: ../../src/hdlTop/interconnect/AhbInterconnect.sv Line: 228
# ** Info: THE REQ IS 0 for the slave 0
#    Time: 35 ns  Scope: HdlTop.ahbinterconnect.genblk5[0].genblk1[0] File: ../../src/hdlTop/interconnect/AhbInterconnect.sv Line: 164
# ** Info: THE GRANT IS 0 for the slave 0
#    Time: 35 ns  Scope: HdlTop.ahbinterconnect.genblk5[0].genblk1[0] File: ../../src/hdlTop/interconnect/AhbInterconnect.sv Line: 165
# THE ADDRESS IS 10010000000 for the master =0
# ** Info: THE REQ IS 0 for the slave 0
#    Time: 35 ns  Scope: HdlTop.ahbinterconnect.genblk5[0].genblk1[1] File: ../../src/hdlTop/interconnect/AhbInterconnect.sv Line: 164
# ** Info: THE GRANT IS 0 for the slave 0
#    Time: 35 ns  Scope: HdlTop.ahbinterconnect.genblk5[0].genblk1[1] File: ../../src/hdlTop/interconnect/AhbInterconnect.sv Line: 165
# THE ADDRESS IS 11111101100 for the master =1
# ** Info: THE REQ IS 11 for the slave 1
#    Time: 35 ns  Scope: HdlTop.ahbinterconnect.genblk5[1].genblk1[0] File: ../../src/hdlTop/interconnect/AhbInterconnect.sv Line: 164
# ** Info: THE GRANT IS 1 for the slave 1
#    Time: 35 ns  Scope: HdlTop.ahbinterconnect.genblk5[1].genblk1[0] File: ../../src/hdlTop/interconnect/AhbInterconnect.sv Line: 165
# THE ADDRESS IS 10010000000 for the master =0
# ** Info: THE REQ IS 11 for the slave 1
#    Time: 35 ns  Scope: HdlTop.ahbinterconnect.genblk5[1].genblk1[1] File: ../../src/hdlTop/interconnect/AhbInterconnect.sv Line: 164
# ** Info: THE GRANT IS 0 for the slave 1
#    Time: 35 ns  Scope: HdlTop.ahbinterconnect.genblk5[1].genblk1[1] File: ../../src/hdlTop/interconnect/AhbInterconnect.sv Line: 165
# THE ADDRESS IS 11111101100 for the master =1
# UVM_INFO ../../src/hdlTop/masterAgentBFM/AhbMasterDriverBFM.sv(197) @ 35: reporter [MASTER AGENT DRIVER BFM] [35]  makingStrobe CALLED
# UVM_INFO ../../src/hvlTop/masterAgent/AhbMasterDriverProxy.sv(106) @ 35: uvm_test_top.swasthik.ahbMasterAgent[1].ahbMasterDriverProxy [AhbMasterDriverProxy] Completed Driving Transaction at Time: 35
# UVM_INFO ../../src/hdlTop/slaveAgentBFM/AhbSlaveDriverBFM.sv(106) @ 35: reporter [SLAVE DRIVER BFM] the data to be written is :7a0a9ac9
# UVM_INFO ../../src/hdlTop/slaveAgentBFM/AhbSlaveDriverBFM.sv(114) @ 35: reporter [SLAVE DRIVER BFM] THE DATA WRITTEN IS '{0:0, 1:0, 2:0, 3:0, 2028:201, 2029:154, 2030:10, 2031:122 } @35
# 
# MONITOR                   35
# 
#  
#  
#  I AM DONE 
#  
#  
#  
# MASTER SEQUENCE DONE 
# UVM_INFO ../../src/hvlTop/masterAgent/masterSequences/AhbMasterSequence.sv(116) @ 35: uvm_test_top.swasthik.ahbMasterAgent[0].ahbMasterSequencer@@ahbMasterReadSequence [AHB] req is of type: AhbMasterTransaction
# *****************************************master sequence***********************************
# -----------------------------------------------------------------------------------
# Name                      Type                  Size  Value                        
# -----------------------------------------------------------------------------------
# req                       AhbMasterTransaction  -     @1871                        
#   haddr                   integral              32    'h480                        
#   hselx                   integral              2     'b1                          
#   hburst                  string                6     SINGLE                       
#   hmastlock               integral              1     'h0                          
#   hprot                   string                29    PRIVILEGED_SECURE_INSTRUCTION
#   hsize                   string                4     WORD                         
#   hnonsec                 integral              1     'h1                          
#   hexcl                   integral              1     'h1                          
#   hmaster                 integral              1     1                            
#   htrans                  string                6     NONSEQ                       
#   hwrite                  string                4     READ                         
#   hreadyout               integral              1     'h0                          
#   hresp                   string                0     ""                           
#   hexokay                 integral              1     'h0                          
#   hready                  integral              1     'h0                          
#   noOfwaitStatesDetected  integral              32    'h0                          
#   hwdata[0]               integral              32    'hac1133b4                   
#   hwstrb[0]               integral              4     'b1111                       
#   busyControl[0]          integral              1     'h0                          
# -----------------------------------------------------------------------------------
# ********************************************************************************************
# UVM_INFO ../../src/hvlTop/masterAgent/AhbMasterDriverProxy.sv(100) @ 35: uvm_test_top.swasthik.ahbMasterAgent[0].ahbMasterDriverProxy [AhbMasterDriverProxy] Received Transaction: 
# -----------------------------------------------------------------------------------
# Name                      Type                  Size  Value                        
# -----------------------------------------------------------------------------------
# req                       AhbMasterTransaction  -     @1871                        
#   haddr                   integral              32    'h480                        
#   hselx                   integral              2     'b1                          
#   hburst                  string                6     SINGLE                       
#   hmastlock               integral              1     'h0                          
#   hprot                   string                29    PRIVILEGED_SECURE_INSTRUCTION
#   hsize                   string                4     WORD                         
#   hnonsec                 integral              1     'h1                          
#   hexcl                   integral              1     'h1                          
#   hmaster                 integral              1     1                            
#   htrans                  string                6     NONSEQ                       
#   hwrite                  string                4     READ                         
#   hreadyout               integral              1     'h0                          
#   hresp                   string                0     ""                           
#   hexokay                 integral              1     'h0                          
#   hready                  integral              1     'h0                          
#   noOfwaitStatesDetected  integral              32    'h0                          
