# vsim -vopt work.HvlTop work.HdlTop -voptargs="+acc=npr" -sv_seed random -assertdebug "+UVM_TESTNAME=AhbWriteFollowedByReadTest" "+UVM_VERBOSITY=UVM_HIGH" "+define+" -l AhbWriteFollowedByReadTest/AhbWriteFollowedByReadTest.log -sva -coverage -c -do "log -r /*; add wave -r /*; coverage save -onexit -assert -directive -cvg -codeAll AhbWriteFollowedByReadTest/AhbWriteFollowedByReadTest_coverage.ucdb; run -all; exit" -wlf AhbWriteFollowedByReadTest/waveform.wlf 
# Start time: 12:26:07 on Apr 17,2026
# ** Note: (vsim-3812) Design is being optimized...
# ** Warning: ../../src/hdlTop/interconnect/AhbInterconnect.sv(213): (vopt-2182) 'slave_data_phase[0][0]' might be read before written in always_comb or always @* block.
# ** Warning: ../../src/hdlTop/interconnect/AhbInterconnect.sv(213): (vopt-2182) 'slave_data_phase[1][0]' might be read before written in always_comb or always @* block.
# ** Warning: ../../src/hvlTop/environment/AhbScoreboard.sv(380): (vopt-2897) Using non-standard foreach loop variable list syntax.
# ** Warning: ../../src/hvlTop/environment/AhbScoreboard.sv(380): (vopt-2897) Using non-standard foreach loop variable list syntax.
# ** Warning: ../../src/hvlTop/tb/test/AhbBaseTest.sv(68): (vopt-2240) Treating stand-alone use of function 'randomize' as an implicit VOID cast.
# ** Warning: ../../src/hvlTop/tb/test/AhbBaseTest.sv(69): (vopt-2240) Treating stand-alone use of function 'randomize' as an implicit VOID cast.
# //  Questa Sim
# //  Version 10.6c linux Jul 25 2017
# //
# //  Copyright 1991-2017 Mentor Graphics Corporation
# //  All Rights Reserved.
# //
# //  QuestaSim and its associated documentation contain trade
# //  secrets and commercial or financial information that are the property of
# //  Mentor Graphics Corporation and are privileged, confidential,
# //  and exempt from disclosure under the Freedom of Information Act,
# //  5 U.S.C. Section 552. Furthermore, this information
# //  is prohibited from disclosure under the Trade Secrets Act,
# //  18 U.S.C. Section 1905.
# //
# Loading sv_std.std
# Loading work.AhbMasterDriverBFM(fast)
# Loading work.AhbSlaveMonitorBFM(fast)
# Loading work.AhbGlobalPackage(fast)
# Loading mtiUvm.uvm_pkg
# Loading work.AhbSlavePackage(fast)
# Loading work.AhbMasterPackage(fast)
# Loading work.AhbEnvironmentPackage(fast)
# Loading work.AhbSlaveSequencePackage(fast)
# Loading work.AhbMasterSequencePackage(fast)
# Loading work.AhbVirtualSequencePackage(fast)
# Loading work.AhbTestPackage(fast)
# Loading work.AhbMasterMonitorBFM(fast)
# Loading work.AhbSlaveDriverBFM(fast)
# Loading work.HvlTop(fast)
# Loading work.HdlTop(fast)
# Loading work.AhbInterconnect_sv_unit(fast)
# Loading work.AhbInterconnect(fast)
# Loading work.AhbMasterAgentBFM(fast)
# Loading work.AhbMasterDriverBFM_sv_unit(fast)
# Loading work.AhbMasterDriverBFM(fast)
# Loading work.AhbMasterMonitorBFM_sv_unit(fast)
# Loading work.AhbMasterMonitorBFM(fast)
# Loading work.AhbSlaveAgentBFM(fast)
# Loading work.AhbSlaveDriverBFM_sv_unit(fast)
# Loading work.AhbSlaveDriverBFM(fast)
# Loading work.AhbSlaveMonitorBFM_sv_unit(fast)
# Loading work.AhbSlaveMonitorBFM(fast)
# Loading work.AhbSlaveAgentBFM(fast__1)
# Loading mtiUvm.questa_uvm_pkg(fast)
# Loading work.AhbInterface_sv_unit(fast)
# Loading work.AhbInterface(fast__1)
# Loading work.AhbInterface(fast__2)
# ** Warning: (vsim-3015) ../../src/hdlTop/slaveAgentBFM/AhbSlaveAgentBFM.sv(40): [PCDPC] - Port size (2) does not match connection size (1) for port 'hselx'. The port definition is at: ../../src/hdlTop/slaveAgentBFM/AhbSlaveMonitorBFM.sv(25).
#    Time: 0 ns  Iteration: 0  Instance: /HdlTop/genblk2[0]/ahbSlaveAgentBFM/ahbSlaveMonitorBFM File: ../../src/hdlTop/slaveAgentBFM/AhbSlaveMonitorBFM.sv
# ** Warning: (vsim-3015) ../../src/hdlTop/slaveAgentBFM/AhbSlaveAgentBFM.sv(40): [PCDPC] - Port size (2) does not match connection size (1) for port 'hselx'. The port definition is at: ../../src/hdlTop/slaveAgentBFM/AhbSlaveMonitorBFM.sv(25).
#    Time: 0 ns  Iteration: 0  Instance: /HdlTop/genblk2[1]/ahbSlaveAgentBFM/ahbSlaveMonitorBFM File: ../../src/hdlTop/slaveAgentBFM/AhbSlaveMonitorBFM.sv
# Loading /tools/mentor/questasim_10.6c/questasim/uvm-1.1d/linux/uvm_dpi.so
# ** Warning: (vsim-PLI-3003) ../../src/hvlTop/environment/AhbScoreboard.sv(342): [TOFD] - System task or function '$sformatd' is not defined.
#    Time: 0 ns  Iteration: 0  Region: /AhbEnvironmentPackage::AhbScoreboard::run_phase/#anonblk#49292597#300#2#/#ublk#49292597#300/#ublk#49292597#303 File: ../../src/hvlTop/environment/AhbEnvironmentPackage.sv
# Sv_Seed = 3791146519
# log -r /*
#  add wave -r /*
#  coverage save -onexit -assert -directive -cvg -codeAll AhbWriteFollowedByReadTest/AhbWriteFollowedByReadTest_coverage.ucdb
#  run -all
# ----------------------------------------------------------------
# UVM-1.1d
# (C) 2007-2013 Mentor Graphics Corporation
# (C) 2007-2013 Cadence Design Systems, Inc.
# (C) 2006-2013 Synopsys, Inc.
# (C) 2011-2013 Cypress Semiconductor Corp.
# ----------------------------------------------------------------
# 
#   ***********       IMPORTANT RELEASE NOTES         ************
# 
#   You are using a version of the UVM library that has been compiled
#   with `UVM_NO_DEPRECATED undefined.
#   See http://www.eda.org/svdb/view.php?id=3313 for more details.
# 
#   You are using a version of the UVM library that has been compiled
#   with `UVM_OBJECT_MUST_HAVE_CONSTRUCTOR undefined.
#   See http://www.eda.org/svdb/view.php?id=3770 for more details.
# 
#       (Specify +UVM_NO_RELNOTES to turn off this notice)
# 
# UVM_INFO verilog_src/questa_uvm_pkg-1.2/src/questa_uvm_pkg.sv(215) @ 0: reporter [Questa UVM] QUESTA_UVM-1.2.3
# UVM_INFO verilog_src/questa_uvm_pkg-1.2/src/questa_uvm_pkg.sv(217) @ 0: reporter [Questa UVM]  questa_uvm::init(+struct)
# UVM_INFO @ 0: reporter [RNTST] Running test AhbWriteFollowedByReadTest...
# UVM_INFO ../../src/hdlTop/HdlTop.sv(13) @ 0: reporter [HDL_TOP] HDL_TOP
# UVM_INFO ../../src/hdlTop/masterAgentBFM/AhbMasterAgentBFM.sv(15) @ 0: reporter [ahb master agent bfm] AHB MASTER AGENT BFM id is 0
# THE MASTER AGENT ARE  CREATED AS EXPECTED HdlTop.genblk1[0].ahbMasterAgentBFM.ahbMasterDriverBFM.MASTER_DRIVER
# UVM_INFO ../../src/hdlTop/masterAgentBFM/AhbMasterMonitorBFM.sv(38) @ 0: reporter [AHB_MASTER_MONITOR_BFM] AHB MASTER MONITOR BFM
# UVM_INFO ../../src/hdlTop/slaveAgentBFM/AhbSlaveAgentBFM.sv(14) @ 0: reporter [ahb slave agent bfm] AHB SLAVE AGENT BFM 0
# UVM_INFO ../../src/hdlTop/slaveAgentBFM/AhbSlaveDriverBFM.sv(54) @ 0: reporter [AHB_SLAVE_DRIVER_BFM] AHB_SLAVE_DRIVER_BFM
# UVM_INFO ../../src/hdlTop/slaveAgentBFM/AhbSlaveMonitorBFM.sv(39) @ 0: reporter [AHB_SLAVE_MONITOR_BFM] AHB_SLAVE_MONITOR_BFM
# UVM_INFO ../../src/hdlTop/slaveAgentBFM/AhbSlaveAgentBFM.sv(14) @ 0: reporter [ahb slave agent bfm] AHB SLAVE AGENT BFM 1
# UVM_INFO ../../src/hdlTop/slaveAgentBFM/AhbSlaveDriverBFM.sv(54) @ 0: reporter [AHB_SLAVE_DRIVER_BFM] AHB_SLAVE_DRIVER_BFM
# UVM_INFO ../../src/hdlTop/slaveAgentBFM/AhbSlaveMonitorBFM.sv(39) @ 0: reporter [AHB_SLAVE_MONITOR_BFM] AHB_SLAVE_MONITOR_BFM
#                    0else hready 0 master [0] can_accept=0 oldest_is_ready=1
#  1st hwdata = x
# [0] ahbSlaveInterface[1].haddr = x
#  2nd hwdata = x
#  1st hwdata = x
# [0] ahbSlaveInterface[0].haddr = x
#  2nd hwdata = x
# ENTERED THIS BLOCK @0
# ENTERED THIS BLOCK @0
# ** Info: THE REQ IS x for the slave 1
#    Time: 0 ns  Scope: HdlTop.ahbinterconnect.genblk5[1].genblk1[0] File: ../../src/hdlTop/interconnect/AhbInterconnect.sv Line: 174
# ** Info: THE GRANT IS x for the slave 1 addr is x for master 0
#    Time: 0 ns  Scope: HdlTop.ahbinterconnect.genblk5[1].genblk1[0] File: ../../src/hdlTop/interconnect/AhbInterconnect.sv Line: 175
# ** Info: THE REQ IS x for the slave 0
#    Time: 0 ns  Scope: HdlTop.ahbinterconnect.genblk5[0].genblk1[0] File: ../../src/hdlTop/interconnect/AhbInterconnect.sv Line: 174
# ** Info: THE GRANT IS x for the slave 0 addr is x for master 0
#    Time: 0 ns  Scope: HdlTop.ahbinterconnect.genblk5[0].genblk1[0] File: ../../src/hdlTop/interconnect/AhbInterconnect.sv Line: 175
# invalid  address x
# invalid  address x
#                    0else hready 0 master [0] can_accept=0 oldest_is_ready=1
# ENTERED THIS BLOCK @0
# ENTERED THIS BLOCK @0
# THE MASTER FIELD IS AhbMasterDriverBFM0 
# UVM_INFO ../../src/hvlTop/tb/test/AhbBaseTest.sv(57) @ 0: uvm_test_top [AhbWriteFollowedByReadTest] 
# AHB_MASTER_CONFIG[0]
# ----------------------------------------------------------
# Name                     Type                  Size  Value
# ----------------------------------------------------------
# AhbMasterAgentConfig[0]  AhbMasterAgentConfig  -     @501 
#   is_active              integral              1     1    
#   hasCoverage            integral              1     1    
# ----------------------------------------------------------
# 
# THE FIELD IS AhbSlaveDriverBFM0
# THE FIELD IS AhbSlaveDriverBFM1
# UVM_INFO ../../src/hvlTop/tb/test/AhbBaseTest.sv(75) @ 0: uvm_test_top [AhbWriteFollowedByReadTest] 
# AHB_SLAVE_CONFIG[0]
# -------------------------------------------------------------
# Name                    Type                 Size  Value     
# -------------------------------------------------------------
# AhbSlaveAgentConfig[0]  AhbSlaveAgentConfig  -     @508      
#   is_active             string               10    UVM_ACTIVE
#   hasCoverage           integral             1     1         
#   maximumAddress        integral             32    'h0       
#   minimumAddress        integral             32    'h0       
# -------------------------------------------------------------
# 
# UVM_INFO ../../src/hvlTop/tb/test/AhbBaseTest.sv(75) @ 0: uvm_test_top [AhbWriteFollowedByReadTest] 
# AHB_SLAVE_CONFIG[1]
# -------------------------------------------------------------
# Name                    Type                 Size  Value     
# -------------------------------------------------------------
# AhbSlaveAgentConfig[1]  AhbSlaveAgentConfig  -     @509      
#   is_active             string               10    UVM_ACTIVE
#   hasCoverage           integral             1     1         
#   maximumAddress        integral             32    'h0       
#   minimumAddress        integral             32    'h0       
# -------------------------------------------------------------
# 
# UVM_INFO ../../src/hvlTop/tb/test/AhbBaseTest.sv(79) @ 0: uvm_test_top [AhbWriteFollowedByReadTest] 
# AHB_ENV_CONFIG
# -------------------------------------------------------------
# Name                   Type                  Size  Value     
# -------------------------------------------------------------
# ahbEnvironmentConfig   AhbEnvironmentConfig  -     @500      
#   hasScoreboard        integral              1     1         
#   hasVirtualSequencer  integral              1     1         
#   noOfMasters          integral              32    'd1       
#   noOfSlaves           integral              32    'd2       
#   operationMode        integral              2     2         
#   operationMode        string                10    WRITE_READ
# -------------------------------------------------------------
# 
# ASSIGNMENT IN ENV IS 0
# ASSIGNMENT IN ENV IS 0
# THE CONFIG IS 65903
# THE NUMBER OF WAIT IS 0
# IN THE SLAVE PROXY THE  0
# THE NUMBER OF WAIT IS 0
# IN THE SLAVE PROXY THE  0
# UVM_INFO @ 0: reporter [UVMTOP] UVM testbench topology:
# -----------------------------------------------------------------------
# Name                            Type                        Size  Value
# -----------------------------------------------------------------------
# uvm_test_top                    AhbWriteFollowedByReadTest  -     @473 
#   swasthik                      AhbEnvironment              -     @524 
#     ahbMasterAgent[0]           AhbMasterAgent              -     @533 
#       ahbMasterCoverage         AhbMasterCoverage           -     @961 
#         analysis_imp            uvm_analysis_imp            -     @968 
#       ahbMasterDriverProxy      AhbMasterDriverProxy        -     @923 
#         rsp_port                uvm_analysis_port           -     @938 
#         seq_item_port           uvm_seq_item_pull_port      -     @930 
#       ahbMasterMonitorProxy     AhbMasterMonitorProxy       -     @946 
#         ahbMasterAnalysisPort   uvm_analysis_port           -     @953 
#       ahbMasterSequencer        AhbMasterSequencer          -     @814 
#         rsp_export              uvm_analysis_export         -     @821 
#         seq_item_export         uvm_seq_item_pull_imp       -     @915 
#         arbitration_queue       array                       0     -    
#         lock_queue              array                       0     -    
#         num_last_reqs           integral                    32    'd1  
#         num_last_rsps           integral                    32    'd1  
#     ahbScoreboard               AhbScoreboard               -     @665 
#       ahbMasterAnalysisFifo[0]  uvm_tlm_analysis_fifo #(T)  -     @672 
#         analysis_export         uvm_analysis_imp            -     @711 
#         get_ap                  uvm_analysis_port           -     @703 
#         get_peek_export         uvm_get_peek_imp            -     @687 
#         put_ap                  uvm_analysis_port           -     @695 
#         put_export              uvm_put_imp                 -     @679 
#       ahbSlaveAnalysisFifo[0]   uvm_tlm_analysis_fifo #(T)  -     @719 
#         analysis_export         uvm_analysis_imp            -     @758 
#         get_ap                  uvm_analysis_port           -     @750 
#         get_peek_export         uvm_get_peek_imp            -     @734 
#         put_ap                  uvm_analysis_port           -     @742 
#         put_export              uvm_put_imp                 -     @726 
#       ahbSlaveAnalysisFifo[1]   uvm_tlm_analysis_fifo #(T)  -     @766 
#         analysis_export         uvm_analysis_imp            -     @805 
#         get_ap                  uvm_analysis_port           -     @797 
#         get_peek_export         uvm_get_peek_imp            -     @781 
#         put_ap                  uvm_analysis_port           -     @789 
#         put_export              uvm_put_imp                 -     @773 
#     ahbSlaveAgent[0]            AhbSlaveAgent               -     @542 
#       ahbSlaveCoverage          AhbSlaveCoverage            -     @1130
#         analysis_imp            uvm_analysis_imp            -     @1137
#       ahbSlaveDriverProxy       AhbSlaveDriverProxy         -     @1092
#         rsp_port                uvm_analysis_port           -     @1107
#         seq_item_port           uvm_seq_item_pull_port      -     @1099
#       ahbSlaveMonitorProxy      AhbSlaveMonitorProxy        -     @1115
#         ahbSlaveAnalysisPort    uvm_analysis_port           -     @1122
#       ahbSlaveSequencer         AhbSlaveSequencer           -     @983 
#         rsp_export              uvm_analysis_export         -     @990 
#         seq_item_export         uvm_seq_item_pull_imp       -     @1084
#         arbitration_queue       array                       0     -    
#         lock_queue              array                       0     -    
#         num_last_reqs           integral                    32    'd1  
#         num_last_rsps           integral                    32    'd1  
#     ahbSlaveAgent[1]            AhbSlaveAgent               -     @549 
#       ahbSlaveCoverage          AhbSlaveCoverage            -     @1298
#         analysis_imp            uvm_analysis_imp            -     @1305
#       ahbSlaveDriverProxy       AhbSlaveDriverProxy         -     @1260
#         rsp_port                uvm_analysis_port           -     @1275
#         seq_item_port           uvm_seq_item_pull_port      -     @1267
#       ahbSlaveMonitorProxy      AhbSlaveMonitorProxy        -     @1283
#         ahbSlaveAnalysisPort    uvm_analysis_port           -     @1290
#       ahbSlaveSequencer         AhbSlaveSequencer           -     @1151
#         rsp_export              uvm_analysis_export         -     @1158
#         seq_item_export         uvm_seq_item_pull_imp       -     @1252
#         arbitration_queue       array                       0     -    
#         lock_queue              array                       0     -    
#         num_last_reqs           integral                    32    'd1  
#         num_last_rsps           integral                    32    'd1  
#     ahbVirtualSequencer         AhbVirtualSequencer         -     @556 
#       rsp_export                uvm_analysis_export         -     @563 
#       seq_item_export           uvm_seq_item_pull_imp       -     @657 
#       arbitration_queue         array                       0     -    
#       lock_queue                array                       0     -    
#       num_last_reqs             integral                    32    'd1  
#       num_last_rsps             integral                    32    'd1  
# -----------------------------------------------------------------------
# 
# UVM_INFO verilog_src/questa_uvm_pkg-1.2/src/questa_uvm_pkg.sv(277) @ 0: reporter [Questa UVM] End Of Elaboration
# UVM_INFO ../../src/hvlTop/tb/test/AhbWriteFollowedByReadTest.sv(36) @ 0: uvm_test_top [AhbWriteFollowedByReadTest] AhbWriteFollowedByReadTest
# CONNVERTER NO OF WAIT STATES IS 0
# UVM_INFO ../../src/hvlTop/slaveAgent/AhbSlaveDriverProxy.sv(49) @ 0: uvm_test_top.swasthik.ahbSlaveAgent[1].ahbSlaveDriverProxy [AhbSlaveDriverProxy]  BEFORERESET 
#  
# CONNVERTER NO OF WAIT STATES IS 0
# UVM_INFO ../../src/hvlTop/slaveAgent/AhbSlaveDriverProxy.sv(49) @ 0: uvm_test_top.swasthik.ahbSlaveAgent[0].ahbSlaveDriverProxy [AhbSlaveDriverProxy]  BEFORERESET 
#  
# UVM_INFO ../../src/hvlTop/masterAgent/AhbMasterMonitorProxy.sv(56) @ 0: uvm_test_top.swasthik.ahbMasterAgent[0].ahbMasterMonitorProxy [AhbMasterMonitorProxy] Inside the master_monitor_proxy
# RESET CALLED
# UVM_INFO ../../src/hdlTop/slaveAgentBFM/AhbSlaveDriverBFM.sv(67) @ 5: reporter [AHB_SLAVE_DRIVER_BFM] SYSTEM RESET DETECTED
# UVM_INFO ../../src/hdlTop/slaveAgentBFM/AhbSlaveDriverBFM.sv(67) @ 5: reporter [AHB_SLAVE_DRIVER_BFM] SYSTEM RESET DETECTED
# UVM_INFO ../../src/hdlTop/masterAgentBFM/AhbMasterDriverBFM.sv(48) @ 5: reporter [AHB_MASTER_DRIVER_BFM] SYSTEM RESET DETECTED
# UVM_INFO ../../src/hdlTop/masterAgentBFM/AhbMasterMonitorBFM.sv(43) @ 5: reporter [AHB_MASTER_MONITOR_BFM] system reset detected
#                    5else hready 0 master [0] can_accept=0 oldest_is_ready=1
#                    5 3rd block can accept=1 slave=1
# slave_has_owner = x slave = 1 
#                    5 3rd block can accept=1 slave=0
# slave_has_owner = x slave = 0 
#                    5else hready 0 master [0] can_accept=0 oldest_is_ready=1
#                    5 3rd block can accept=1 slave=1
# slave_has_owner = 0 slave = 1 
#                    5 3rd block can accept=1 slave=0
# slave_has_owner = 0 slave = 0 
# @                  15 H EY MAN
# ENTERED THIS BLOCK @15
# ENTERED THIS BLOCK @15
# UVM_INFO ../../src/hdlTop/masterAgentBFM/AhbMasterMonitorBFM.sv(45) @ 15: reporter [AHB_MASTER_MONITOR_BFM] system reset deactivated
# UVM_INFO ../../src/hdlTop/masterAgentBFM/AhbMasterDriverBFM.sv(52) @ 15: reporter [AHB_MASTER_DRIVER_BFM]  @15 SYSTEM RESET DEACTIVATED
# 
#  
#  getting next one 
#  
# 
# ....I AM HERE..... 15 
# UVM_INFO ../../src/hdlTop/slaveAgentBFM/AhbSlaveDriverBFM.sv(71) @ 15: reporter [AHB_SLAVE_DRIVER_BFM] SYSTEM RESET DEACTIVATED
# UVM_INFO ../../src/hdlTop/slaveAgentBFM/AhbSlaveDriverBFM.sv(71) @ 15: reporter [AHB_SLAVE_DRIVER_BFM] SYSTEM RESET DEACTIVATED
# ---------------------------------------------------------
# Name                Type                 Size  Value     
# ---------------------------------------------------------
# req                 AhbSlaveTransaction  -     @1380     
#   haddr             integral             32    'h0       
#   hselx             integral             2     'b0       
#   hburst            string               0     ""        
#   hmastlock         integral             1     'h0       
#   hprot             string               0     ""        
#   hsize             string               0     ""        
#   hnonsec           integral             1     'h0       
#   hexcl             integral             1     'h0       
#   hmaster           integral             1     'd0       
#   htrans            string               0     ""        
#   hwrite            string               4     READ      
#   hreadyout         integral             1     'h0       
#   hresp             string               0     ""        
#   hexokay           integral             1     'h0       
#   hready            integral             1     'h0       
#   choosePacketData  integral             1     'd0       
#   hwdata[0]         integral             32    'h1122db9b
#   hwdata[1]         integral             32    'h24e7ecc0
#   hwdata[2]         integral             32    'hb3b5ffea
#   hwdata[3]         integral             32    'h1917fbc6
#   hwdata[4]         integral             32    'h11dbb91d
#   hwdata[5]         integral             32    'hd6804256
#   hwdata[6]         integral             32    'h21fb7665
#   hwdata[7]         integral             32    'h1e1d67eb
#   hwdata[8]         integral             32    'h20443aa6
#   hwdata[9]         integral             32    'h2eb7ff89
#   hwdata[10]        integral             32    'h7e410edd
#   hwdata[11]        integral             32    'he5f5312 
#   hwdata[12]        integral             32    'h30ed635a
#   hwdata[13]        integral             32    'h5c03f5fd
#   hwdata[14]        integral             32    'hc08932e6
#   hwdata[15]        integral             32    'haac6db3d
#   hwstrb[0]         integral             4     'b1000    
#   hwstrb[1]         integral             4     'b110     
#   hwstrb[2]         integral             4     'b1010    
#   hwstrb[3]         integral             4     'b10      
#   hwstrb[4]         integral             4     'b1011    
#   hwstrb[5]         integral             4     'b0       
#   hwstrb[6]         integral             4     'b1100    
#   hwstrb[7]         integral             4     'b1000    
#   hwstrb[8]         integral             4     'b0       
#   hwstrb[9]         integral             4     'b0       
#   hwstrb[10]        integral             4     'b11      
#   hwstrb[11]        integral             4     'b1001    
#   hwstrb[12]        integral             4     'b1100    
#   hwstrb[13]        integral             4     'b1011    
#   hwstrb[14]        integral             4     'b1000    
#   hwstrb[15]        integral             4     'b100     
#   hrdata[0]         integral             32    'h2e3b0a8b
#   hrdata[1]         integral             32    'h799ae2a0
#   hrdata[2]         integral             32    'hfd8d5f28
#   hrdata[3]         integral             32    'hc7fa2654
#   hrdata[4]         integral             32    'h3c29e761
#   hrdata[5]         integral             32    'h141c3994
#   hrdata[6]         integral             32    'h186b61e 
#   hrdata[7]         integral             32    'heebf2a49
#   hrdata[8]         integral             32    'he3f59f32
#   hrdata[9]         integral             32    'h2b7aa8c 
#   hrdata[10]        integral             32    'h2aab544a
#   hrdata[11]        integral             32    'hf8b6580e
#   hrdata[12]        integral             32    'he90c49e5
#   hrdata[13]        integral             32    'hb875079e
#   hrdata[14]        integral             32    'h97d7b2bf
#   hrdata[15]        integral             32    'he5c4dc1a
# ---------------------------------------------------------
# ---------------------------------------------------------
# Name                Type                 Size  Value     
# ---------------------------------------------------------
# req                 AhbSlaveTransaction  -     @1376     
#   haddr             integral             32    'h0       
#   hselx             integral             2     'b0       
#   hburst            string               0     ""        
#   hmastlock         integral             1     'h0       
#   hprot             string               0     ""        
#   hsize             string               0     ""        
#   hnonsec           integral             1     'h0       
#   hexcl             integral             1     'h0       
#   hmaster           integral             1     'd0       
#   htrans            string               0     ""        
#   hwrite            string               4     READ      
#   hreadyout         integral             1     'h0       
#   hresp             string               0     ""        
#   hexokay           integral             1     'h0       
#   hready            integral             1     'h0       
#   choosePacketData  integral             1     'd0       
#   hwdata[0]         integral             32    'h8736fa0c
#   hwdata[1]         integral             32    'h48b11f0d
#   hwdata[2]         integral             32    'hc19c3902
#   hwdata[3]         integral             32    'hae650475
#   hwdata[4]         integral             32    'h24da9ff 
#   hwdata[5]         integral             32    'hdcadc4d9
#   hwdata[6]         integral             32    'hd95b6865
#   hwdata[7]         integral             32    'h49655be5
#   hwdata[8]         integral             32    'h3cb6a48b
#   hwdata[9]         integral             32    'h160bb5e4
#   hwdata[10]        integral             32    'h72bb34eb
#   hwdata[11]        integral             32    'hd10960ee
#   hwdata[12]        integral             32    'h2597cfbc
#   hwdata[13]        integral             32    'h4a695cbc
#   hwdata[14]        integral             32    'he72a92e9
#   hwdata[15]        integral             32    'h19a2fa68
#   hwstrb[0]         integral             4     'b110     
#   hwstrb[1]         integral             4     'b100     
#   hwstrb[2]         integral             4     'b1101    
#   hwstrb[3]         integral             4     'b111     
#   hwstrb[4]         integral             4     'b100     
#   hwstrb[5]         integral             4     'b1100    
#   hwstrb[6]         integral             4     'b11      
#   hwstrb[7]         integral             4     'b11      
#   hwstrb[8]         integral             4     'b110     
#   hwstrb[9]         integral             4     'b1011    
#   hwstrb[10]        integral             4     'b10      
#   hwstrb[11]        integral             4     'b111     
#   hwstrb[12]        integral             4     'b1001    
#   hwstrb[13]        integral             4     'b1101    
#   hwstrb[14]        integral             4     'b1011    
#   hwstrb[15]        integral             4     'b1011    
#   hrdata[0]         integral             32    'hb25107ea
#   hrdata[1]         integral             32    'hce5ed915
#   hrdata[2]         integral             32    'h95991b7f
#   hrdata[3]         integral             32    'h365b7268
#   hrdata[4]         integral             32    'h55b8559d
#   hrdata[5]         integral             32    'h25a78ed0
#   hrdata[6]         integral             32    'he29efb91
#   hrdata[7]         integral             32    'hc7f0bc83
#   hrdata[8]         integral             32    'hb906d192
#   hrdata[9]         integral             32    'hf2c9ef5e
#   hrdata[10]        integral             32    'h6072654 
#   hrdata[11]        integral             32    'h84d76ed8
#   hrdata[12]        integral             32    'h34ae2c11
#   hrdata[13]        integral             32    'h4f659ab7
#   hrdata[14]        integral             32    'hfb581fd2
#   hrdata[15]        integral             32    'hfd256a8b
# ---------------------------------------------------------
# UVM_INFO ../../src/hvlTop/masterAgent/masterSequences/AhbMasterSequence.sv(142) @ 15: uvm_test_top.swasthik.ahbMasterAgent[0].ahbMasterSequencer@@ahbMasterWriteSequence[0] [AHB] req is of type: AhbMasterTransaction
# *****************************************master sequence***********************************
# -------------------------------------------------------------------------------
# Name                      Type                  Size  Value                    
# -------------------------------------------------------------------------------
# req                       AhbMasterTransaction  -     @1384                    
#   haddr                   integral              32    'h254                    
#   hselx                   integral              2     'b1                      
#   hburst                  string                5     INCR4                    
#   hmastlock               integral              1     'h0                      
#   hprot                   string                25    NORMAL_SECURE_INSTRUCTION
#   hsize                   string                4     WORD                     
#   hnonsec                 integral              1     'h1                      
#   hexcl                   integral              1     'h1                      
#   hmaster                 integral              1     1                        
#   htrans                  string                3     SEQ                      
#   hwrite                  string                5     WRITE                    
#   hreadyout               integral              1     'h0                      
#   hresp                   string                0     ""                       
#   hexokay                 integral              1     'h0                      
#   hready                  integral              1     'h0                      
#   noOfwaitStatesDetected  integral              32    'h0                      
#   hwdata[0]               integral              32    'hd002bf38               
#   hwdata[1]               integral              32    'h5496f6ad               
#   hwdata[2]               integral              32    'h3eca6423               
#   hwdata[3]               integral              32    'h42e0449c               
#   hwstrb[0]               integral              4     'b1111                   
#   hwstrb[1]               integral              4     'b1111                   
#   hwstrb[2]               integral              4     'b1111                   
#   hwstrb[3]               integral              4     'b1111                   
#   busyControl[0]          integral              1     'h0                      
#   busyControl[1]          integral              1     'h0                      
#   busyControl[2]          integral              1     'h0                      
#   busyControl[3]          integral              1     'h0                      
# -------------------------------------------------------------------------------
# ********************************************************************************************
# UVM_INFO ../../src/hvlTop/slaveAgent/AhbSlaveSequenceItemConverter.sv(90) @ 15: reporter [ahbSlaveSequeceItemconverterClass] -------------------------------------------------------------
# THE RUN PHASE IS 0
# CONNVERTER NO OF WAIT STATES IS 0
# (((((((((((((((SENT ACK)))))))))))))))
# UVM_INFO ../../src/hvlTop/slaveAgent/AhbSlaveSequenceItemConverter.sv(90) @ 15: reporter [ahbSlaveSequeceItemconverterClass] -------------------------------------------------------------
# THE RUN PHASE IS 0
# CONNVERTER NO OF WAIT STATES IS 0
# (((((((((((((((SENT ACK)))))))))))))))
# UVM_INFO ../../src/hvlTop/masterAgent/AhbMasterDriverProxy.sv(68) @ 15: uvm_test_top.swasthik.ahbMasterAgent[0].ahbMasterDriverProxy [AhbMasterDriverProxy] REQ-MASTERTX 
#  -------------------------------------------------------------------------------
# Name                      Type                  Size  Value                    
# -------------------------------------------------------------------------------
# req                       AhbMasterTransaction  -     @1384                    
#   haddr                   integral              32    'h254                    
#   hselx                   integral              2     'b1                      
#   hburst                  string                5     INCR4                    
#   hmastlock               integral              1     'h0                      
#   hprot                   string                25    NORMAL_SECURE_INSTRUCTION
#   hsize                   string                4     WORD                     
#   hnonsec                 integral              1     'h1                      
#   hexcl                   integral              1     'h1                      
#   hmaster                 integral              1     1                        
#   htrans                  string                3     SEQ                      
#   hwrite                  string                5     WRITE                    
#   hreadyout               integral              1     'h0                      
#   hresp                   string                0     ""                       
#   hexokay                 integral              1     'h0                      
#   hready                  integral              1     'h0                      
#   noOfwaitStatesDetected  integral              32    'h0                      
#   hwdata[0]               integral              32    'hd002bf38               
#   hwdata[1]               integral              32    'h5496f6ad               
#   hwdata[2]               integral              32    'h3eca6423               
#   hwdata[3]               integral              32    'h42e0449c               
#   hwstrb[0]               integral              4     'b1111                   
#   hwstrb[1]               integral              4     'b1111                   
#   hwstrb[2]               integral              4     'b1111                   
#   hwstrb[3]               integral              4     'b1111                   
#   busyControl[0]          integral              1     'h0                      
#   busyControl[1]          integral              1     'h0                      
#   busyControl[2]          integral              1     'h0                      
#   busyControl[3]          integral              1     'h0                      
# -------------------------------------------------------------------------------
# 
# ***************************IN DRIVER************************************************************************
# -------------------------------------------------------------------------------
# Name                      Type                  Size  Value                    
# -------------------------------------------------------------------------------
# req                       AhbMasterTransaction  -     @1384                    
#   haddr                   integral              32    'h254                    
#   hselx                   integral              2     'b1                      
#   hburst                  string                5     INCR4                    
#   hmastlock               integral              1     'h0                      
#   hprot                   string                25    NORMAL_SECURE_INSTRUCTION
#   hsize                   string                4     WORD                     
#   hnonsec                 integral              1     'h1                      
#   hexcl                   integral              1     'h1                      
#   hmaster                 integral              1     1                        
#   htrans                  string                3     SEQ                      
#   hwrite                  string                5     WRITE                    
#   hreadyout               integral              1     'h0                      
#   hresp                   string                0     ""                       
#   hexokay                 integral              1     'h0                      
#   hready                  integral              1     'h0                      
#   noOfwaitStatesDetected  integral              32    'h0                      
#   hwdata[0]               integral              32    'hd002bf38               
#   hwdata[1]               integral              32    'h5496f6ad               
#   hwdata[2]               integral              32    'h3eca6423               
#   hwdata[3]               integral              32    'h42e0449c               
#   hwstrb[0]               integral              4     'b1111                   
#   hwstrb[1]               integral              4     'b1111                   
#   hwstrb[2]               integral              4     'b1111                   
#   hwstrb[3]               integral              4     'b1111                   
#   busyControl[0]          integral              1     'h0                      
#   busyControl[1]          integral              1     'h0                      
#   busyControl[2]          integral              1     'h0                      
#   busyControl[3]          integral              1     'h0                      
# -------------------------------------------------------------------------------
# ***************************************************************************************************
# INSIDE BURST
# SLAVE SEQUENCE DONE 
# SLAVE SEQUENCE DONE 
# ** Info: THE REQ IS x for the slave 0
#    Time: 16 ns  Scope: HdlTop.ahbinterconnect.genblk5[0].genblk1[0] File: ../../src/hdlTop/interconnect/AhbInterconnect.sv Line: 174
# ** Info: THE GRANT IS x for the slave 0 addr is 596 for master 0
#    Time: 16 ns  Scope: HdlTop.ahbinterconnect.genblk5[0].genblk1[0] File: ../../src/hdlTop/interconnect/AhbInterconnect.sv Line: 175
# ** Info: THE REQ IS x for the slave 1
#    Time: 16 ns  Scope: HdlTop.ahbinterconnect.genblk5[1].genblk1[0] File: ../../src/hdlTop/interconnect/AhbInterconnect.sv Line: 174
# ** Info: THE GRANT IS x for the slave 1 addr is 596 for master 0
#    Time: 16 ns  Scope: HdlTop.ahbinterconnect.genblk5[1].genblk1[0] File: ../../src/hdlTop/interconnect/AhbInterconnect.sv Line: 175
#                   16 3rd block can accept=1 slave=1
# slave_has_owner = 0 slave = 1 
#                   16 3rd block can accept=1 slave=0
# slave_has_owner = 0 slave = 0 
# slave number 0 address 596
# slave number 0 address 596
# ** Info: THE REQ IS 1 for the slave 0
#    Time: 16 ns  Scope: HdlTop.ahbinterconnect.genblk5[0].genblk1[0] File: ../../src/hdlTop/interconnect/AhbInterconnect.sv Line: 174
# ** Info: THE GRANT IS x for the slave 0 addr is 596 for master 0
#    Time: 16 ns  Scope: HdlTop.ahbinterconnect.genblk5[0].genblk1[0] File: ../../src/hdlTop/interconnect/AhbInterconnect.sv Line: 175
# ** Info: THE REQ IS x for the slave 1
#    Time: 16 ns  Scope: HdlTop.ahbinterconnect.genblk5[1].genblk1[0] File: ../../src/hdlTop/interconnect/AhbInterconnect.sv Line: 174
# ** Info: THE GRANT IS x for the slave 1 addr is 596 for master 0
#    Time: 16 ns  Scope: HdlTop.ahbinterconnect.genblk5[1].genblk1[0] File: ../../src/hdlTop/interconnect/AhbInterconnect.sv Line: 175
#                   16 3rd block can accept=1 slave=0
# slave_has_owner = 0 slave = 0 
# dead case s:          0 | m:          0
#                   16 inside 3rd block master_request[s=0][m= 0] htrans=2
#                   16 3rd block grant 1
# ** Info: THE REQ IS 1 for the slave 0
#    Time: 16 ns  Scope: HdlTop.ahbinterconnect.genblk5[0].genblk1[0] File: ../../src/hdlTop/interconnect/AhbInterconnect.sv Line: 174
# ** Info: THE GRANT IS 1 for the slave 0 addr is 596 for master 0
#    Time: 16 ns  Scope: HdlTop.ahbinterconnect.genblk5[0].genblk1[0] File: ../../src/hdlTop/interconnect/AhbInterconnect.sv Line: 175
# ** Info: THE REQ IS x for the slave 1
#    Time: 16 ns  Scope: HdlTop.ahbinterconnect.genblk5[1].genblk1[0] File: ../../src/hdlTop/interconnect/AhbInterconnect.sv Line: 174
# ** Info: THE GRANT IS x for the slave 1 addr is 596 for master 0
#    Time: 16 ns  Scope: HdlTop.ahbinterconnect.genblk5[1].genblk1[0] File: ../../src/hdlTop/interconnect/AhbInterconnect.sv Line: 175
# [16] master_pipeline[0][master_wr_ptr[0]].haddr = 0
# slave number 0 address 596
# last grant s=0 m=0 g==1
#                   16else hready 1 master [0] can_accept=1 oldest_is_ready=1
# ENTERED THIS BLOCK @16
# [16] slave_hwdata_stable[0] = x
# last grant s=0 m=0 g==1
#                   16else hready 1 master [0] can_accept=1 oldest_is_ready=1
#  1st hwdata = x
# [16] ahbSlaveInterface[0].haddr = 596
#  2nd hwdata = x
#  1st hwdata = x
# [16] ahbSlaveInterface[1].haddr = x
#  2nd hwdata = x
# ENTERED THIS BLOCK @16
# [16] slave_hwdata_stable[0] = x
# [16] 3rd  slave_data_phase.[0].haddr = 596
#                   25 first master_grant[slaveloop=0][masterloop=0]=1
# [25] current_owner[0] = x
# [25] new_c_owner[0] = x
# ishika 25 haddr = 0
# UVM_INFO ../../src/hvlTop/slaveAgent/AhbSlaveMonitorProxy.sv(74) @ 25: uvm_test_top.swasthik.ahbSlaveAgent[0].ahbSlaveMonitorProxy [AhbSlaveMonitorProxy] Sending packet via analysis_port: , 
#  -----------------------------------------------------------------
# Name                Type                 Size  Value             
# -----------------------------------------------------------------
# slave Packet        AhbSlaveTransaction  -     @1486             
#   haddr             integral             32    'h0               
#   hselx             integral             2     'b0               
#   hburst            string               6     SINGLE            
#   hmastlock         integral             1     'h0               
#   hprot             string               18    NORMAL_SECURE_DATA
#   hsize             string               4     BYTE              
#   hnonsec           integral             1     'h0               
#   hexcl             integral             1     'h0               
#   hmaster           integral             1     'd0               
#   htrans            string               4     IDLE              
#   hwrite            string               4     READ              
#   hreadyout         integral             1     'h1               
#   hresp             string               0     ""                
#   hexokay           integral             1     'h0               
#   hready            integral             1     'h0               
#   choosePacketData  integral             1     'd0               
# -----------------------------------------------------------------
# 
# UVM_INFO ../../src/hvlTop/slaveAgent/AhbSlaveCoverage.sv(39) @ 25: uvm_test_top.swasthik.ahbSlaveAgent[0].ahbSlaveCoverage [AhbSlaveCoverage] AHB SLAVE COVERAGE
# CONNVERTER NO OF WAIT STATES IS 0
# [25] from master monitor = haddr=596
# UVM_INFO ../../src/hvlTop/masterAgent/AhbMasterMonitorProxy.sv(72) @ 25: uvm_test_top.swasthik.ahbMasterAgent[0].ahbMasterMonitorProxy [AhbMasterMonitorProxy] Sending packet via analysis_port: , 
#  ------------------------------------------------------------------------
# Name                      Type                  Size  Value             
# ------------------------------------------------------------------------
# ahbMasterPacket           AhbMasterTransaction  -     @1490             
#   haddr                   integral              32    'h0               
#   hselx                   integral              2     'b0               
#   hburst                  string                6     SINGLE            
#   hmastlock               integral              1     'h0               
#   hprot                   string                18    NORMAL_SECURE_DATA
#   hsize                   string                4     BYTE              
#   hnonsec                 integral              1     'h0               
#   hexcl                   integral              1     'h0               
#   hmaster                 integral              1     'd0               
#   htrans                  string                4     IDLE              
#   hwrite                  string                4     READ              
#   hreadyout               integral              1     'h1               
#   hresp                   string                4     OKAY              
#   hexokay                 integral              1     'h0               
#   hready                  integral              1     'h0               
#   noOfwaitStatesDetected  integral              32    'h0               
# ------------------------------------------------------------------------
# 
# UVM_INFO ../../src/hvlTop/masterAgent/AhbMasterCoverage.sv(107) @ 25: uvm_test_top.swasthik.ahbMasterAgent[0].ahbMasterCoverage [AhbMasterCoverage] Before calling SAMPLE METHOD
# UVM_INFO ../../src/hvlTop/masterAgent/AhbMasterCoverage.sv(109) @ 25: uvm_test_top.swasthik.ahbMasterAgent[0].ahbMasterCoverage [AhbMasterCoverage] After calling SAMPLE METHOD
# run phase got s_tx
# -----------------------------------------------------------------
# Name                Type                 Size  Value             
# -----------------------------------------------------------------
# slave Packet        AhbSlaveTransaction  -     @1486             
#   haddr             integral             32    'h0               
#   hselx             integral             2     'b0               
#   hburst            string               6     SINGLE            
#   hmastlock         integral             1     'h0               
#   hprot             string               18    NORMAL_SECURE_DATA
#   hsize             string               4     BYTE              
#   hnonsec           integral             1     'h0               
#   hexcl             integral             1     'h0               
#   hmaster           integral             1     'd0               
#   htrans            string               4     IDLE              
#   hwrite            string               4     READ              
#   hreadyout         integral             1     'h1               
#   hresp             string               0     ""                
#   hexokay           integral             1     'h0               
#   hready            integral             1     'h0               
#   choosePacketData  integral             1     'd0               
# -----------------------------------------------------------------
# [25] run phase got m_tx haddr=0, mtx=1
# ------------------------------------------------------------------------
# Name                      Type                  Size  Value             
# ------------------------------------------------------------------------
# ahbMasterPacket           AhbMasterTransaction  -     @1490             
#   haddr                   integral              32    'h0               
#   hselx                   integral              2     'b0               
#   hburst                  string                6     SINGLE            
#   hmastlock               integral              1     'h0               
#   hprot                   string                18    NORMAL_SECURE_DATA
#   hsize                   string                4     BYTE              
#   hnonsec                 integral              1     'h0               
#   hexcl                   integral              1     'h0               
#   hmaster                 integral              1     'd0               
#   htrans                  string                4     IDLE              
#   hwrite                  string                4     READ              
#   hreadyout               integral              1     'h1               
#   hresp                   string                4     OKAY              
#   hexokay                 integral              1     'h0               
#   hready                  integral              1     'h0               
#   noOfwaitStatesDetected  integral              32    'h0               
# ------------------------------------------------------------------------
#                   25 3rd block can accept=1 slave=1
# slave_has_owner = x slave = 1 
#                   25 3rd block can accept=1 slave=0
# slave_has_owner = x slave = 0 
# dead case s:          0 | m:          0
#                   25 inside 3rd block master_request[s=0][m= 0] htrans=2
#                   25 3rd block grant 1
# ** Info: THE REQ IS 1 for the slave 0
#    Time: 25 ns  Scope: HdlTop.ahbinterconnect.genblk5[0].genblk1[0] File: ../../src/hdlTop/interconnect/AhbInterconnect.sv Line: 174
# ** Info: THE GRANT IS 1 for the slave 0 addr is 596 for master 0
#    Time: 25 ns  Scope: HdlTop.ahbinterconnect.genblk5[0].genblk1[0] File: ../../src/hdlTop/interconnect/AhbInterconnect.sv Line: 175
# ** Info: THE REQ IS x for the slave 1
#    Time: 25 ns  Scope: HdlTop.ahbinterconnect.genblk5[1].genblk1[0] File: ../../src/hdlTop/interconnect/AhbInterconnect.sv Line: 174
# ** Info: THE GRANT IS x for the slave 1 addr is 596 for master 0
#    Time: 25 ns  Scope: HdlTop.ahbinterconnect.genblk5[1].genblk1[0] File: ../../src/hdlTop/interconnect/AhbInterconnect.sv Line: 175
# [25] master_pipeline[0][master_wr_ptr[0]].haddr = 0
# slave number 0 address 596
# last grant s=0 m=0 g==1
#                   25else hready 1 master [0] can_accept=1 oldest_is_ready=1
# ENTERED THIS BLOCK @25
# [25] slave_hwdata_stable[0] = x
# 25 check slave_hreadyout[0] = 1
# last grant s=0 m=0 g==1
#                   25else hready 1 master [0] can_accept=1 oldest_is_ready=1
#                   25 3rd block can accept=1 slave=0
# slave_has_owner = 1 slave = 0 
# dead case s:          0 | m:          0
#                   25 inside 3rd block master_request[s=0][m= 0] htrans=2
#                   25 3rd block grant 1
# ** Info: THE REQ IS 1 for the slave 0
#    Time: 25 ns  Scope: HdlTop.ahbinterconnect.genblk5[0].genblk1[0] File: ../../src/hdlTop/interconnect/AhbInterconnect.sv Line: 174
# ** Info: THE GRANT IS 1 for the slave 0 addr is 596 for master 0
#    Time: 25 ns  Scope: HdlTop.ahbinterconnect.genblk5[0].genblk1[0] File: ../../src/hdlTop/interconnect/AhbInterconnect.sv Line: 175
# ** Info: THE REQ IS x for the slave 1
#    Time: 25 ns  Scope: HdlTop.ahbinterconnect.genblk5[1].genblk1[0] File: ../../src/hdlTop/interconnect/AhbInterconnect.sv Line: 174
# ** Info: THE GRANT IS x for the slave 1 addr is 596 for master 0
#    Time: 25 ns  Scope: HdlTop.ahbinterconnect.genblk5[1].genblk1[0] File: ../../src/hdlTop/interconnect/AhbInterconnect.sv Line: 175
# [25] master_pipeline[0][master_wr_ptr[0]].haddr = 596
# slave number 0 address 596
# 25 check slave_hreadyout[0] = 1
# last grant s=0 m=0 g==1
#                   25else hready 1 master [0] can_accept=1 oldest_is_ready=1
# HEY I AM INSIDE BURST
# MONITOR                   25
# [25] addressTemp = 0, SlaveDriverCb.haddr = 596
# ENTERED THIS BLOCK @25
# ENTERED THIS BLOCK @25
# [25] slave_hwdata_stable[0] = d002bf38
#  1st hwdata = d002bf38
# [25] ahbSlaveInterface[0].haddr = 596
#  2nd hwdata = d002bf38
#  1st hwdata = x
# [25] ahbSlaveInterface[1].haddr = x
#  2nd hwdata = x
# [25] 3rd  slave_data_phase.[0].haddr = 596
# ** Info: THE REQ IS 1 for the slave 0
#    Time: 26 ns  Scope: HdlTop.ahbinterconnect.genblk5[0].genblk1[0] File: ../../src/hdlTop/interconnect/AhbInterconnect.sv Line: 174
# ** Info: THE GRANT IS 1 for the slave 0 addr is 600 for master 0
#    Time: 26 ns  Scope: HdlTop.ahbinterconnect.genblk5[0].genblk1[0] File: ../../src/hdlTop/interconnect/AhbInterconnect.sv Line: 175
# ** Info: THE REQ IS x for the slave 1
#    Time: 26 ns  Scope: HdlTop.ahbinterconnect.genblk5[1].genblk1[0] File: ../../src/hdlTop/interconnect/AhbInterconnect.sv Line: 174
# ** Info: THE GRANT IS x for the slave 1 addr is 600 for master 0
#    Time: 26 ns  Scope: HdlTop.ahbinterconnect.genblk5[1].genblk1[0] File: ../../src/hdlTop/interconnect/AhbInterconnect.sv Line: 175
# [26] master_pipeline[0][master_wr_ptr[0]].haddr = 596
# slave number 0 address 600
#                   26 3rd block can accept=1 slave=1
# slave_has_owner = x slave = 1 
#                   26 2nd else if block can_accept=1 htrans=3 slave_has_owner=1
#                   26 2nd blk grant 1 alsve=0
# slave number 0 address 600
# slave number 0 address 600
# ** Info: THE REQ IS 1 for the slave 0
#    Time: 26 ns  Scope: HdlTop.ahbinterconnect.genblk5[0].genblk1[0] File: ../../src/hdlTop/interconnect/AhbInterconnect.sv Line: 174
# ** Info: THE GRANT IS 1 for the slave 0 addr is 600 for master 0
#    Time: 26 ns  Scope: HdlTop.ahbinterconnect.genblk5[0].genblk1[0] File: ../../src/hdlTop/interconnect/AhbInterconnect.sv Line: 175
# ** Info: THE REQ IS x for the slave 1
#    Time: 26 ns  Scope: HdlTop.ahbinterconnect.genblk5[1].genblk1[0] File: ../../src/hdlTop/interconnect/AhbInterconnect.sv Line: 174
# ** Info: THE GRANT IS x for the slave 1 addr is 600 for master 0
#    Time: 26 ns  Scope: HdlTop.ahbinterconnect.genblk5[1].genblk1[0] File: ../../src/hdlTop/interconnect/AhbInterconnect.sv Line: 175
# [26] master_pipeline[0][master_wr_ptr[0]].haddr = 596
# slave number 0 address 600
# 26 check slave_hreadyout[0] = 1
# last grant s=0 m=0 g==1
#                   26else hready 1 master [0] can_accept=1 oldest_is_ready=1
#  1st hwdata = d002bf38
# [26] ahbSlaveInterface[0].haddr = 600
#  2nd hwdata = d002bf38
#  1st hwdata = x
# [26] ahbSlaveInterface[1].haddr = x
#  2nd hwdata = x
# [26] 2nd  slave_data_phase.[0].haddr = 600
#                   35 first master_grant[slaveloop=0][masterloop=0]=1
# [35] current_owner[0] = 0
# [35] new_c_owner[0] = 0
# ishika 35 haddr = 254
# UVM_INFO ../../src/hvlTop/slaveAgent/AhbSlaveMonitorProxy.sv(74) @ 35: uvm_test_top.swasthik.ahbSlaveAgent[0].ahbSlaveMonitorProxy [AhbSlaveMonitorProxy] Sending packet via analysis_port: , 
#  ------------------------------------------------------------------------
# Name                Type                 Size  Value                    
# ------------------------------------------------------------------------
# slave Packet        AhbSlaveTransaction  -     @1494                    
#   haddr             integral             32    'h254                    
#   hselx             integral             2     'b1                      
#   hburst            string               5     INCR4                    
#   hmastlock         integral             1     'h0                      
#   hprot             string               25    NORMAL_SECURE_INSTRUCTION
#   hsize             string               4     WORD                     
#   hnonsec           integral             1     'h0                      
#   hexcl             integral             1     'h0                      
#   hmaster           integral             1     'd0                      
#   htrans            string               6     NONSEQ                   
#   hwrite            string               5     WRITE                    
#   hreadyout         integral             1     'h1                      
#   hresp             string               0     ""                       
#   hexokay           integral             1     'h0                      
#   hready            integral             1     'h0                      
#   choosePacketData  integral             1     'd0                      
#   hwdata[0]         integral             32    'hd002bf38               
#   hwstrb[0]         integral             4     'b0                      
# ------------------------------------------------------------------------
# 
# UVM_INFO ../../src/hvlTop/slaveAgent/AhbSlaveCoverage.sv(39) @ 35: uvm_test_top.swasthik.ahbSlaveAgent[0].ahbSlaveCoverage [AhbSlaveCoverage] AHB SLAVE COVERAGE
# CONNVERTER NO OF WAIT STATES IS 0
# [35] from master monitor = haddr=600
# UVM_INFO ../../src/hvlTop/masterAgent/AhbMasterMonitorProxy.sv(72) @ 35: uvm_test_top.swasthik.ahbMasterAgent[0].ahbMasterMonitorProxy [AhbMasterMonitorProxy] Sending packet via analysis_port: , 
#  -------------------------------------------------------------------------------
# Name                      Type                  Size  Value                    
# -------------------------------------------------------------------------------
# ahbMasterPacket           AhbMasterTransaction  -     @1498                    
#   haddr                   integral              32    'h254                    
#   hselx                   integral              2     'b0                      
#   hburst                  string                5     INCR4                    
#   hmastlock               integral              1     'h0                      
#   hprot                   string                25    NORMAL_SECURE_INSTRUCTION
#   hsize                   string                4     WORD                     
#   hnonsec                 integral              1     'h1                      
#   hexcl                   integral              1     'h0                      
#   hmaster                 integral              1     'd0                      
#   htrans                  string                6     NONSEQ                   
#   hwrite                  string                5     WRITE                    
#   hreadyout               integral              1     'h1                      
#   hresp                   string                4     OKAY                     
#   hexokay                 integral              1     'h0                      
#   hready                  integral              1     'h0                      
#   noOfwaitStatesDetected  integral              32    'h0                      
#   hwdata[0]               integral              32    'hd002bf38               
#   hwstrb[0]               integral              4     'b1111                   
# -------------------------------------------------------------------------------
# 
# UVM_INFO ../../src/hvlTop/masterAgent/AhbMasterCoverage.sv(107) @ 35: uvm_test_top.swasthik.ahbMasterAgent[0].ahbMasterCoverage [AhbMasterCoverage] Before calling SAMPLE METHOD
# UVM_INFO ../../src/hvlTop/masterAgent/AhbMasterCoverage.sv(109) @ 35: uvm_test_top.swasthik.ahbMasterAgent[0].ahbMasterCoverage [AhbMasterCoverage] After calling SAMPLE METHOD
# run phase got s_tx
# ------------------------------------------------------------------------
# Name                Type                 Size  Value                    
# ------------------------------------------------------------------------
# slave Packet        AhbSlaveTransaction  -     @1494                    
#   haddr             integral             32    'h254                    
#   hselx             integral             2     'b1                      
#   hburst            string               5     INCR4                    
#   hmastlock         integral             1     'h0                      
#   hprot             string               25    NORMAL_SECURE_INSTRUCTION
#   hsize             string               4     WORD                     
#   hnonsec           integral             1     'h0                      
#   hexcl             integral             1     'h0                      
#   hmaster           integral             1     'd0                      
#   htrans            string               6     NONSEQ                   
#   hwrite            string               5     WRITE                    
#   hreadyout         integral             1     'h1                      
#   hresp             string               0     ""                       
#   hexokay           integral             1     'h0                      
#   hready            integral             1     'h0                      
#   choosePacketData  integral             1     'd0                      
#   hwdata[0]         integral             32    'hd002bf38               
#   hwstrb[0]         integral             4     'b0                      
# ------------------------------------------------------------------------
# ** Warning: (vsim-3829) ../../src/hvlTop/environment/AhbScoreboard.sv(375): Non-existent associative array entry. Returning default value.
# [35] run phase got m_tx haddr=596, mtx=1
# -------------------------------------------------------------------------------
# Name                      Type                  Size  Value                    
# -------------------------------------------------------------------------------
# ahbMasterPacket           AhbMasterTransaction  -     @1498                    
#   haddr                   integral              32    'h254                    
#   hselx                   integral              2     'b0                      
#   hburst                  string                5     INCR4                    
#   hmastlock               integral              1     'h0                      
#   hprot                   string                25    NORMAL_SECURE_INSTRUCTION
#   hsize                   string                4     WORD                     
#   hnonsec                 integral              1     'h1                      
#   hexcl                   integral              1     'h0                      
#   hmaster                 integral              1     'd0                      
#   htrans                  string                6     NONSEQ                   
#   hwrite                  string                5     WRITE                    
#   hreadyout               integral              1     'h1                      
#   hresp                   string                4     OKAY                     
#   hexokay                 integral              1     'h0                      
#   hready                  integral              1     'h0                      
#   noOfwaitStatesDetected  integral              32    'h0                      
#   hwdata[0]               integral              32    'hd002bf38               
#   hwstrb[0]               integral              4     'b1111                   
# -------------------------------------------------------------------------------
# [35] Master 0 requested Slave 0 addr=596, master_requested_q = '{0:'{0} }
# [35] QUEUE[0]='{0} , rr_pointer=0
# [35] Checking master 0
# [35] GRANT=0 , NEW rr_pointer=0 , UPDATED QUEUE='{}
# [35] MASTER: predicted grant=0 for slave 0 haddr = 596
# UVM_INFO ../../src/hvlTop/environment/AhbScoreboard.sv(188) @ 35: uvm_test_top.swasthik.ahbScoreboard [REF_MODEL_WRITE] SLAVE=0 ADDR=0x254 DATA=0x38 (beat=0 byte=0)
# data written in ref model='{3489840952} for addr=00000254
# UVM_INFO ../../src/hvlTop/environment/AhbScoreboard.sv(188) @ 35: uvm_test_top.swasthik.ahbScoreboard [REF_MODEL_WRITE] SLAVE=0 ADDR=0x255 DATA=0xbf (beat=0 byte=1)
# data written in ref model='{3489840952} for addr=00000254
# UVM_INFO ../../src/hvlTop/environment/AhbScoreboard.sv(188) @ 35: uvm_test_top.swasthik.ahbScoreboard [REF_MODEL_WRITE] SLAVE=0 ADDR=0x256 DATA=0x02 (beat=0 byte=2)
# data written in ref model='{3489840952} for addr=00000254
# UVM_INFO ../../src/hvlTop/environment/AhbScoreboard.sv(188) @ 35: uvm_test_top.swasthik.ahbScoreboard [REF_MODEL_WRITE] SLAVE=0 ADDR=0x257 DATA=0xd0 (beat=0 byte=3)
# data written in ref model='{3489840952} for addr=00000254
# expected_grant_q = '{0:'{} }
# [35] SLAVE: addr=596 exp_master=0 
# -------------------------------------------------------------------------------
# Name                      Type                  Size  Value                    
# -------------------------------------------------------------------------------
# ahbMasterPacket           AhbMasterTransaction  -     @1502                    
#   haddr                   integral              32    'h254                    
#   hselx                   integral              2     'b0                      
#   hburst                  string                5     INCR4                    
#   hmastlock               integral              1     'h0                      
#   hprot                   string                25    NORMAL_SECURE_INSTRUCTION
#   hsize                   string                4     WORD                     
#   hnonsec                 integral              1     'h1                      
#   hexcl                   integral              1     'h0                      
#   hmaster                 integral              1     'd0                      
#   htrans                  string                6     NONSEQ                   
#   hwrite                  string                5     WRITE                    
#   hreadyout               integral              1     'h1                      
#   hresp                   string                4     OKAY                     
#   hexokay                 integral              1     'h0                      
#   hready                  integral              1     'h0                      
#   noOfwaitStatesDetected  integral              32    'h0                      
#   hwdata[0]               integral              32    'hd002bf38               
#   hwstrb[0]               integral              4     'b1111                   
# -------------------------------------------------------------------------------
# NIHAL EXP
# ------------------------------------------------------------------------
# Name                Type                 Size  Value                    
# ------------------------------------------------------------------------
# slave Packet        AhbSlaveTransaction  -     @1494                    
#   haddr             integral             32    'h254                    
#   hselx             integral             2     'b1                      
#   hburst            string               5     INCR4                    
#   hmastlock         integral             1     'h0                      
#   hprot             string               25    NORMAL_SECURE_INSTRUCTION
#   hsize             string               4     WORD                     
#   hnonsec           integral             1     'h0                      
#   hexcl             integral             1     'h0                      
#   hmaster           integral             1     'd0                      
#   htrans            string               6     NONSEQ                   
#   hwrite            string               5     WRITE                    
#   hreadyout         integral             1     'h1                      
#   hresp             string               0     ""                       
#   hexokay           integral             1     'h0                      
#   hready            integral             1     'h0                      
#   choosePacketData  integral             1     'd0                      
#   hwdata[0]         integral             32    'hd002bf38               
#   hwstrb[0]         integral             4     'b0                      
# ------------------------------------------------------------------------
# NIHAL S_tx
# UVM_INFO ../../src/hvlTop/environment/AhbScoreboard.sv(525) @ 35: uvm_test_top.swasthik.ahbScoreboard [AhbScoreboard] ---------------- AHB SCOREBOARD [WRITE] ----------------
# UVM_INFO ../../src/hvlTop/environment/AhbScoreboard.sv(530) @ 35: uvm_test_top.swasthik.ahbScoreboard [SB_HADDR_MATCH] HADDR Match: 00000254
# UVM_INFO ../../src/hvlTop/environment/AhbScoreboard.sv(558) @ 35: uvm_test_top.swasthik.ahbScoreboard [SB_HWDATA_MATCH] HWDATA match at beat 0: d002bf38
# UVM_INFO ../../src/hvlTop/environment/AhbScoreboard.sv(608) @ 35: uvm_test_top.swasthik.ahbScoreboard [SB_HPROT_MATCH] HPROT Match
# UVM_INFO ../../src/hvlTop/environment/AhbScoreboard.sv(614) @ 35: uvm_test_top.swasthik.ahbScoreboard [SB_HSIZE_MATCH] HSIZE Match
# UVM_INFO ../../src/hvlTop/environment/AhbScoreboard.sv(620) @ 35: uvm_test_top.swasthik.ahbScoreboard [AhbScoreboard] -------------- END WRITE COMPARISON ----------------
# sending to compare
# exp_tx
# -------------------------------------------------------------------------------
# Name                      Type                  Size  Value                    
# -------------------------------------------------------------------------------
# ahbMasterPacket           AhbMasterTransaction  -     @1502                    
#   haddr                   integral              32    'h254                    
#   hselx                   integral              2     'b0                      
#   hburst                  string                5     INCR4                    
#   hmastlock               integral              1     'h0                      
#   hprot                   string                25    NORMAL_SECURE_INSTRUCTION
#   hsize                   string                4     WORD                     
#   hnonsec                 integral              1     'h1                      
#   hexcl                   integral              1     'h0                      
#   hmaster                 integral              1     'd0                      
#   htrans                  string                6     NONSEQ                   
#   hwrite                  string                5     WRITE                    
#   hreadyout               integral              1     'h1                      
#   hresp                   string                4     OKAY                     
#   hexokay                 integral              1     'h0                      
#   hready                  integral              1     'h0                      
#   noOfwaitStatesDetected  integral              32    'h0                      
#   hwdata[0]               integral              32    'hd002bf38               
#   hwstrb[0]               integral              4     'b1111                   
# -------------------------------------------------------------------------------
# s_tx
# ------------------------------------------------------------------------
# Name                Type                 Size  Value                    
# ------------------------------------------------------------------------
# slave Packet        AhbSlaveTransaction  -     @1494                    
#   haddr             integral             32    'h254                    
#   hselx             integral             2     'b1                      
#   hburst            string               5     INCR4                    
#   hmastlock         integral             1     'h0                      
#   hprot             string               25    NORMAL_SECURE_INSTRUCTION
#   hsize             string               4     WORD                     
#   hnonsec           integral             1     'h0                      
#   hexcl             integral             1     'h0                      
#   hmaster           integral             1     'd0                      
#   htrans            string               6     NONSEQ                   
#   hwrite            string               5     WRITE                    
#   hreadyout         integral             1     'h1                      
#   hresp             string               0     ""                       
#   hexokay           integral             1     'h0                      
#   hready            integral             1     'h0                      
#   choosePacketData  integral             1     'd0                      
#   hwdata[0]         integral             32    'hd002bf38               
#   hwstrb[0]         integral             4     'b0                      
# ------------------------------------------------------------------------
# HEY I AM INSIDE BURST
# MONITOR                   35
# [35] addressTemp = 596, SlaveDriverCb.haddr = 600
# 35 THE DATA TO BE WRITTEN IS d002bf38 at address = 600 
# 35 ||normal reg[0]:38 596
# 35 ||normal reg[1]:bf 596
# 35 ||normal reg[2]:2 596
# 35 ||normal reg[3]:d0 596
# ENTERED THIS BLOCK @35
# ENTERED THIS BLOCK @35
# [35] slave_hwdata_stable[0] = 5496f6ad
#  1st hwdata = 5496f6ad
# [35] ahbSlaveInterface[0].haddr = 600
#  2nd hwdata = 5496f6ad
#  1st hwdata = x
# [35] ahbSlaveInterface[1].haddr = x
#  2nd hwdata = x
# ** Info: THE REQ IS 1 for the slave 0
#    Time: 36 ns  Scope: HdlTop.ahbinterconnect.genblk5[0].genblk1[0] File: ../../src/hdlTop/interconnect/AhbInterconnect.sv Line: 174
# ** Info: THE GRANT IS 1 for the slave 0 addr is 604 for master 0
#    Time: 36 ns  Scope: HdlTop.ahbinterconnect.genblk5[0].genblk1[0] File: ../../src/hdlTop/interconnect/AhbInterconnect.sv Line: 175
# ** Info: THE REQ IS x for the slave 1
#    Time: 36 ns  Scope: HdlTop.ahbinterconnect.genblk5[1].genblk1[0] File: ../../src/hdlTop/interconnect/AhbInterconnect.sv Line: 174
# ** Info: THE GRANT IS x for the slave 1 addr is 604 for master 0
#    Time: 36 ns  Scope: HdlTop.ahbinterconnect.genblk5[1].genblk1[0] File: ../../src/hdlTop/interconnect/AhbInterconnect.sv Line: 175
# [36] master_pipeline[0][master_wr_ptr[0]].haddr = 596
# slave number 0 address 604
#                   36 3rd block can accept=1 slave=1
# slave_has_owner = x slave = 1 
#                   36 2nd else if block can_accept=1 htrans=3 slave_has_owner=1
#                   36 2nd blk grant 1 alsve=0
# slave number 0 address 604
# slave number 0 address 604
# ** Info: THE REQ IS 1 for the slave 0
#    Time: 36 ns  Scope: HdlTop.ahbinterconnect.genblk5[0].genblk1[0] File: ../../src/hdlTop/interconnect/AhbInterconnect.sv Line: 174
# ** Info: THE GRANT IS 1 for the slave 0 addr is 604 for master 0
#    Time: 36 ns  Scope: HdlTop.ahbinterconnect.genblk5[0].genblk1[0] File: ../../src/hdlTop/interconnect/AhbInterconnect.sv Line: 175
# ** Info: THE REQ IS x for the slave 1
#    Time: 36 ns  Scope: HdlTop.ahbinterconnect.genblk5[1].genblk1[0] File: ../../src/hdlTop/interconnect/AhbInterconnect.sv Line: 174
# ** Info: THE GRANT IS x for the slave 1 addr is 604 for master 0
#    Time: 36 ns  Scope: HdlTop.ahbinterconnect.genblk5[1].genblk1[0] File: ../../src/hdlTop/interconnect/AhbInterconnect.sv Line: 175
# [36] master_pipeline[0][master_wr_ptr[0]].haddr = 596
# slave number 0 address 604
# 36 check slave_hreadyout[0] = 1
# last grant s=0 m=0 g==1
#                   36else hready 1 master [0] can_accept=1 oldest_is_ready=1
#  1st hwdata = 5496f6ad
# [36] ahbSlaveInterface[0].haddr = 604
#  2nd hwdata = 5496f6ad
#  1st hwdata = x
# [36] ahbSlaveInterface[1].haddr = x
#  2nd hwdata = x
# [36] 2nd  slave_data_phase.[0].haddr = 604
#                   45 first master_grant[slaveloop=0][masterloop=0]=1
# [45] current_owner[0] = 0
# [45] new_c_owner[0] = 0
# ishika 45 haddr = 258
# UVM_INFO ../../src/hvlTop/slaveAgent/AhbSlaveMonitorProxy.sv(74) @ 45: uvm_test_top.swasthik.ahbSlaveAgent[0].ahbSlaveMonitorProxy [AhbSlaveMonitorProxy] Sending packet via analysis_port: , 
#  ------------------------------------------------------------------------
# Name                Type                 Size  Value                    
# ------------------------------------------------------------------------
# slave Packet        AhbSlaveTransaction  -     @1506                    
#   haddr             integral             32    'h258                    
#   hselx             integral             2     'b1                      
#   hburst            string               5     INCR4                    
#   hmastlock         integral             1     'h0                      
#   hprot             string               25    NORMAL_SECURE_INSTRUCTION
#   hsize             string               4     WORD                     
#   hnonsec           integral             1     'h0                      
#   hexcl             integral             1     'h0                      
#   hmaster           integral             1     'd0                      
#   htrans            string               3     SEQ                      
#   hwrite            string               5     WRITE                    
#   hreadyout         integral             1     'h1                      
#   hresp             string               0     ""                       
#   hexokay           integral             1     'h0                      
#   hready            integral             1     'h0                      
#   choosePacketData  integral             1     'd0                      
#   hwdata[0]         integral             32    'h5496f6ad               
#   hwstrb[0]         integral             4     'b0                      
# ------------------------------------------------------------------------
# 
# UVM_INFO ../../src/hvlTop/slaveAgent/AhbSlaveCoverage.sv(39) @ 45: uvm_test_top.swasthik.ahbSlaveAgent[0].ahbSlaveCoverage [AhbSlaveCoverage] AHB SLAVE COVERAGE
# CONNVERTER NO OF WAIT STATES IS 0
# [45] from master monitor = haddr=604
# UVM_INFO ../../src/hvlTop/masterAgent/AhbMasterMonitorProxy.sv(72) @ 45: uvm_test_top.swasthik.ahbMasterAgent[0].ahbMasterMonitorProxy [AhbMasterMonitorProxy] Sending packet via analysis_port: , 
#  -------------------------------------------------------------------------------
# Name                      Type                  Size  Value                    
# -------------------------------------------------------------------------------
# ahbMasterPacket           AhbMasterTransaction  -     @1510                    
#   haddr                   integral              32    'h258                    
#   hselx                   integral              2     'b0                      
#   hburst                  string                5     INCR4                    
#   hmastlock               integral              1     'h0                      
#   hprot                   string                25    NORMAL_SECURE_INSTRUCTION
#   hsize                   string                4     WORD                     
#   hnonsec                 integral              1     'h1                      
#   hexcl                   integral              1     'h0                      
#   hmaster                 integral              1     'd0                      
#   htrans                  string                3     SEQ                      
#   hwrite                  string                5     WRITE                    
#   hreadyout               integral              1     'h1                      
#   hresp                   string                4     OKAY                     
#   hexokay                 integral              1     'h0                      
#   hready                  integral              1     'h0                      
#   noOfwaitStatesDetected  integral              32    'h0                      
#   hwdata[0]               integral              32    'h5496f6ad               
#   hwstrb[0]               integral              4     'b1111                   
# -------------------------------------------------------------------------------
# 
# UVM_INFO ../../src/hvlTop/masterAgent/AhbMasterCoverage.sv(107) @ 45: uvm_test_top.swasthik.ahbMasterAgent[0].ahbMasterCoverage [AhbMasterCoverage] Before calling SAMPLE METHOD
# UVM_INFO ../../src/hvlTop/masterAgent/AhbMasterCoverage.sv(109) @ 45: uvm_test_top.swasthik.ahbMasterAgent[0].ahbMasterCoverage [AhbMasterCoverage] After calling SAMPLE METHOD
# run phase got s_tx
# ------------------------------------------------------------------------
# Name                Type                 Size  Value                    
# ------------------------------------------------------------------------
# slave Packet        AhbSlaveTransaction  -     @1506                    
#   haddr             integral             32    'h258                    
#   hselx             integral             2     'b1                      
#   hburst            string               5     INCR4                    
#   hmastlock         integral             1     'h0                      
#   hprot             string               25    NORMAL_SECURE_INSTRUCTION
#   hsize             string               4     WORD                     
#   hnonsec           integral             1     'h0                      
#   hexcl             integral             1     'h0                      
#   hmaster           integral             1     'd0                      
#   htrans            string               3     SEQ                      
#   hwrite            string               5     WRITE                    
#   hreadyout         integral             1     'h1                      
#   hresp             string               0     ""                       
#   hexokay           integral             1     'h0                      
#   hready            integral             1     'h0                      
#   choosePacketData  integral             1     'd0                      
#   hwdata[0]         integral             32    'h5496f6ad               
#   hwstrb[0]         integral             4     'b0                      
# ------------------------------------------------------------------------
# [45] run phase got m_tx haddr=600, mtx=1
# -------------------------------------------------------------------------------
# Name                      Type                  Size  Value                    
# -------------------------------------------------------------------------------
# ahbMasterPacket           AhbMasterTransaction  -     @1510                    
#   haddr                   integral              32    'h258                    
#   hselx                   integral              2     'b0                      
#   hburst                  string                5     INCR4                    
#   hmastlock               integral              1     'h0                      
#   hprot                   string                25    NORMAL_SECURE_INSTRUCTION
#   hsize                   string                4     WORD                     
#   hnonsec                 integral              1     'h1                      
#   hexcl                   integral              1     'h0                      
#   hmaster                 integral              1     'd0                      
#   htrans                  string                3     SEQ                      
#   hwrite                  string                5     WRITE                    
#   hreadyout               integral              1     'h1                      
#   hresp                   string                4     OKAY                     
#   hexokay                 integral              1     'h0                      
#   hready                  integral              1     'h0                      
#   noOfwaitStatesDetected  integral              32    'h0                      
#   hwdata[0]               integral              32    'h5496f6ad               
#   hwstrb[0]               integral              4     'b1111                   
# -------------------------------------------------------------------------------
# [45] Master 0 requested Slave 0 addr=600, master_requested_q = '{0:'{0} }
# [45] QUEUE[0]='{0} , rr_pointer=0
# [45] Checking master 0
# [45] GRANT=0 , NEW rr_pointer=0 , UPDATED QUEUE='{}
# [45] MASTER: predicted grant=0 for slave 0 haddr = 600
# UVM_INFO ../../src/hvlTop/environment/AhbScoreboard.sv(188) @ 45: uvm_test_top.swasthik.ahbScoreboard [REF_MODEL_WRITE] SLAVE=0 ADDR=0x258 DATA=0xad (beat=0 byte=0)
# data written in ref model='{1419179693} for addr=00000258
# UVM_INFO ../../src/hvlTop/environment/AhbScoreboard.sv(188) @ 45: uvm_test_top.swasthik.ahbScoreboard [REF_MODEL_WRITE] SLAVE=0 ADDR=0x259 DATA=0xf6 (beat=0 byte=1)
# data written in ref model='{1419179693} for addr=00000258
# UVM_INFO ../../src/hvlTop/environment/AhbScoreboard.sv(188) @ 45: uvm_test_top.swasthik.ahbScoreboard [REF_MODEL_WRITE] SLAVE=0 ADDR=0x25a DATA=0x96 (beat=0 byte=2)
# data written in ref model='{1419179693} for addr=00000258
# UVM_INFO ../../src/hvlTop/environment/AhbScoreboard.sv(188) @ 45: uvm_test_top.swasthik.ahbScoreboard [REF_MODEL_WRITE] SLAVE=0 ADDR=0x25b DATA=0x54 (beat=0 byte=3)
# data written in ref model='{1419179693} for addr=00000258
# expected_grant_q = '{0:'{} }
# [45] SLAVE: addr=600 exp_master=0 
# -------------------------------------------------------------------------------
# Name                      Type                  Size  Value                    
# -------------------------------------------------------------------------------
# ahbMasterPacket           AhbMasterTransaction  -     @1514                    
#   haddr                   integral              32    'h258                    
#   hselx                   integral              2     'b0                      
#   hburst                  string                5     INCR4                    
#   hmastlock               integral              1     'h0                      
#   hprot                   string                25    NORMAL_SECURE_INSTRUCTION
#   hsize                   string                4     WORD                     
#   hnonsec                 integral              1     'h1                      
#   hexcl                   integral              1     'h0                      
#   hmaster                 integral              1     'd0                      
#   htrans                  string                3     SEQ                      
#   hwrite                  string                5     WRITE                    
#   hreadyout               integral              1     'h1                      
#   hresp                   string                4     OKAY                     
#   hexokay                 integral              1     'h0                      
#   hready                  integral              1     'h0                      
#   noOfwaitStatesDetected  integral              32    'h0                      
#   hwdata[0]               integral              32    'h5496f6ad               
#   hwstrb[0]               integral              4     'b1111                   
# -------------------------------------------------------------------------------
# NIHAL EXP
# ------------------------------------------------------------------------
# Name                Type                 Size  Value                    
# ------------------------------------------------------------------------
# slave Packet        AhbSlaveTransaction  -     @1506                    
#   haddr             integral             32    'h258                    
#   hselx             integral             2     'b1                      
#   hburst            string               5     INCR4                    
#   hmastlock         integral             1     'h0                      
#   hprot             string               25    NORMAL_SECURE_INSTRUCTION
#   hsize             string               4     WORD                     
#   hnonsec           integral             1     'h0                      
#   hexcl             integral             1     'h0                      
#   hmaster           integral             1     'd0                      
#   htrans            string               3     SEQ                      
#   hwrite            string               5     WRITE                    
#   hreadyout         integral             1     'h1                      
#   hresp             string               0     ""                       
#   hexokay           integral             1     'h0                      
#   hready            integral             1     'h0                      
#   choosePacketData  integral             1     'd0                      
#   hwdata[0]         integral             32    'h5496f6ad               
#   hwstrb[0]         integral             4     'b0                      
# ------------------------------------------------------------------------
# NIHAL S_tx
# UVM_INFO ../../src/hvlTop/environment/AhbScoreboard.sv(525) @ 45: uvm_test_top.swasthik.ahbScoreboard [AhbScoreboard] ---------------- AHB SCOREBOARD [WRITE] ----------------
# UVM_INFO ../../src/hvlTop/environment/AhbScoreboard.sv(530) @ 45: uvm_test_top.swasthik.ahbScoreboard [SB_HADDR_MATCH] HADDR Match: 00000258
# UVM_INFO ../../src/hvlTop/environment/AhbScoreboard.sv(558) @ 45: uvm_test_top.swasthik.ahbScoreboard [SB_HWDATA_MATCH] HWDATA match at beat 0: 5496f6ad
# UVM_INFO ../../src/hvlTop/environment/AhbScoreboard.sv(608) @ 45: uvm_test_top.swasthik.ahbScoreboard [SB_HPROT_MATCH] HPROT Match
# UVM_INFO ../../src/hvlTop/environment/AhbScoreboard.sv(614) @ 45: uvm_test_top.swasthik.ahbScoreboard [SB_HSIZE_MATCH] HSIZE Match
# UVM_INFO ../../src/hvlTop/environment/AhbScoreboard.sv(620) @ 45: uvm_test_top.swasthik.ahbScoreboard [AhbScoreboard] -------------- END WRITE COMPARISON ----------------
# sending to compare
# exp_tx
# -------------------------------------------------------------------------------
# Name                      Type                  Size  Value                    
# -------------------------------------------------------------------------------
# ahbMasterPacket           AhbMasterTransaction  -     @1514                    
#   haddr                   integral              32    'h258                    
#   hselx                   integral              2     'b0                      
#   hburst                  string                5     INCR4                    
#   hmastlock               integral              1     'h0                      
#   hprot                   string                25    NORMAL_SECURE_INSTRUCTION
#   hsize                   string                4     WORD                     
#   hnonsec                 integral              1     'h1                      
#   hexcl                   integral              1     'h0                      
#   hmaster                 integral              1     'd0                      
#   htrans                  string                3     SEQ                      
#   hwrite                  string                5     WRITE                    
#   hreadyout               integral              1     'h1                      
#   hresp                   string                4     OKAY                     
#   hexokay                 integral              1     'h0                      
#   hready                  integral              1     'h0                      
#   noOfwaitStatesDetected  integral              32    'h0                      
#   hwdata[0]               integral              32    'h5496f6ad               
#   hwstrb[0]               integral              4     'b1111                   
# -------------------------------------------------------------------------------
# s_tx
# ------------------------------------------------------------------------
# Name                Type                 Size  Value                    
# ------------------------------------------------------------------------
# slave Packet        AhbSlaveTransaction  -     @1506                    
#   haddr             integral             32    'h258                    
#   hselx             integral             2     'b1                      
#   hburst            string               5     INCR4                    
#   hmastlock         integral             1     'h0                      
#   hprot             string               25    NORMAL_SECURE_INSTRUCTION
#   hsize             string               4     WORD                     
#   hnonsec           integral             1     'h0                      
#   hexcl             integral             1     'h0                      
#   hmaster           integral             1     'd0                      
#   htrans            string               3     SEQ                      
#   hwrite            string               5     WRITE                    
#   hreadyout         integral             1     'h1                      
#   hresp             string               0     ""                       
#   hexokay           integral             1     'h0                      
#   hready            integral             1     'h0                      
#   choosePacketData  integral             1     'd0                      
#   hwdata[0]         integral             32    'h5496f6ad               
#   hwstrb[0]         integral             4     'b0                      
# ------------------------------------------------------------------------
# HEY I AM INSIDE BURST
# MONITOR                   45
# [45] addressTemp = 600, SlaveDriverCb.haddr = 604
# 45 THE DATA TO BE WRITTEN IS 5496f6ad at address = 604 
# 45 ||normal reg[0]:ad 600
# 45 ||normal reg[1]:f6 600
# 45 ||normal reg[2]:96 600
# 45 ||normal reg[3]:54 600
# ENTERED THIS BLOCK @45
# ENTERED THIS BLOCK @45
# [45] slave_hwdata_stable[0] = 3eca6423
#  1st hwdata = 3eca6423
# [45] ahbSlaveInterface[0].haddr = 604
#  2nd hwdata = 3eca6423
#  1st hwdata = x
# [45] ahbSlaveInterface[1].haddr = x
#  2nd hwdata = x
# ** Info: THE REQ IS 1 for the slave 0
#    Time: 46 ns  Scope: HdlTop.ahbinterconnect.genblk5[0].genblk1[0] File: ../../src/hdlTop/interconnect/AhbInterconnect.sv Line: 174
# ** Info: THE GRANT IS 1 for the slave 0 addr is 608 for master 0
#    Time: 46 ns  Scope: HdlTop.ahbinterconnect.genblk5[0].genblk1[0] File: ../../src/hdlTop/interconnect/AhbInterconnect.sv Line: 175
# ** Info: THE REQ IS x for the slave 1
#    Time: 46 ns  Scope: HdlTop.ahbinterconnect.genblk5[1].genblk1[0] File: ../../src/hdlTop/interconnect/AhbInterconnect.sv Line: 174
# ** Info: THE GRANT IS x for the slave 1 addr is 608 for master 0
#    Time: 46 ns  Scope: HdlTop.ahbinterconnect.genblk5[1].genblk1[0] File: ../../src/hdlTop/interconnect/AhbInterconnect.sv Line: 175
# [46] master_pipeline[0][master_wr_ptr[0]].haddr = 600
# slave number 0 address 608
#                   46 3rd block can accept=1 slave=1
# slave_has_owner = x slave = 1 
#                   46 2nd else if block can_accept=1 htrans=3 slave_has_owner=1
#                   46 2nd blk grant 1 alsve=0
# slave number 0 address 608
# slave number 0 address 608
# ** Info: THE REQ IS 1 for the slave 0
#    Time: 46 ns  Scope: HdlTop.ahbinterconnect.genblk5[0].genblk1[0] File: ../../src/hdlTop/interconnect/AhbInterconnect.sv Line: 174
# ** Info: THE GRANT IS 1 for the slave 0 addr is 608 for master 0
#    Time: 46 ns  Scope: HdlTop.ahbinterconnect.genblk5[0].genblk1[0] File: ../../src/hdlTop/interconnect/AhbInterconnect.sv Line: 175
# ** Info: THE REQ IS x for the slave 1
#    Time: 46 ns  Scope: HdlTop.ahbinterconnect.genblk5[1].genblk1[0] File: ../../src/hdlTop/interconnect/AhbInterconnect.sv Line: 174
# ** Info: THE GRANT IS x for the slave 1 addr is 608 for master 0
#    Time: 46 ns  Scope: HdlTop.ahbinterconnect.genblk5[1].genblk1[0] File: ../../src/hdlTop/interconnect/AhbInterconnect.sv Line: 175
# [46] master_pipeline[0][master_wr_ptr[0]].haddr = 600
# slave number 0 address 608
# 46 check slave_hreadyout[0] = 1
# last grant s=0 m=0 g==1
#                   46else hready 1 master [0] can_accept=1 oldest_is_ready=1
#  1st hwdata = 3eca6423
# [46] ahbSlaveInterface[0].haddr = 608
#  2nd hwdata = 3eca6423
#  1st hwdata = x
# [46] ahbSlaveInterface[1].haddr = x
#  2nd hwdata = x
# [46] 2nd  slave_data_phase.[0].haddr = 608
#                   55 first master_grant[slaveloop=0][masterloop=0]=1
# [55] current_owner[0] = 0
# [55] new_c_owner[0] = 0
# ishika 55 haddr = 25c
# UVM_INFO ../../src/hvlTop/slaveAgent/AhbSlaveMonitorProxy.sv(74) @ 55: uvm_test_top.swasthik.ahbSlaveAgent[0].ahbSlaveMonitorProxy [AhbSlaveMonitorProxy] Sending packet via analysis_port: , 
#  ------------------------------------------------------------------------
# Name                Type                 Size  Value                    
# ------------------------------------------------------------------------
# slave Packet        AhbSlaveTransaction  -     @1518                    
#   haddr             integral             32    'h25c                    
#   hselx             integral             2     'b1                      
#   hburst            string               5     INCR4                    
#   hmastlock         integral             1     'h0                      
#   hprot             string               25    NORMAL_SECURE_INSTRUCTION
#   hsize             string               4     WORD                     
#   hnonsec           integral             1     'h0                      
#   hexcl             integral             1     'h0                      
#   hmaster           integral             1     'd0                      
#   htrans            string               3     SEQ                      
#   hwrite            string               5     WRITE                    
#   hreadyout         integral             1     'h1                      
#   hresp             string               0     ""                       
#   hexokay           integral             1     'h0                      
#   hready            integral             1     'h0                      
#   choosePacketData  integral             1     'd0                      
#   hwdata[0]         integral             32    'h3eca6423               
#   hwstrb[0]         integral             4     'b0                      
# ------------------------------------------------------------------------
# 
# UVM_INFO ../../src/hvlTop/slaveAgent/AhbSlaveCoverage.sv(39) @ 55: uvm_test_top.swasthik.ahbSlaveAgent[0].ahbSlaveCoverage [AhbSlaveCoverage] AHB SLAVE COVERAGE
# CONNVERTER NO OF WAIT STATES IS 0
# [55] from master monitor = haddr=608
# UVM_INFO ../../src/hvlTop/masterAgent/AhbMasterMonitorProxy.sv(72) @ 55: uvm_test_top.swasthik.ahbMasterAgent[0].ahbMasterMonitorProxy [AhbMasterMonitorProxy] Sending packet via analysis_port: , 
#  -------------------------------------------------------------------------------
# Name                      Type                  Size  Value                    
# -------------------------------------------------------------------------------
# ahbMasterPacket           AhbMasterTransaction  -     @1522                    
#   haddr                   integral              32    'h25c                    
#   hselx                   integral              2     'b0                      
#   hburst                  string                5     INCR4                    
#   hmastlock               integral              1     'h0                      
#   hprot                   string                25    NORMAL_SECURE_INSTRUCTION
#   hsize                   string                4     WORD                     
#   hnonsec                 integral              1     'h1                      
#   hexcl                   integral              1     'h0                      
#   hmaster                 integral              1     'd0                      
#   htrans                  string                3     SEQ                      
#   hwrite                  string                5     WRITE                    
#   hreadyout               integral              1     'h1                      
#   hresp                   string                4     OKAY                     
#   hexokay                 integral              1     'h0                      
#   hready                  integral              1     'h0                      
#   noOfwaitStatesDetected  integral              32    'h0                      
#   hwdata[0]               integral              32    'h3eca6423               
#   hwstrb[0]               integral              4     'b1111                   
# -------------------------------------------------------------------------------
# 
# UVM_INFO ../../src/hvlTop/masterAgent/AhbMasterCoverage.sv(107) @ 55: uvm_test_top.swasthik.ahbMasterAgent[0].ahbMasterCoverage [AhbMasterCoverage] Before calling SAMPLE METHOD
# UVM_INFO ../../src/hvlTop/masterAgent/AhbMasterCoverage.sv(109) @ 55: uvm_test_top.swasthik.ahbMasterAgent[0].ahbMasterCoverage [AhbMasterCoverage] After calling SAMPLE METHOD
# run phase got s_tx
# ------------------------------------------------------------------------
# Name                Type                 Size  Value                    
# ------------------------------------------------------------------------
