# vsim -vopt work.HvlTop work.HdlTop -voptargs="+acc=npr" -sv_seed random -assertdebug "+UVM_TESTNAME=AhbLength16WriteFollowedByReadTest" "+UVM_VERBOSITY=UVM_HIGH" "+define+" -l AhbLength16WriteFollowedByReadTest/AhbLength16WriteFollowedByReadTest.log -sva -coverage -c -do "log -r /*; add wave -r /*; coverage save -onexit -assert -directive -cvg -codeAll AhbLength16WriteFollowedByReadTest/AhbLength16WriteFollowedByReadTest_coverage.ucdb; run -all; exit" -wlf AhbLength16WriteFollowedByReadTest/waveform.wlf 
# Start time: 12:15:03 on Apr 23,2026
# ** Note: (vsim-3812) Design is being optimized...
# ** Warning: ../../src/hdlTop/interconnect/AhbInterconnect.sv(231): (vopt-2182) 'slave_data_phase[0][0]' might be read before written in always_comb or always @* block.
# ** Warning: ../../src/hdlTop/interconnect/AhbInterconnect.sv(231): (vopt-2182) 'slave_data_phase[1][0]' might be read before written in always_comb or always @* block.
# ** Warning: ../../src/hdlTop/masterAgentBFM/AhbMasterAgentBFM.sv(41): (vopt-2685) [TFMPC] - Too few port connections for 'ahbMasterMonitorBFM'.  Expected 20, found 19.
# ** Warning: ../../src/hdlTop/masterAgentBFM/AhbMasterAgentBFM.sv(41): (vopt-2718) [TFMPC] - Missing connection for port 'hselx'.
# ** Warning: ../../src/hvlTop/environment/AhbScoreboard.sv(383): (vopt-2897) Using non-standard foreach loop variable list syntax.
# ** Warning: ../../src/hvlTop/environment/AhbScoreboard.sv(383): (vopt-2897) Using non-standard foreach loop variable list syntax.
# ** Warning: ../../src/hvlTop/tb/test/AhbBaseTest.sv(68): (vopt-2240) Treating stand-alone use of function 'randomize' as an implicit VOID cast.
# ** Warning: ../../src/hvlTop/tb/test/AhbBaseTest.sv(69): (vopt-2240) Treating stand-alone use of function 'randomize' as an implicit VOID cast.
# //  Questa Sim
# //  Version 10.6c linux Jul 25 2017
# //
# //  Copyright 1991-2017 Mentor Graphics Corporation
# //  All Rights Reserved.
# //
# //  QuestaSim and its associated documentation contain trade
# //  secrets and commercial or financial information that are the property of
# //  Mentor Graphics Corporation and are privileged, confidential,
# //  and exempt from disclosure under the Freedom of Information Act,
# //  5 U.S.C. Section 552. Furthermore, this information
# //  is prohibited from disclosure under the Trade Secrets Act,
# //  18 U.S.C. Section 1905.
# //
# Loading sv_std.std
# Loading work.AhbMasterDriverBFM(fast)
# Loading work.AhbSlaveMonitorBFM(fast)
# Loading work.AhbGlobalPackage(fast)
# Loading mtiUvm.uvm_pkg
# Loading work.AhbSlavePackage(fast)
# Loading work.AhbMasterPackage(fast)
# Loading work.AhbEnvironmentPackage(fast)
# Loading work.AhbSlaveSequencePackage(fast)
# Loading work.AhbMasterSequencePackage(fast)
# Loading work.AhbVirtualSequencePackage(fast)
# Loading work.AhbTestPackage(fast)
# Loading work.AhbMasterMonitorBFM(fast)
# Loading work.AhbSlaveDriverBFM(fast)
# Loading work.HvlTop(fast)
# Loading work.HdlTop(fast)
# Loading work.AhbInterconnect_sv_unit(fast)
# Loading work.AhbInterconnect(fast)
# Loading work.AhbMasterAgentBFM(fast)
# Loading work.AhbMasterDriverBFM_sv_unit(fast)
# Loading work.AhbMasterDriverBFM(fast)
# Loading work.AhbMasterMonitorBFM_sv_unit(fast)
# Loading work.AhbMasterMonitorBFM(fast)
# Loading work.AhbSlaveAgentBFM(fast)
# Loading work.AhbSlaveDriverBFM_sv_unit(fast)
# Loading work.AhbSlaveDriverBFM(fast)
# Loading work.AhbSlaveMonitorBFM_sv_unit(fast)
# Loading work.AhbSlaveMonitorBFM(fast)
# Loading work.AhbSlaveAgentBFM(fast__1)
# Loading mtiUvm.questa_uvm_pkg(fast)
# Loading work.AhbInterface_sv_unit(fast)
# Loading work.AhbInterface(fast__1)
# Loading work.AhbInterface(fast__2)
# ** Warning: (vsim-3015) ../../src/hdlTop/slaveAgentBFM/AhbSlaveAgentBFM.sv(40): [PCDPC] - Port size (2) does not match connection size (1) for port 'hselx'. The port definition is at: ../../src/hdlTop/slaveAgentBFM/AhbSlaveMonitorBFM.sv(25).
#    Time: 0 ns  Iteration: 0  Instance: /HdlTop/genblk2[0]/ahbSlaveAgentBFM/ahbSlaveMonitorBFM File: ../../src/hdlTop/slaveAgentBFM/AhbSlaveMonitorBFM.sv
# ** Warning: (vsim-3015) ../../src/hdlTop/slaveAgentBFM/AhbSlaveAgentBFM.sv(40): [PCDPC] - Port size (2) does not match connection size (1) for port 'hselx'. The port definition is at: ../../src/hdlTop/slaveAgentBFM/AhbSlaveMonitorBFM.sv(25).
#    Time: 0 ns  Iteration: 0  Instance: /HdlTop/genblk2[1]/ahbSlaveAgentBFM/ahbSlaveMonitorBFM File: ../../src/hdlTop/slaveAgentBFM/AhbSlaveMonitorBFM.sv
# Loading /tools/mentor/questasim_10.6c/questasim/uvm-1.1d/linux/uvm_dpi.so
# ** Warning: (vsim-PLI-3003) ../../src/hvlTop/environment/AhbScoreboard.sv(345): [TOFD] - System task or function '$sformatd' is not defined.
#    Time: 0 ns  Iteration: 0  Region: /AhbEnvironmentPackage::AhbScoreboard::run_phase/#anonblk#49292597#300#2#/#ublk#49292597#300/#ublk#49292597#303 File: ../../src/hvlTop/environment/AhbEnvironmentPackage.sv
# Sv_Seed = 2989912589
# log -r /*
#  add wave -r /*
#  coverage save -onexit -assert -directive -cvg -codeAll AhbLength16WriteFollowedByReadTest/AhbLength16WriteFollowedByReadTest_coverage.ucdb
#  run -all
# ----------------------------------------------------------------
# UVM-1.1d
# (C) 2007-2013 Mentor Graphics Corporation
# (C) 2007-2013 Cadence Design Systems, Inc.
# (C) 2006-2013 Synopsys, Inc.
# (C) 2011-2013 Cypress Semiconductor Corp.
# ----------------------------------------------------------------
# 
#   ***********       IMPORTANT RELEASE NOTES         ************
# 
#   You are using a version of the UVM library that has been compiled
#   with `UVM_NO_DEPRECATED undefined.
#   See http://www.eda.org/svdb/view.php?id=3313 for more details.
# 
#   You are using a version of the UVM library that has been compiled
#   with `UVM_OBJECT_MUST_HAVE_CONSTRUCTOR undefined.
#   See http://www.eda.org/svdb/view.php?id=3770 for more details.
# 
#       (Specify +UVM_NO_RELNOTES to turn off this notice)
# 
# UVM_INFO verilog_src/questa_uvm_pkg-1.2/src/questa_uvm_pkg.sv(215) @ 0: reporter [Questa UVM] QUESTA_UVM-1.2.3
# UVM_INFO verilog_src/questa_uvm_pkg-1.2/src/questa_uvm_pkg.sv(217) @ 0: reporter [Questa UVM]  questa_uvm::init(+struct)
# UVM_INFO @ 0: reporter [RNTST] Running test AhbLength16WriteFollowedByReadTest...
# UVM_INFO ../../src/hdlTop/HdlTop.sv(13) @ 0: reporter [HDL_TOP] HDL_TOP
# UVM_INFO ../../src/hdlTop/masterAgentBFM/AhbMasterAgentBFM.sv(15) @ 0: reporter [ahb master agent bfm] AHB MASTER AGENT BFM id is 0
# THE MASTER AGENT ARE  CREATED AS EXPECTED HdlTop.genblk1[0].ahbMasterAgentBFM.ahbMasterDriverBFM.MASTER_DRIVER
# UVM_INFO ../../src/hdlTop/masterAgentBFM/AhbMasterMonitorBFM.sv(43) @ 0: reporter [AHB_MASTER_MONITOR_BFM] AHB MASTER MONITOR BFM
# UVM_INFO ../../src/hdlTop/slaveAgentBFM/AhbSlaveAgentBFM.sv(14) @ 0: reporter [ahb slave agent bfm] AHB SLAVE AGENT BFM 0
# UVM_INFO ../../src/hdlTop/slaveAgentBFM/AhbSlaveDriverBFM.sv(54) @ 0: reporter [AHB_SLAVE_DRIVER_BFM] AHB_SLAVE_DRIVER_BFM
# UVM_INFO ../../src/hdlTop/slaveAgentBFM/AhbSlaveMonitorBFM.sv(46) @ 0: reporter [AHB_SLAVE_MONITOR_BFM] AHB_SLAVE_MONITOR_BFM
# UVM_INFO ../../src/hdlTop/slaveAgentBFM/AhbSlaveAgentBFM.sv(14) @ 0: reporter [ahb slave agent bfm] AHB SLAVE AGENT BFM 1
# UVM_INFO ../../src/hdlTop/slaveAgentBFM/AhbSlaveDriverBFM.sv(54) @ 0: reporter [AHB_SLAVE_DRIVER_BFM] AHB_SLAVE_DRIVER_BFM
# UVM_INFO ../../src/hdlTop/slaveAgentBFM/AhbSlaveMonitorBFM.sv(46) @ 0: reporter [AHB_SLAVE_MONITOR_BFM] AHB_SLAVE_MONITOR_BFM
#                    0else hready 0 master [0] can_accept=0 oldest_is_ready=1
#  1st hwdata = x
# [0] ahbSlaveInterface[1].haddr = x
#  2nd hwdata = x
#  1st hwdata = x
# [0] ahbSlaveInterface[0].haddr = x
#  2nd hwdata = x
# ENTERED THIS BLOCK @0
# ENTERED THIS BLOCK @0
# ** Info: THE REQ IS x for the slave 1
#    Time: 0 ns  Scope: HdlTop.ahbinterconnect.genblk5[1].genblk1[0] File: ../../src/hdlTop/interconnect/AhbInterconnect.sv Line: 192
# ** Info: THE GRANT IS x for the slave 1 addr is x for master 0
#    Time: 0 ns  Scope: HdlTop.ahbinterconnect.genblk5[1].genblk1[0] File: ../../src/hdlTop/interconnect/AhbInterconnect.sv Line: 193
# ** Info: THE REQ IS x for the slave 0
#    Time: 0 ns  Scope: HdlTop.ahbinterconnect.genblk5[0].genblk1[0] File: ../../src/hdlTop/interconnect/AhbInterconnect.sv Line: 192
# ** Info: THE GRANT IS x for the slave 0 addr is x for master 0
#    Time: 0 ns  Scope: HdlTop.ahbinterconnect.genblk5[0].genblk1[0] File: ../../src/hdlTop/interconnect/AhbInterconnect.sv Line: 193
# invalid  address x
# invalid  address x
# [0] my_slave = 0, my_read_owner = x
# [0] my_slave = 1, my_read_owner = x
#                    0else hready 0 master [0] can_accept=0 oldest_is_ready=1
# ENTERED THIS BLOCK @0
# ENTERED THIS BLOCK @0
# THE MASTER FIELD IS AhbMasterDriverBFM0 
# UVM_INFO ../../src/hvlTop/tb/test/AhbBaseTest.sv(57) @ 0: uvm_test_top [AhbLength16WriteFollowedByReadTest] 
# AHB_MASTER_CONFIG[0]
# ----------------------------------------------------------
# Name                     Type                  Size  Value
# ----------------------------------------------------------
# AhbMasterAgentConfig[0]  AhbMasterAgentConfig  -     @501 
#   is_active              integral              1     1    
#   hasCoverage            integral              1     1    
# ----------------------------------------------------------
# 
# THE FIELD IS AhbSlaveDriverBFM0
# THE FIELD IS AhbSlaveDriverBFM1
# UVM_INFO ../../src/hvlTop/tb/test/AhbBaseTest.sv(75) @ 0: uvm_test_top [AhbLength16WriteFollowedByReadTest] 
# AHB_SLAVE_CONFIG[0]
# -------------------------------------------------------------
# Name                    Type                 Size  Value     
# -------------------------------------------------------------
# AhbSlaveAgentConfig[0]  AhbSlaveAgentConfig  -     @508      
#   is_active             string               10    UVM_ACTIVE
#   hasCoverage           integral             1     1         
#   maximumAddress        integral             32    'h0       
#   minimumAddress        integral             32    'h0       
# -------------------------------------------------------------
# 
# UVM_INFO ../../src/hvlTop/tb/test/AhbBaseTest.sv(75) @ 0: uvm_test_top [AhbLength16WriteFollowedByReadTest] 
# AHB_SLAVE_CONFIG[1]
# -------------------------------------------------------------
# Name                    Type                 Size  Value     
# -------------------------------------------------------------
# AhbSlaveAgentConfig[1]  AhbSlaveAgentConfig  -     @509      
#   is_active             string               10    UVM_ACTIVE
#   hasCoverage           integral             1     1         
#   maximumAddress        integral             32    'h0       
#   minimumAddress        integral             32    'h0       
# -------------------------------------------------------------
# 
# UVM_INFO ../../src/hvlTop/tb/test/AhbBaseTest.sv(79) @ 0: uvm_test_top [AhbLength16WriteFollowedByReadTest] 
# AHB_ENV_CONFIG
# -------------------------------------------------------------
# Name                   Type                  Size  Value     
# -------------------------------------------------------------
# ahbEnvironmentConfig   AhbEnvironmentConfig  -     @500      
#   hasScoreboard        integral              1     1         
#   hasVirtualSequencer  integral              1     1         
#   noOfMasters          integral              32    'd1       
#   noOfSlaves           integral              32    'd2       
#   operationMode        integral              2     2         
#   operationMode        string                10    WRITE_READ
# -------------------------------------------------------------
# 
# ASSIGNMENT IN ENV IS 3
# ASSIGNMENT IN ENV IS 0
# THE CONFIG IS 65903
# THE NUMBER OF WAIT IS 3
# IN THE SLAVE PROXY THE  3
# THE NUMBER OF WAIT IS 0
# IN THE SLAVE PROXY THE  0
# UVM_INFO @ 0: reporter [UVMTOP] UVM testbench topology:
# -------------------------------------------------------------------------------
# Name                            Type                                Size  Value
# -------------------------------------------------------------------------------
# uvm_test_top                    AhbLength16WriteFollowedByReadTest  -     @473 
#   swasthik                      AhbEnvironment                      -     @524 
#     ahbMasterAgent[0]           AhbMasterAgent                      -     @533 
#       ahbMasterCoverage         AhbMasterCoverage                   -     @961 
#         analysis_imp            uvm_analysis_imp                    -     @968 
#       ahbMasterDriverProxy      AhbMasterDriverProxy                -     @923 
#         rsp_port                uvm_analysis_port                   -     @938 
#         seq_item_port           uvm_seq_item_pull_port              -     @930 
#       ahbMasterMonitorProxy     AhbMasterMonitorProxy               -     @946 
#         ahbMasterAnalysisPort   uvm_analysis_port                   -     @953 
#       ahbMasterSequencer        AhbMasterSequencer                  -     @814 
#         rsp_export              uvm_analysis_export                 -     @821 
#         seq_item_export         uvm_seq_item_pull_imp               -     @915 
#         arbitration_queue       array                               0     -    
#         lock_queue              array                               0     -    
#         num_last_reqs           integral                            32    'd1  
#         num_last_rsps           integral                            32    'd1  
#     ahbScoreboard               AhbScoreboard                       -     @665 
#       ahbMasterAnalysisFifo[0]  uvm_tlm_analysis_fifo #(T)          -     @672 
#         analysis_export         uvm_analysis_imp                    -     @711 
#         get_ap                  uvm_analysis_port                   -     @703 
#         get_peek_export         uvm_get_peek_imp                    -     @687 
#         put_ap                  uvm_analysis_port                   -     @695 
#         put_export              uvm_put_imp                         -     @679 
#       ahbSlaveAnalysisFifo[0]   uvm_tlm_analysis_fifo #(T)          -     @719 
#         analysis_export         uvm_analysis_imp                    -     @758 
#         get_ap                  uvm_analysis_port                   -     @750 
#         get_peek_export         uvm_get_peek_imp                    -     @734 
#         put_ap                  uvm_analysis_port                   -     @742 
#         put_export              uvm_put_imp                         -     @726 
#       ahbSlaveAnalysisFifo[1]   uvm_tlm_analysis_fifo #(T)          -     @766 
#         analysis_export         uvm_analysis_imp                    -     @805 
#         get_ap                  uvm_analysis_port                   -     @797 
#         get_peek_export         uvm_get_peek_imp                    -     @781 
#         put_ap                  uvm_analysis_port                   -     @789 
#         put_export              uvm_put_imp                         -     @773 
#     ahbSlaveAgent[0]            AhbSlaveAgent                       -     @542 
#       ahbSlaveCoverage          AhbSlaveCoverage                    -     @1130
#         analysis_imp            uvm_analysis_imp                    -     @1137
#       ahbSlaveDriverProxy       AhbSlaveDriverProxy                 -     @1092
#         rsp_port                uvm_analysis_port                   -     @1107
#         seq_item_port           uvm_seq_item_pull_port              -     @1099
#       ahbSlaveMonitorProxy      AhbSlaveMonitorProxy                -     @1115
#         ahbSlaveAnalysisPort    uvm_analysis_port                   -     @1122
#       ahbSlaveSequencer         AhbSlaveSequencer                   -     @983 
#         rsp_export              uvm_analysis_export                 -     @990 
#         seq_item_export         uvm_seq_item_pull_imp               -     @1084
#         arbitration_queue       array                               0     -    
#         lock_queue              array                               0     -    
#         num_last_reqs           integral                            32    'd1  
#         num_last_rsps           integral                            32    'd1  
#     ahbSlaveAgent[1]            AhbSlaveAgent                       -     @549 
#       ahbSlaveCoverage          AhbSlaveCoverage                    -     @1298
#         analysis_imp            uvm_analysis_imp                    -     @1305
#       ahbSlaveDriverProxy       AhbSlaveDriverProxy                 -     @1260
#         rsp_port                uvm_analysis_port                   -     @1275
#         seq_item_port           uvm_seq_item_pull_port              -     @1267
#       ahbSlaveMonitorProxy      AhbSlaveMonitorProxy                -     @1283
#         ahbSlaveAnalysisPort    uvm_analysis_port                   -     @1290
#       ahbSlaveSequencer         AhbSlaveSequencer                   -     @1151
#         rsp_export              uvm_analysis_export                 -     @1158
#         seq_item_export         uvm_seq_item_pull_imp               -     @1252
#         arbitration_queue       array                               0     -    
#         lock_queue              array                               0     -    
#         num_last_reqs           integral                            32    'd1  
#         num_last_rsps           integral                            32    'd1  
#     ahbVirtualSequencer         AhbVirtualSequencer                 -     @556 
#       rsp_export                uvm_analysis_export                 -     @563 
#       seq_item_export           uvm_seq_item_pull_imp               -     @657 
#       arbitration_queue         array                               0     -    
#       lock_queue                array                               0     -    
#       num_last_reqs             integral                            32    'd1  
#       num_last_rsps             integral                            32    'd1  
# -------------------------------------------------------------------------------
# 
# UVM_INFO verilog_src/questa_uvm_pkg-1.2/src/questa_uvm_pkg.sv(277) @ 0: reporter [Questa UVM] End Of Elaboration
# UVM_INFO ../../src/hvlTop/tb/test/AhbLength16WriteFollowedByReadTest.sv(36) @ 0: uvm_test_top [AhbLength16WriteFollowedByReadTest] AhbLength16WriteFollowedByReadTest
# CONNVERTER NO OF WAIT STATES IS 0
# UVM_INFO ../../src/hvlTop/slaveAgent/AhbSlaveDriverProxy.sv(49) @ 0: uvm_test_top.swasthik.ahbSlaveAgent[1].ahbSlaveDriverProxy [AhbSlaveDriverProxy]  BEFORERESET 
#  
# CONNVERTER NO OF WAIT STATES IS 3
# UVM_INFO ../../src/hvlTop/slaveAgent/AhbSlaveDriverProxy.sv(49) @ 0: uvm_test_top.swasthik.ahbSlaveAgent[0].ahbSlaveDriverProxy [AhbSlaveDriverProxy]  BEFORERESET 
#  
# UVM_INFO ../../src/hvlTop/masterAgent/AhbMasterMonitorProxy.sv(56) @ 0: uvm_test_top.swasthik.ahbMasterAgent[0].ahbMasterMonitorProxy [AhbMasterMonitorProxy] Inside the master_monitor_proxy
# RESET CALLED
# [5] my_slave = 0, my_read_owner = x
# [5] my_slave = 1, my_read_owner = x
# UVM_INFO ../../src/hdlTop/slaveAgentBFM/AhbSlaveDriverBFM.sv(67) @ 5: reporter [AHB_SLAVE_DRIVER_BFM] SYSTEM RESET DETECTED
# UVM_INFO ../../src/hdlTop/slaveAgentBFM/AhbSlaveDriverBFM.sv(67) @ 5: reporter [AHB_SLAVE_DRIVER_BFM] SYSTEM RESET DETECTED
# UVM_INFO ../../src/hdlTop/masterAgentBFM/AhbMasterDriverBFM.sv(48) @ 5: reporter [AHB_MASTER_DRIVER_BFM] SYSTEM RESET DETECTED
# UVM_INFO ../../src/hdlTop/masterAgentBFM/AhbMasterMonitorBFM.sv(48) @ 5: reporter [AHB_MASTER_MONITOR_BFM] system reset detected
#                    5else hready 0 master [0] can_accept=0 oldest_is_ready=1
#                    5 3rd block can accept=1 slave=1
# slave_has_owner = x slave = 1 
#                    5 3rd block can accept=1 slave=0
# slave_has_owner = x slave = 0 
#                    5else hready 0 master [0] can_accept=0 oldest_is_ready=1
#                    5 3rd block can accept=1 slave=1
# slave_has_owner = 0 slave = 1 
#                    5 3rd block can accept=1 slave=0
# slave_has_owner = 0 slave = 0 
# @                  15 H EY MAN
# ENTERED THIS BLOCK @15
# ENTERED THIS BLOCK @15
# UVM_INFO ../../src/hdlTop/masterAgentBFM/AhbMasterMonitorBFM.sv(50) @ 15: reporter [AHB_MASTER_MONITOR_BFM] system reset deactivated
# ishika 15 haddr = 0
# [15] from master monitor = haddr=x
# UVM_INFO ../../src/hvlTop/masterAgent/AhbMasterMonitorProxy.sv(72) @ 15: uvm_test_top.swasthik.ahbMasterAgent[0].ahbMasterMonitorProxy [AhbMasterMonitorProxy] Sending packet via analysis_port: , 
#  ------------------------------------------------------------------------
# Name                      Type                  Size  Value             
# ------------------------------------------------------------------------
# ahbMasterPacket           AhbMasterTransaction  -     @1484             
#   haddr                   integral              32    'h0               
#   hselx                   integral              2     'b0               
#   hburst                  string                6     SINGLE            
#   hmastlock               integral              1     'h0               
#   hprot                   string                18    NORMAL_SECURE_DATA
#   hsize                   string                4     BYTE              
#   hnonsec                 integral              1     'h0               
#   hexcl                   integral              1     'h0               
#   hmaster                 integral              1     'd0               
#   htrans                  string                4     IDLE              
#   hwrite                  string                4     READ              
#   hreadyout               integral              1     'h0               
#   hresp                   string                4     OKAY              
#   hexokay                 integral              1     'h0               
#   hready                  integral              1     'h0               
#   noOfwaitStatesDetected  integral              32    'h0               
# ------------------------------------------------------------------------
# 
# UVM_INFO ../../src/hvlTop/masterAgent/AhbMasterCoverage.sv(107) @ 15: uvm_test_top.swasthik.ahbMasterAgent[0].ahbMasterCoverage [AhbMasterCoverage] Before calling SAMPLE METHOD
# UVM_INFO ../../src/hvlTop/masterAgent/AhbMasterCoverage.sv(109) @ 15: uvm_test_top.swasthik.ahbMasterAgent[0].ahbMasterCoverage [AhbMasterCoverage] After calling SAMPLE METHOD
# UVM_INFO ../../src/hdlTop/masterAgentBFM/AhbMasterDriverBFM.sv(52) @ 15: reporter [AHB_MASTER_DRIVER_BFM]  @15 SYSTEM RESET DEACTIVATED
# 
#  
#  getting next one 
#  
# 
# ....I AM HERE..... 15 
# UVM_INFO ../../src/hdlTop/slaveAgentBFM/AhbSlaveDriverBFM.sv(71) @ 15: reporter [AHB_SLAVE_DRIVER_BFM] SYSTEM RESET DEACTIVATED
# UVM_INFO ../../src/hdlTop/slaveAgentBFM/AhbSlaveDriverBFM.sv(71) @ 15: reporter [AHB_SLAVE_DRIVER_BFM] SYSTEM RESET DEACTIVATED
# [15] run phase got m_tx haddr=0, mtx=1, htrans= 0 
# ------------------------------------------------------------------------
# Name                      Type                  Size  Value             
# ------------------------------------------------------------------------
# ahbMasterPacket           AhbMasterTransaction  -     @1484             
#   haddr                   integral              32    'h0               
#   hselx                   integral              2     'b0               
#   hburst                  string                6     SINGLE            
#   hmastlock               integral              1     'h0               
#   hprot                   string                18    NORMAL_SECURE_DATA
#   hsize                   string                4     BYTE              
#   hnonsec                 integral              1     'h0               
#   hexcl                   integral              1     'h0               
#   hmaster                 integral              1     'd0               
#   htrans                  string                4     IDLE              
#   hwrite                  string                4     READ              
#   hreadyout               integral              1     'h0               
#   hresp                   string                4     OKAY              
#   hexokay                 integral              1     'h0               
#   hready                  integral              1     'h0               
#   noOfwaitStatesDetected  integral              32    'h0               
# ------------------------------------------------------------------------
# ---------------------------------------------------------
# Name                Type                 Size  Value     
# ---------------------------------------------------------
# req                 AhbSlaveTransaction  -     @1380     
#   haddr             integral             32    'h0       
#   hselx             integral             2     'b0       
#   hburst            string               0     ""        
#   hmastlock         integral             1     'h0       
#   hprot             string               0     ""        
#   hsize             string               0     ""        
#   hnonsec           integral             1     'h0       
#   hexcl             integral             1     'h0       
#   hmaster           integral             1     'd0       
#   htrans            string               0     ""        
#   hwrite            string               4     READ      
#   hreadyout         integral             1     'h0       
#   hresp             string               0     ""        
#   hexokay           integral             1     'h0       
#   hready            integral             1     'h0       
#   choosePacketData  integral             1     'd0       
#   hwdata[0]         integral             32    'h1a3af479
#   hwdata[1]         integral             32    'h1f6d61f 
#   hwdata[2]         integral             32    'he6f0498c
#   hwdata[3]         integral             32    'h63f2c22e
#   hwdata[4]         integral             32    'h3c39364b
#   hwdata[5]         integral             32    'h8d912640
#   hwdata[6]         integral             32    'h2f39389 
#   hwdata[7]         integral             32    'h7568d818
#   hwdata[8]         integral             32    'hcc6c15ce
#   hwdata[9]         integral             32    'hb5ef702 
#   hwdata[10]        integral             32    'hb33e0796
#   hwdata[11]        integral             32    'h18a2998d
#   hwdata[12]        integral             32    'h44fa44ff
#   hwdata[13]        integral             32    'h8252b908
#   hwdata[14]        integral             32    'h52064f1c
#   hwdata[15]        integral             32    'h20838362
#   hwstrb[0]         integral             4     'b1101    
#   hwstrb[1]         integral             4     'b1       
#   hwstrb[2]         integral             4     'b1110    
#   hwstrb[3]         integral             4     'b0       
#   hwstrb[4]         integral             4     'b0       
#   hwstrb[5]         integral             4     'b11      
#   hwstrb[6]         integral             4     'b1110    
#   hwstrb[7]         integral             4     'b1001    
#   hwstrb[8]         integral             4     'b1000    
#   hwstrb[9]         integral             4     'b11      
#   hwstrb[10]        integral             4     'b110     
#   hwstrb[11]        integral             4     'b0       
#   hwstrb[12]        integral             4     'b1011    
#   hwstrb[13]        integral             4     'b1111    
#   hwstrb[14]        integral             4     'b1101    
#   hwstrb[15]        integral             4     'b11      
#   hrdata[0]         integral             32    'h745ca9df
#   hrdata[1]         integral             32    'h51fdc22e
#   hrdata[2]         integral             32    'h73253200
#   hrdata[3]         integral             32    'he470f40e
#   hrdata[4]         integral             32    'hab2abd20
#   hrdata[5]         integral             32    'hfc9d7ffc
#   hrdata[6]         integral             32    'h27ef313c
#   hrdata[7]         integral             32    'ha3985184
#   hrdata[8]         integral             32    'ha3a96900
#   hrdata[9]         integral             32    'h9206f8b1
#   hrdata[10]        integral             32    'h3a4fd980
#   hrdata[11]        integral             32    'hbf31e6f 
#   hrdata[12]        integral             32    'h4f11986b
#   hrdata[13]        integral             32    'he2e16f90
#   hrdata[14]        integral             32    'h6a420340
#   hrdata[15]        integral             32    'h6e5ceecc
# ---------------------------------------------------------
# ---------------------------------------------------------
# Name                Type                 Size  Value     
# ---------------------------------------------------------
# req                 AhbSlaveTransaction  -     @1376     
#   haddr             integral             32    'h0       
#   hselx             integral             2     'b0       
#   hburst            string               0     ""        
#   hmastlock         integral             1     'h0       
#   hprot             string               0     ""        
#   hsize             string               0     ""        
#   hnonsec           integral             1     'h0       
#   hexcl             integral             1     'h0       
#   hmaster           integral             1     'd0       
#   htrans            string               0     ""        
#   hwrite            string               4     READ      
#   hreadyout         integral             1     'h0       
#   hresp             string               0     ""        
#   hexokay           integral             1     'h0       
#   hready            integral             1     'h0       
#   choosePacketData  integral             1     'd0       
#   hwdata[0]         integral             32    'h17069eda
#   hwdata[1]         integral             32    'he758ef92
#   hwdata[2]         integral             32    'hd11ca31f
#   hwdata[3]         integral             32    'hf13e5fbf
#   hwdata[4]         integral             32    'h72f48f62
#   hwdata[5]         integral             32    'h3bafdb7c
#   hwdata[6]         integral             32    'h1c199ca4
#   hwdata[7]         integral             32    'hbb4e1fef
#   hwdata[8]         integral             32    'hbf684525
#   hwdata[9]         integral             32    'h77822c22
#   hwdata[10]        integral             32    'h2acf90e6
#   hwdata[11]        integral             32    'hf15399a9
#   hwdata[12]        integral             32    'h65a9b5eb
#   hwdata[13]        integral             32    'h6b2e701b
#   hwdata[14]        integral             32    'h68c55f3f
#   hwdata[15]        integral             32    'h34de2b0c
#   hwstrb[0]         integral             4     'b0       
#   hwstrb[1]         integral             4     'b1011    
#   hwstrb[2]         integral             4     'b1111    
#   hwstrb[3]         integral             4     'b111     
#   hwstrb[4]         integral             4     'b1010    
#   hwstrb[5]         integral             4     'b1       
#   hwstrb[6]         integral             4     'b1011    
#   hwstrb[7]         integral             4     'b1       
#   hwstrb[8]         integral             4     'b1       
#   hwstrb[9]         integral             4     'b1100    
#   hwstrb[10]        integral             4     'b1       
#   hwstrb[11]        integral             4     'b1001    
#   hwstrb[12]        integral             4     'b1111    
#   hwstrb[13]        integral             4     'b11      
#   hwstrb[14]        integral             4     'b10      
#   hwstrb[15]        integral             4     'b0       
#   hrdata[0]         integral             32    'h21dc463a
#   hrdata[1]         integral             32    'h290bf50f
#   hrdata[2]         integral             32    'hcd365a65
#   hrdata[3]         integral             32    'he2c6a049
#   hrdata[4]         integral             32    'hbc26ca78
#   hrdata[5]         integral             32    'h34e70aed
#   hrdata[6]         integral             32    'hdd5a45a5
#   hrdata[7]         integral             32    'h891d2fa 
#   hrdata[8]         integral             32    'h612457af
#   hrdata[9]         integral             32    'h459c8a30
#   hrdata[10]        integral             32    'h1c1d235f
#   hrdata[11]        integral             32    'h53f00f6 
#   hrdata[12]        integral             32    'ha4b4f14f
#   hrdata[13]        integral             32    'h7d40c70a
#   hrdata[14]        integral             32    'hb076ae1e
#   hrdata[15]        integral             32    'hf8d3525 
# ---------------------------------------------------------
# UVM_INFO ../../src/hvlTop/masterAgent/masterSequences/AhbMasterSequence.sv(142) @ 15: uvm_test_top.swasthik.ahbMasterAgent[0].ahbMasterSequencer@@ahbMasterWriteSequence[0] [AHB] req is of type: AhbMasterTransaction
# *****************************************master sequence***********************************
# -------------------------------------------------------------------------------
# Name                      Type                  Size  Value                    
# -------------------------------------------------------------------------------
# req                       AhbMasterTransaction  -     @1384                    
#   haddr                   integral              32    'h290                    
#   hselx                   integral              2     'b1                      
#   hburst                  string                6     INCR16                   
#   hmastlock               integral              1     'h0                      
#   hprot                   string                25    NORMAL_SECURE_INSTRUCTION
#   hsize                   string                4     WORD                     
#   hnonsec                 integral              1     'h0                      
#   hexcl                   integral              1     'h1                      
#   hmaster                 integral              1     'd0                      
#   htrans                  string                3     SEQ                      
#   hwrite                  string                5     WRITE                    
#   hreadyout               integral              1     'h0                      
#   hresp                   string                0     ""                       
#   hexokay                 integral              1     'h0                      
#   hready                  integral              1     'h0                      
#   noOfwaitStatesDetected  integral              32    'h0                      
#   hwdata[0]               integral              32    'h5ca8ebb9               
#   hwdata[1]               integral              32    'hcf60beee               
#   hwdata[2]               integral              32    'h8c126f07               
#   hwdata[3]               integral              32    'h4632c0d4               
#   hwdata[4]               integral              32    'hb8170b4f               
#   hwdata[5]               integral              32    'h3e30a5d7               
#   hwdata[6]               integral              32    'hbe7ccbc8               
#   hwdata[7]               integral              32    'h3e8b4d8d               
#   hwdata[8]               integral              32    'h261cb7e9               
#   hwdata[9]               integral              32    'hcaa6a872               
#   hwdata[10]              integral              32    'h1a6d974c               
#   hwdata[11]              integral              32    'h6840b88c               
#   hwdata[12]              integral              32    'h46b35bc1               
#   hwdata[13]              integral              32    'h4d2c39d8               
#   hwdata[14]              integral              32    'he9b312f2               
#   hwdata[15]              integral              32    'h70b79810               
#   hwstrb[0]               integral              4     'b1111                   
#   hwstrb[1]               integral              4     'b1111                   
#   hwstrb[2]               integral              4     'b1111                   
#   hwstrb[3]               integral              4     'b1111                   
#   hwstrb[4]               integral              4     'b1111                   
#   hwstrb[5]               integral              4     'b1111                   
#   hwstrb[6]               integral              4     'b1111                   
#   hwstrb[7]               integral              4     'b1111                   
#   hwstrb[8]               integral              4     'b1111                   
#   hwstrb[9]               integral              4     'b1111                   
#   hwstrb[10]              integral              4     'b1111                   
#   hwstrb[11]              integral              4     'b1111                   
#   hwstrb[12]              integral              4     'b1111                   
#   hwstrb[13]              integral              4     'b1111                   
#   hwstrb[14]              integral              4     'b1111                   
#   hwstrb[15]              integral              4     'b1111                   
#   busyControl[0]          integral              1     'h0                      
#   busyControl[1]          integral              1     'h0                      
#   busyControl[2]          integral              1     'h0                      
#   busyControl[3]          integral              1     'h0                      
#   busyControl[4]          integral              1     'h0                      
#   busyControl[5]          integral              1     'h0                      
#   busyControl[6]          integral              1     'h0                      
#   busyControl[7]          integral              1     'h0                      
#   busyControl[8]          integral              1     'h0                      
#   busyControl[9]          integral              1     'h0                      
#   busyControl[10]         integral              1     'h0                      
#   busyControl[11]         integral              1     'h0                      
#   busyControl[12]         integral              1     'h0                      
#   busyControl[13]         integral              1     'h0                      
#   busyControl[14]         integral              1     'h0                      
#   busyControl[15]         integral              1     'h0                      
# -------------------------------------------------------------------------------
# ********************************************************************************************
# UVM_INFO ../../src/hvlTop/slaveAgent/AhbSlaveSequenceItemConverter.sv(90) @ 15: reporter [ahbSlaveSequeceItemconverterClass] -------------------------------------------------------------
# THE RUN PHASE IS 3
# CONNVERTER NO OF WAIT STATES IS 3
# (((((((((((((((SENT ACK)))))))))))))))
# UVM_INFO ../../src/hvlTop/slaveAgent/AhbSlaveSequenceItemConverter.sv(90) @ 15: reporter [ahbSlaveSequeceItemconverterClass] -------------------------------------------------------------
# THE RUN PHASE IS 0
# CONNVERTER NO OF WAIT STATES IS 0
# (((((((((((((((SENT ACK)))))))))))))))
# UVM_INFO ../../src/hvlTop/masterAgent/AhbMasterDriverProxy.sv(68) @ 15: uvm_test_top.swasthik.ahbMasterAgent[0].ahbMasterDriverProxy [AhbMasterDriverProxy] REQ-MASTERTX 
#  -------------------------------------------------------------------------------
# Name                      Type                  Size  Value                    
# -------------------------------------------------------------------------------
# req                       AhbMasterTransaction  -     @1384                    
#   haddr                   integral              32    'h290                    
#   hselx                   integral              2     'b1                      
#   hburst                  string                6     INCR16                   
#   hmastlock               integral              1     'h0                      
#   hprot                   string                25    NORMAL_SECURE_INSTRUCTION
#   hsize                   string                4     WORD                     
#   hnonsec                 integral              1     'h0                      
#   hexcl                   integral              1     'h1                      
#   hmaster                 integral              1     'd0                      
#   htrans                  string                3     SEQ                      
#   hwrite                  string                5     WRITE                    
#   hreadyout               integral              1     'h0                      
#   hresp                   string                0     ""                       
#   hexokay                 integral              1     'h0                      
#   hready                  integral              1     'h0                      
#   noOfwaitStatesDetected  integral              32    'h0                      
#   hwdata[0]               integral              32    'h5ca8ebb9               
#   hwdata[1]               integral              32    'hcf60beee               
#   hwdata[2]               integral              32    'h8c126f07               
#   hwdata[3]               integral              32    'h4632c0d4               
#   hwdata[4]               integral              32    'hb8170b4f               
#   hwdata[5]               integral              32    'h3e30a5d7               
#   hwdata[6]               integral              32    'hbe7ccbc8               
#   hwdata[7]               integral              32    'h3e8b4d8d               
#   hwdata[8]               integral              32    'h261cb7e9               
#   hwdata[9]               integral              32    'hcaa6a872               
#   hwdata[10]              integral              32    'h1a6d974c               
#   hwdata[11]              integral              32    'h6840b88c               
#   hwdata[12]              integral              32    'h46b35bc1               
#   hwdata[13]              integral              32    'h4d2c39d8               
#   hwdata[14]              integral              32    'he9b312f2               
#   hwdata[15]              integral              32    'h70b79810               
#   hwstrb[0]               integral              4     'b1111                   
#   hwstrb[1]               integral              4     'b1111                   
#   hwstrb[2]               integral              4     'b1111                   
#   hwstrb[3]               integral              4     'b1111                   
#   hwstrb[4]               integral              4     'b1111                   
#   hwstrb[5]               integral              4     'b1111                   
#   hwstrb[6]               integral              4     'b1111                   
#   hwstrb[7]               integral              4     'b1111                   
#   hwstrb[8]               integral              4     'b1111                   
#   hwstrb[9]               integral              4     'b1111                   
#   hwstrb[10]              integral              4     'b1111                   
#   hwstrb[11]              integral              4     'b1111                   
#   hwstrb[12]              integral              4     'b1111                   
#   hwstrb[13]              integral              4     'b1111                   
#   hwstrb[14]              integral              4     'b1111                   
#   hwstrb[15]              integral              4     'b1111                   
#   busyControl[0]          integral              1     'h0                      
#   busyControl[1]          integral              1     'h0                      
#   busyControl[2]          integral              1     'h0                      
#   busyControl[3]          integral              1     'h0                      
#   busyControl[4]          integral              1     'h0                      
#   busyControl[5]          integral              1     'h0                      
#   busyControl[6]          integral              1     'h0                      
#   busyControl[7]          integral              1     'h0                      
#   busyControl[8]          integral              1     'h0                      
#   busyControl[9]          integral              1     'h0                      
#   busyControl[10]         integral              1     'h0                      
#   busyControl[11]         integral              1     'h0                      
#   busyControl[12]         integral              1     'h0                      
#   busyControl[13]         integral              1     'h0                      
#   busyControl[14]         integral              1     'h0                      
#   busyControl[15]         integral              1     'h0                      
# -------------------------------------------------------------------------------
# 
# ***************************IN DRIVER************************************************************************
# -------------------------------------------------------------------------------
# Name                      Type                  Size  Value                    
# -------------------------------------------------------------------------------
# req                       AhbMasterTransaction  -     @1384                    
#   haddr                   integral              32    'h290                    
#   hselx                   integral              2     'b1                      
#   hburst                  string                6     INCR16                   
#   hmastlock               integral              1     'h0                      
#   hprot                   string                25    NORMAL_SECURE_INSTRUCTION
#   hsize                   string                4     WORD                     
#   hnonsec                 integral              1     'h0                      
#   hexcl                   integral              1     'h1                      
#   hmaster                 integral              1     'd0                      
#   htrans                  string                3     SEQ                      
#   hwrite                  string                5     WRITE                    
#   hreadyout               integral              1     'h0                      
#   hresp                   string                0     ""                       
#   hexokay                 integral              1     'h0                      
#   hready                  integral              1     'h0                      
#   noOfwaitStatesDetected  integral              32    'h0                      
#   hwdata[0]               integral              32    'h5ca8ebb9               
#   hwdata[1]               integral              32    'hcf60beee               
#   hwdata[2]               integral              32    'h8c126f07               
#   hwdata[3]               integral              32    'h4632c0d4               
#   hwdata[4]               integral              32    'hb8170b4f               
#   hwdata[5]               integral              32    'h3e30a5d7               
#   hwdata[6]               integral              32    'hbe7ccbc8               
#   hwdata[7]               integral              32    'h3e8b4d8d               
#   hwdata[8]               integral              32    'h261cb7e9               
#   hwdata[9]               integral              32    'hcaa6a872               
#   hwdata[10]              integral              32    'h1a6d974c               
#   hwdata[11]              integral              32    'h6840b88c               
#   hwdata[12]              integral              32    'h46b35bc1               
#   hwdata[13]              integral              32    'h4d2c39d8               
#   hwdata[14]              integral              32    'he9b312f2               
#   hwdata[15]              integral              32    'h70b79810               
#   hwstrb[0]               integral              4     'b1111                   
#   hwstrb[1]               integral              4     'b1111                   
#   hwstrb[2]               integral              4     'b1111                   
#   hwstrb[3]               integral              4     'b1111                   
#   hwstrb[4]               integral              4     'b1111                   
#   hwstrb[5]               integral              4     'b1111                   
#   hwstrb[6]               integral              4     'b1111                   
#   hwstrb[7]               integral              4     'b1111                   
#   hwstrb[8]               integral              4     'b1111                   
#   hwstrb[9]               integral              4     'b1111                   
#   hwstrb[10]              integral              4     'b1111                   
#   hwstrb[11]              integral              4     'b1111                   
#   hwstrb[12]              integral              4     'b1111                   
#   hwstrb[13]              integral              4     'b1111                   
#   hwstrb[14]              integral              4     'b1111                   
#   hwstrb[15]              integral              4     'b1111                   
#   busyControl[0]          integral              1     'h0                      
#   busyControl[1]          integral              1     'h0                      
#   busyControl[2]          integral              1     'h0                      
#   busyControl[3]          integral              1     'h0                      
#   busyControl[4]          integral              1     'h0                      
#   busyControl[5]          integral              1     'h0                      
#   busyControl[6]          integral              1     'h0                      
#   busyControl[7]          integral              1     'h0                      
#   busyControl[8]          integral              1     'h0                      
#   busyControl[9]          integral              1     'h0                      
#   busyControl[10]         integral              1     'h0                      
#   busyControl[11]         integral              1     'h0                      
#   busyControl[12]         integral              1     'h0                      
#   busyControl[13]         integral              1     'h0                      
#   busyControl[14]         integral              1     'h0                      
#   busyControl[15]         integral              1     'h0                      
# -------------------------------------------------------------------------------
# ***************************************************************************************************
# INSIDE BURST
# SLAVE SEQUENCE DONE 
# SLAVE SEQUENCE DONE 
# ** Info: THE REQ IS x for the slave 0
#    Time: 16 ns  Scope: HdlTop.ahbinterconnect.genblk5[0].genblk1[0] File: ../../src/hdlTop/interconnect/AhbInterconnect.sv Line: 192
# ** Info: THE GRANT IS x for the slave 0 addr is 656 for master 0
#    Time: 16 ns  Scope: HdlTop.ahbinterconnect.genblk5[0].genblk1[0] File: ../../src/hdlTop/interconnect/AhbInterconnect.sv Line: 193
# ** Info: THE REQ IS x for the slave 1
#    Time: 16 ns  Scope: HdlTop.ahbinterconnect.genblk5[1].genblk1[0] File: ../../src/hdlTop/interconnect/AhbInterconnect.sv Line: 192
# ** Info: THE GRANT IS x for the slave 1 addr is 656 for master 0
#    Time: 16 ns  Scope: HdlTop.ahbinterconnect.genblk5[1].genblk1[0] File: ../../src/hdlTop/interconnect/AhbInterconnect.sv Line: 193
#                   16 3rd block can accept=1 slave=1
# slave_has_owner = 0 slave = 1 
#                   16 3rd block can accept=1 slave=0
# slave_has_owner = 0 slave = 0 
# slave number 0 address 656
# slave number 0 address 656
# ** Info: THE REQ IS 1 for the slave 0
#    Time: 16 ns  Scope: HdlTop.ahbinterconnect.genblk5[0].genblk1[0] File: ../../src/hdlTop/interconnect/AhbInterconnect.sv Line: 192
# ** Info: THE GRANT IS x for the slave 0 addr is 656 for master 0
#    Time: 16 ns  Scope: HdlTop.ahbinterconnect.genblk5[0].genblk1[0] File: ../../src/hdlTop/interconnect/AhbInterconnect.sv Line: 193
# ** Info: THE REQ IS x for the slave 1
#    Time: 16 ns  Scope: HdlTop.ahbinterconnect.genblk5[1].genblk1[0] File: ../../src/hdlTop/interconnect/AhbInterconnect.sv Line: 192
# ** Info: THE GRANT IS x for the slave 1 addr is 656 for master 0
#    Time: 16 ns  Scope: HdlTop.ahbinterconnect.genblk5[1].genblk1[0] File: ../../src/hdlTop/interconnect/AhbInterconnect.sv Line: 193
#                   16 3rd block can accept=1 slave=0
# slave_has_owner = 0 slave = 0 
# dead case s:          0 | m:          0
#                   16 inside 3rd block master_request[s=0][m= 0] htrans=2
#                   16 3rd block grant 1
# ** Info: THE REQ IS 1 for the slave 0
#    Time: 16 ns  Scope: HdlTop.ahbinterconnect.genblk5[0].genblk1[0] File: ../../src/hdlTop/interconnect/AhbInterconnect.sv Line: 192
# ** Info: THE GRANT IS 1 for the slave 0 addr is 656 for master 0
#    Time: 16 ns  Scope: HdlTop.ahbinterconnect.genblk5[0].genblk1[0] File: ../../src/hdlTop/interconnect/AhbInterconnect.sv Line: 193
# ** Info: THE REQ IS x for the slave 1
#    Time: 16 ns  Scope: HdlTop.ahbinterconnect.genblk5[1].genblk1[0] File: ../../src/hdlTop/interconnect/AhbInterconnect.sv Line: 192
# ** Info: THE GRANT IS x for the slave 1 addr is 656 for master 0
#    Time: 16 ns  Scope: HdlTop.ahbinterconnect.genblk5[1].genblk1[0] File: ../../src/hdlTop/interconnect/AhbInterconnect.sv Line: 193
# [16] master_pipeline[0][master_wr_ptr[0]].haddr = 0
# slave number 0 address 656
# last grant s=0 m=0 g==1
#                   16else hready 1 master [0] can_accept=1 oldest_is_ready=1
# ENTERED THIS BLOCK @16
# [16] slave_hwdata_stable[0] = x
# last grant s=0 m=0 g==1
#                   16else hready 1 master [0] can_accept=1 oldest_is_ready=1
#  1st hwdata = x
# [16] ahbSlaveInterface[0].haddr = 656
#  2nd hwdata = x
#  1st hwdata = x
# [16] ahbSlaveInterface[1].haddr = x
#  2nd hwdata = x
# ENTERED THIS BLOCK @16
# [16] slave_hwdata_stable[0] = x
# [16] 3rd  slave_data_phase.[0].haddr = 656
#                   25 first master_grant[slaveloop=0][masterloop=0]=1
# [25] current_owner[0] = 0
# [25] new_c_owner[0] = 0
# [25] my_slave = 0, my_read_owner = 0
# [25] my_slave = 1, my_read_owner = x
#  time = 25, master = 0, slave = 0,  read_owner = 0
# 25 check slave_hreadyout[0] = 1
# last grant s=0 m=0 g==1
#                   25else hready 1 master [0] can_accept=1 oldest_is_ready=1
# ENTERED THIS BLOCK @25
# [25] slave_hwdata_stable[0] = x
#                   25 3rd block can accept=1 slave=1
# slave_has_owner = x slave = 1 
#                   25 3rd block can accept=1 slave=0
# slave_has_owner = 1 slave = 0 
# dead case s:          0 | m:          0
#                   25 inside 3rd block master_request[s=0][m= 0] htrans=2
#                   25 3rd block grant 1
# ** Info: THE REQ IS 1 for the slave 0
#    Time: 25 ns  Scope: HdlTop.ahbinterconnect.genblk5[0].genblk1[0] File: ../../src/hdlTop/interconnect/AhbInterconnect.sv Line: 192
# ** Info: THE GRANT IS 1 for the slave 0 addr is 656 for master 0
#    Time: 25 ns  Scope: HdlTop.ahbinterconnect.genblk5[0].genblk1[0] File: ../../src/hdlTop/interconnect/AhbInterconnect.sv Line: 193
# ** Info: THE REQ IS x for the slave 1
#    Time: 25 ns  Scope: HdlTop.ahbinterconnect.genblk5[1].genblk1[0] File: ../../src/hdlTop/interconnect/AhbInterconnect.sv Line: 192
# ** Info: THE GRANT IS x for the slave 1 addr is 656 for master 0
#    Time: 25 ns  Scope: HdlTop.ahbinterconnect.genblk5[1].genblk1[0] File: ../../src/hdlTop/interconnect/AhbInterconnect.sv Line: 193
# [25] master_pipeline[0][master_wr_ptr[0]].haddr = 0
# slave number 0 address 656
# 25 check slave_hreadyout[0] = 1
# last grant s=0 m=0 g==1
#                   25else hready 1 master [0] can_accept=1 oldest_is_ready=1
# ishika 25 haddr = x
# [25] from master monitor = haddr=656
# UVM_INFO ../../src/hvlTop/masterAgent/AhbMasterMonitorProxy.sv(72) @ 25: uvm_test_top.swasthik.ahbMasterAgent[0].ahbMasterMonitorProxy [AhbMasterMonitorProxy] Sending packet via analysis_port: , 
#  -----------------------------------------------------------
# Name                      Type                  Size  Value
# -----------------------------------------------------------
# ahbMasterPacket           AhbMasterTransaction  -     @1490
#   haddr                   integral              32    'h0  
#   hselx                   integral              2     'b0  
#   hburst                  string                0     ""   
#   hmastlock               integral              1     'h0  
#   hprot                   string                0     ""   
#   hsize                   string                0     ""   
#   hnonsec                 integral              1     'h0  
#   hexcl                   integral              1     'h0  
#   hmaster                 integral              1     'd0  
#   htrans                  string                4     IDLE 
#   hwrite                  string                4     READ 
#   hreadyout               integral              1     'h0  
#   hresp                   string                4     OKAY 
#   hexokay                 integral              1     'h0  
#   hready                  integral              1     'h0  
#   noOfwaitStatesDetected  integral              32    'h0  
# -----------------------------------------------------------
# 
# UVM_INFO ../../src/hvlTop/masterAgent/AhbMasterCoverage.sv(107) @ 25: uvm_test_top.swasthik.ahbMasterAgent[0].ahbMasterCoverage [AhbMasterCoverage] Before calling SAMPLE METHOD
# UVM_INFO ../../src/hvlTop/masterAgent/AhbMasterCoverage.sv(109) @ 25: uvm_test_top.swasthik.ahbMasterAgent[0].ahbMasterCoverage [AhbMasterCoverage] After calling SAMPLE METHOD
# HEY I AM INSIDE BURST
# ishika 25 haddr = 0
# UVM_INFO ../../src/hvlTop/slaveAgent/AhbSlaveMonitorProxy.sv(74) @ 25: uvm_test_top.swasthik.ahbSlaveAgent[0].ahbSlaveMonitorProxy [AhbSlaveMonitorProxy] Sending packet via analysis_port: , 
#  -----------------------------------------------------------------
# Name                Type                 Size  Value             
# -----------------------------------------------------------------
# slave Packet        AhbSlaveTransaction  -     @1494             
#   haddr             integral             32    'h0               
#   hselx             integral             2     'b0               
#   hburst            string               6     SINGLE            
#   hmastlock         integral             1     'h0               
#   hprot             string               18    NORMAL_SECURE_DATA
#   hsize             string               4     BYTE              
#   hnonsec           integral             1     'h0               
#   hexcl             integral             1     'h0               
#   hmaster           integral             1     'd0               
#   htrans            string               4     IDLE              
#   hwrite            string               4     READ              
#   hreadyout         integral             1     'h1               
#   hresp             string               0     ""                
#   hexokay           integral             1     'h0               
#   hready            integral             1     'h0               
#   choosePacketData  integral             1     'd0               
# -----------------------------------------------------------------
# 
# UVM_INFO ../../src/hvlTop/slaveAgent/AhbSlaveCoverage.sv(39) @ 25: uvm_test_top.swasthik.ahbSlaveAgent[0].ahbSlaveCoverage [AhbSlaveCoverage] AHB SLAVE COVERAGE
# CONNVERTER NO OF WAIT STATES IS 3
#                   25new call 0
# [25] run phase got m_tx haddr=0, mtx=1, htrans= 0 
# -----------------------------------------------------------
# Name                      Type                  Size  Value
# -----------------------------------------------------------
# ahbMasterPacket           AhbMasterTransaction  -     @1490
#   haddr                   integral              32    'h0  
#   hselx                   integral              2     'b0  
#   hburst                  string                0     ""   
#   hmastlock               integral              1     'h0  
#   hprot                   string                0     ""   
#   hsize                   string                0     ""   
#   hnonsec                 integral              1     'h0  
#   hexcl                   integral              1     'h0  
#   hmaster                 integral              1     'd0  
#   htrans                  string                4     IDLE 
#   hwrite                  string                4     READ 
#   hreadyout               integral              1     'h0  
#   hresp                   string                4     OKAY 
#   hexokay                 integral              1     'h0  
#   hready                  integral              1     'h0  
#   noOfwaitStatesDetected  integral              32    'h0  
# -----------------------------------------------------------
# run phase got s_tx
# -----------------------------------------------------------------
# Name                Type                 Size  Value             
# -----------------------------------------------------------------
# slave Packet        AhbSlaveTransaction  -     @1494             
#   haddr             integral             32    'h0               
#   hselx             integral             2     'b0               
#   hburst            string               6     SINGLE            
#   hmastlock         integral             1     'h0               
#   hprot             string               18    NORMAL_SECURE_DATA
#   hsize             string               4     BYTE              
#   hnonsec           integral             1     'h0               
#   hexcl             integral             1     'h0               
#   hmaster           integral             1     'd0               
#   htrans            string               4     IDLE              
#   hwrite            string               4     READ              
#   hreadyout         integral             1     'h1               
#   hresp             string               0     ""                
#   hexokay           integral             1     'h0               
#   hready            integral             1     'h0               
#   choosePacketData  integral             1     'd0               
# -----------------------------------------------------------------
# ENTERED THIS BLOCK @25
# ENTERED THIS BLOCK @25
# [25] slave_hwdata_stable[0] = 5ca8ebb9
#  1st hwdata = 5ca8ebb9
# [25] ahbSlaveInterface[0].haddr = 656
#  2nd hwdata = 5ca8ebb9
#  1st hwdata = x
# [25] ahbSlaveInterface[1].haddr = x
#  2nd hwdata = x
# [25] 3rd  slave_data_phase.[0].haddr = 656
# ** Info: THE REQ IS 1 for the slave 0
#    Time: 26 ns  Scope: HdlTop.ahbinterconnect.genblk5[0].genblk1[0] File: ../../src/hdlTop/interconnect/AhbInterconnect.sv Line: 192
# ** Info: THE GRANT IS 1 for the slave 0 addr is 660 for master 0
#    Time: 26 ns  Scope: HdlTop.ahbinterconnect.genblk5[0].genblk1[0] File: ../../src/hdlTop/interconnect/AhbInterconnect.sv Line: 193
# ** Info: THE REQ IS x for the slave 1
#    Time: 26 ns  Scope: HdlTop.ahbinterconnect.genblk5[1].genblk1[0] File: ../../src/hdlTop/interconnect/AhbInterconnect.sv Line: 192
# ** Info: THE GRANT IS x for the slave 1 addr is 660 for master 0
#    Time: 26 ns  Scope: HdlTop.ahbinterconnect.genblk5[1].genblk1[0] File: ../../src/hdlTop/interconnect/AhbInterconnect.sv Line: 193
# slave number 0 address 660
# slave number 0 address 660
# [26] master_pipeline[0][master_wr_ptr[0]].haddr = 656
# slave number 0 address 660
# 26 check slave_hreadyout[0] = 0
# last grant s=0 m=0 g==1
#                   26else hready 0 master [0] can_accept=1 oldest_is_ready=0
# ENTERED THIS BLOCK @26
# [26] slave_hwdata_stable[0] = 5ca8ebb9
#                   26 3rd block can accept=1 slave=1
# slave_has_owner = x slave = 1 
# ** Info: THE REQ IS 1 for the slave 0
#    Time: 26 ns  Scope: HdlTop.ahbinterconnect.genblk5[0].genblk1[0] File: ../../src/hdlTop/interconnect/AhbInterconnect.sv Line: 192
# ** Info: THE GRANT IS x for the slave 0 addr is 660 for master 0
#    Time: 26 ns  Scope: HdlTop.ahbinterconnect.genblk5[0].genblk1[0] File: ../../src/hdlTop/interconnect/AhbInterconnect.sv Line: 193
# ** Info: THE REQ IS x for the slave 1
#    Time: 26 ns  Scope: HdlTop.ahbinterconnect.genblk5[1].genblk1[0] File: ../../src/hdlTop/interconnect/AhbInterconnect.sv Line: 192
# ** Info: THE GRANT IS x for the slave 1 addr is 660 for master 0
#    Time: 26 ns  Scope: HdlTop.ahbinterconnect.genblk5[1].genblk1[0] File: ../../src/hdlTop/interconnect/AhbInterconnect.sv Line: 193
# 26 check slave_hreadyout[0] = 0
#                   26else hready 0 master [0] can_accept=0 oldest_is_ready=0
# ENTERED THIS BLOCK @26
# 26 check slave_hreadyout[0] = 0
#                   26else hready 0 master [0] can_accept=0 oldest_is_ready=0
# [35] my_slave = 1, my_read_owner = x
# [35] my_slave = 0, my_read_owner = 0
# [45] my_slave = 0, my_read_owner = 0
# [45] my_slave = 1, my_read_owner = x
# [55] my_slave = 1, my_read_owner = x
# [55] my_slave = 0, my_read_owner = 0
# 55 NEW DATA TO BE WRITTEN IS 5ca8ebb9 at address  = 656 slave id=0
# 55 ||normal reg[0]:b9 656
# 55 ||normal reg[1]:eb 656
# 55 ||normal reg[2]:a8 656
# 55 ||normal reg[3]:5c 656
#                   55old one done 0 
# 56 check slave_hreadyout[0] = 1
#                   56else hready 0 master [0] can_accept=0 oldest_is_ready=1
# ENTERED THIS BLOCK @56
#                   56 3rd block can accept=1 slave=0
# slave_has_owner = x slave = 0 
# dead case s:          0 | m:          0
#                   56 inside 3rd block master_request[s=0][m= 0] htrans=3
#                   56 3rd block grant 1
# ** Info: THE REQ IS 1 for the slave 0
#    Time: 56 ns  Scope: HdlTop.ahbinterconnect.genblk5[0].genblk1[0] File: ../../src/hdlTop/interconnect/AhbInterconnect.sv Line: 192
# ** Info: THE GRANT IS 1 for the slave 0 addr is 660 for master 0
#    Time: 56 ns  Scope: HdlTop.ahbinterconnect.genblk5[0].genblk1[0] File: ../../src/hdlTop/interconnect/AhbInterconnect.sv Line: 193
# ** Info: THE REQ IS x for the slave 1
#    Time: 56 ns  Scope: HdlTop.ahbinterconnect.genblk5[1].genblk1[0] File: ../../src/hdlTop/interconnect/AhbInterconnect.sv Line: 192
# ** Info: THE GRANT IS x for the slave 1 addr is 660 for master 0
#    Time: 56 ns  Scope: HdlTop.ahbinterconnect.genblk5[1].genblk1[0] File: ../../src/hdlTop/interconnect/AhbInterconnect.sv Line: 193
# [56] master_pipeline[0][master_wr_ptr[0]].haddr = 656
# slave number 0 address 660
# 56 check slave_hreadyout[0] = 1
# last grant s=0 m=0 g==1
#                   56else hready 1 master [0] can_accept=1 oldest_is_ready=1
# ENTERED THIS BLOCK @56
# [56] slave_hwdata_stable[0] = 5ca8ebb9
#  1st hwdata = 5ca8ebb9
# [56] ahbSlaveInterface[0].haddr = 660
#  2nd hwdata = 5ca8ebb9
#  1st hwdata = x
# [56] ahbSlaveInterface[1].haddr = x
#  2nd hwdata = x
# 56 check slave_hreadyout[0] = 1
# last grant s=0 m=0 g==1
#                   56else hready 1 master [0] can_accept=1 oldest_is_ready=1
# [56] 3rd  slave_data_phase.[0].haddr = 660
#                   65 first master_grant[slaveloop=0][masterloop=0]=1
# [65] current_owner[0] = 0
# [65] new_c_owner[0] = 0
# [65] my_slave = 0, my_read_owner = 0
# [65] my_slave = 1, my_read_owner = x
#                   65 2nd else if block can_accept=1 htrans=3 slave_has_owner=1
#                   65 2nd blk grant 1 alsve=0
# ** Info: THE REQ IS 1 for the slave 0
#    Time: 65 ns  Scope: HdlTop.ahbinterconnect.genblk5[0].genblk1[0] File: ../../src/hdlTop/interconnect/AhbInterconnect.sv Line: 192
# ** Info: THE GRANT IS 1 for the slave 0 addr is 660 for master 0
#    Time: 65 ns  Scope: HdlTop.ahbinterconnect.genblk5[0].genblk1[0] File: ../../src/hdlTop/interconnect/AhbInterconnect.sv Line: 193
# ** Info: THE REQ IS x for the slave 1
#    Time: 65 ns  Scope: HdlTop.ahbinterconnect.genblk5[1].genblk1[0] File: ../../src/hdlTop/interconnect/AhbInterconnect.sv Line: 192
# ** Info: THE GRANT IS x for the slave 1 addr is 660 for master 0
#    Time: 65 ns  Scope: HdlTop.ahbinterconnect.genblk5[1].genblk1[0] File: ../../src/hdlTop/interconnect/AhbInterconnect.sv Line: 193
# [65] master_pipeline[0][master_wr_ptr[0]].haddr = 660
# slave number 0 address 660
# 65 check slave_hreadyout[0] = 1
# last grant s=0 m=0 g==1
#                   65else hready 1 master [0] can_accept=1 oldest_is_ready=1
# ishika 65 haddr = 290
# [65] from master monitor = haddr=660
# UVM_INFO ../../src/hvlTop/masterAgent/AhbMasterMonitorProxy.sv(72) @ 65: uvm_test_top.swasthik.ahbMasterAgent[0].ahbMasterMonitorProxy [AhbMasterMonitorProxy] Sending packet via analysis_port: , 
#  -------------------------------------------------------------------------------
# Name                      Type                  Size  Value                    
# -------------------------------------------------------------------------------
# ahbMasterPacket           AhbMasterTransaction  -     @1498                    
#   haddr                   integral              32    'h290                    
#   hselx                   integral              2     'b0                      
#   hburst                  string                6     INCR16                   
#   hmastlock               integral              1     'h0                      
#   hprot                   string                25    NORMAL_SECURE_INSTRUCTION
#   hsize                   string                4     WORD                     
#   hnonsec                 integral              1     'h0                      
#   hexcl                   integral              1     'h0                      
#   hmaster                 integral              1     'd0                      
#   htrans                  string                6     NONSEQ                   
#   hwrite                  string                5     WRITE                    
#   hreadyout               integral              1     'h0                      
#   hresp                   string                4     OKAY                     
#   hexokay                 integral              1     'h0                      
#   hready                  integral              1     'h0                      
#   noOfwaitStatesDetected  integral              32    'h0                      
#   hwdata[0]               integral              32    'h5ca8ebb9               
#   hwstrb[0]               integral              4     'b1111                   
# -------------------------------------------------------------------------------
# 
# UVM_INFO ../../src/hvlTop/masterAgent/AhbMasterCoverage.sv(107) @ 65: uvm_test_top.swasthik.ahbMasterAgent[0].ahbMasterCoverage [AhbMasterCoverage] Before calling SAMPLE METHOD
# UVM_INFO ../../src/hvlTop/masterAgent/AhbMasterCoverage.sv(109) @ 65: uvm_test_top.swasthik.ahbMasterAgent[0].ahbMasterCoverage [AhbMasterCoverage] After calling SAMPLE METHOD
# HEY I AM INSIDE BURST
# ishika 65 haddr = 290
# UVM_INFO ../../src/hvlTop/slaveAgent/AhbSlaveMonitorProxy.sv(74) @ 65: uvm_test_top.swasthik.ahbSlaveAgent[0].ahbSlaveMonitorProxy [AhbSlaveMonitorProxy] Sending packet via analysis_port: , 
#  ------------------------------------------------------------------------
# Name                Type                 Size  Value                    
# ------------------------------------------------------------------------
# slave Packet        AhbSlaveTransaction  -     @1502                    
#   haddr             integral             32    'h290                    
#   hselx             integral             2     'b1                      
#   hburst            string               6     INCR16                   
#   hmastlock         integral             1     'h0                      
#   hprot             string               25    NORMAL_SECURE_INSTRUCTION
#   hsize             string               4     WORD                     
#   hnonsec           integral             1     'h0                      
#   hexcl             integral             1     'h0                      
#   hmaster           integral             1     'd0                      
#   htrans            string               6     NONSEQ                   
#   hwrite            string               5     WRITE                    
#   hreadyout         integral             1     'h1                      
#   hresp             string               0     ""                       
#   hexokay           integral             1     'h0                      
#   hready            integral             1     'h0                      
#   choosePacketData  integral             1     'd0                      
#   hwdata[0]         integral             32    'h5ca8ebb9               
#   hwstrb[0]         integral             4     'b0                      
# ------------------------------------------------------------------------
# 
# UVM_INFO ../../src/hvlTop/slaveAgent/AhbSlaveCoverage.sv(39) @ 65: uvm_test_top.swasthik.ahbSlaveAgent[0].ahbSlaveCoverage [AhbSlaveCoverage] AHB SLAVE COVERAGE
# CONNVERTER NO OF WAIT STATES IS 3
#                   65new call 0
# [65] run phase got m_tx haddr=656, mtx=1, htrans= 2 
# -------------------------------------------------------------------------------
# Name                      Type                  Size  Value                    
# -------------------------------------------------------------------------------
# ahbMasterPacket           AhbMasterTransaction  -     @1498                    
#   haddr                   integral              32    'h290                    
#   hselx                   integral              2     'b0                      
#   hburst                  string                6     INCR16                   
#   hmastlock               integral              1     'h0                      
#   hprot                   string                25    NORMAL_SECURE_INSTRUCTION
#   hsize                   string                4     WORD                     
#   hnonsec                 integral              1     'h0                      
#   hexcl                   integral              1     'h0                      
#   hmaster                 integral              1     'd0                      
#   htrans                  string                6     NONSEQ                   
#   hwrite                  string                5     WRITE                    
#   hreadyout               integral              1     'h0                      
#   hresp                   string                4     OKAY                     
#   hexokay                 integral              1     'h0                      
#   hready                  integral              1     'h0                      
#   noOfwaitStatesDetected  integral              32    'h0                      
#   hwdata[0]               integral              32    'h5ca8ebb9               
#   hwstrb[0]               integral              4     'b1111                   
# -------------------------------------------------------------------------------
# [65] Master 0 requested Slave 0 addr=656, master_requested_q = '{0:'{0} }
# [65] QUEUE[0]='{0} , rr_pointer=0
# [65] Checking master 0
# [65] GRANT=0 , NEW rr_pointer=0 , UPDATED QUEUE='{}
# [65] MASTER: predicted grant=0 for slave 0 haddr = 656
# UVM_INFO ../../src/hvlTop/environment/AhbScoreboard.sv(188) @ 65: uvm_test_top.swasthik.ahbScoreboard [REF_MODEL_WRITE] SLAVE=0 ADDR=0x290 DATA=0xb9 (beat=0 byte=0)
# data written in ref model='{1554574265} for addr=00000290
# UVM_INFO ../../src/hvlTop/environment/AhbScoreboard.sv(188) @ 65: uvm_test_top.swasthik.ahbScoreboard [REF_MODEL_WRITE] SLAVE=0 ADDR=0x291 DATA=0xeb (beat=0 byte=1)
# data written in ref model='{1554574265} for addr=00000290
# UVM_INFO ../../src/hvlTop/environment/AhbScoreboard.sv(188) @ 65: uvm_test_top.swasthik.ahbScoreboard [REF_MODEL_WRITE] SLAVE=0 ADDR=0x292 DATA=0xa8 (beat=0 byte=2)
# data written in ref model='{1554574265} for addr=00000290
# UVM_INFO ../../src/hvlTop/environment/AhbScoreboard.sv(188) @ 65: uvm_test_top.swasthik.ahbScoreboard [REF_MODEL_WRITE] SLAVE=0 ADDR=0x293 DATA=0x5c (beat=0 byte=3)
# data written in ref model='{1554574265} for addr=00000290
# run phase got s_tx
# ------------------------------------------------------------------------
# Name                Type                 Size  Value                    
# ------------------------------------------------------------------------
# slave Packet        AhbSlaveTransaction  -     @1502                    
#   haddr             integral             32    'h290                    
#   hselx             integral             2     'b1                      
#   hburst            string               6     INCR16                   
#   hmastlock         integral             1     'h0                      
#   hprot             string               25    NORMAL_SECURE_INSTRUCTION
#   hsize             string               4     WORD                     
#   hnonsec           integral             1     'h0                      
#   hexcl             integral             1     'h0                      
#   hmaster           integral             1     'd0                      
#   htrans            string               6     NONSEQ                   
#   hwrite            string               5     WRITE                    
#   hreadyout         integral             1     'h1                      
#   hresp             string               0     ""                       
#   hexokay           integral             1     'h0                      
#   hready            integral             1     'h0                      
#   choosePacketData  integral             1     'd0                      
#   hwdata[0]         integral             32    'h5ca8ebb9               
#   hwstrb[0]         integral             4     'b0                      
# ------------------------------------------------------------------------
# expected_grant_q = '{0:'{} }
# [65] SLAVE: addr=656 exp_master=0 
# -------------------------------------------------------------------------------
# Name                      Type                  Size  Value                    
# -------------------------------------------------------------------------------
# ahbMasterPacket           AhbMasterTransaction  -     @1506                    
#   haddr                   integral              32    'h290                    
#   hselx                   integral              2     'b0                      
#   hburst                  string                6     INCR16                   
#   hmastlock               integral              1     'h0                      
#   hprot                   string                25    NORMAL_SECURE_INSTRUCTION
#   hsize                   string                4     WORD                     
#   hnonsec                 integral              1     'h0                      
#   hexcl                   integral              1     'h0                      
#   hmaster                 integral              1     'd0                      
#   htrans                  string                6     NONSEQ                   
#   hwrite                  string                5     WRITE                    
#   hreadyout               integral              1     'h0                      
#   hresp                   string                4     OKAY                     
#   hexokay                 integral              1     'h0                      
#   hready                  integral              1     'h0                      
#   noOfwaitStatesDetected  integral              32    'h0                      
#   hwdata[0]               integral              32    'h5ca8ebb9               
#   hwstrb[0]               integral              4     'b1111                   
# -------------------------------------------------------------------------------
# NIHAL EXP
# ------------------------------------------------------------------------
# Name                Type                 Size  Value                    
# ------------------------------------------------------------------------
# slave Packet        AhbSlaveTransaction  -     @1502                    
#   haddr             integral             32    'h290                    
#   hselx             integral             2     'b1                      
#   hburst            string               6     INCR16                   
#   hmastlock         integral             1     'h0                      
#   hprot             string               25    NORMAL_SECURE_INSTRUCTION
#   hsize             string               4     WORD                     
#   hnonsec           integral             1     'h0                      
#   hexcl             integral             1     'h0                      
#   hmaster           integral             1     'd0                      
#   htrans            string               6     NONSEQ                   
#   hwrite            string               5     WRITE                    
#   hreadyout         integral             1     'h1                      
#   hresp             string               0     ""                       
#   hexokay           integral             1     'h0                      
#   hready            integral             1     'h0                      
#   choosePacketData  integral             1     'd0                      
#   hwdata[0]         integral             32    'h5ca8ebb9               
#   hwstrb[0]         integral             4     'b0                      
# ------------------------------------------------------------------------
# NIHAL S_tx
# UVM_INFO ../../src/hvlTop/environment/AhbScoreboard.sv(530) @ 65: uvm_test_top.swasthik.ahbScoreboard [AhbScoreboard] ---------------- AHB SCOREBOARD [WRITE] ----------------
# UVM_INFO ../../src/hvlTop/environment/AhbScoreboard.sv(535) @ 65: uvm_test_top.swasthik.ahbScoreboard [SB_HADDR_MATCH] HADDR Match: 00000290, s_idx = 0
# UVM_INFO ../../src/hvlTop/environment/AhbScoreboard.sv(563) @ 65: uvm_test_top.swasthik.ahbScoreboard [SB_HWDATA_MATCH] HWDATA match at beat 0: 5ca8ebb9, s_idx = 0
# UVM_INFO ../../src/hvlTop/environment/AhbScoreboard.sv(613) @ 65: uvm_test_top.swasthik.ahbScoreboard [SB_HPROT_MATCH] HPROT Match
# UVM_INFO ../../src/hvlTop/environment/AhbScoreboard.sv(619) @ 65: uvm_test_top.swasthik.ahbScoreboard [SB_HSIZE_MATCH] HSIZE Match
# UVM_INFO ../../src/hvlTop/environment/AhbScoreboard.sv(625) @ 65: uvm_test_top.swasthik.ahbScoreboard [AhbScoreboard] -------------- END WRITE COMPARISON ----------------
# sending to compare
# exp_tx
# -------------------------------------------------------------------------------
# Name                      Type                  Size  Value                    
# -------------------------------------------------------------------------------
# ahbMasterPacket           AhbMasterTransaction  -     @1506                    
#   haddr                   integral              32    'h290                    
#   hselx                   integral              2     'b0                      
#   hburst                  string                6     INCR16                   
#   hmastlock               integral              1     'h0                      
#   hprot                   string                25    NORMAL_SECURE_INSTRUCTION
#   hsize                   string                4     WORD                     
#   hnonsec                 integral              1     'h0                      
#   hexcl                   integral              1     'h0                      
#   hmaster                 integral              1     'd0                      
#   htrans                  string                6     NONSEQ                   
#   hwrite                  string                5     WRITE                    
#   hreadyout               integral              1     'h0                      
#   hresp                   string                4     OKAY                     
#   hexokay                 integral              1     'h0                      
#   hready                  integral              1     'h0                      
#   noOfwaitStatesDetected  integral              32    'h0                      
#   hwdata[0]               integral              32    'h5ca8ebb9               
#   hwstrb[0]               integral              4     'b1111                   
# -------------------------------------------------------------------------------
# s_tx
# ------------------------------------------------------------------------
# Name                Type                 Size  Value                    
# ------------------------------------------------------------------------
# slave Packet        AhbSlaveTransaction  -     @1502                    
#   haddr             integral             32    'h290                    
#   hselx             integral             2     'b1                      
#   hburst            string               6     INCR16                   
#   hmastlock         integral             1     'h0                      
#   hprot             string               25    NORMAL_SECURE_INSTRUCTION
#   hsize             string               4     WORD                     
#   hnonsec           integral             1     'h0                      
#   hexcl             integral             1     'h0                      
#   hmaster           integral             1     'd0                      
#   htrans            string               6     NONSEQ                   
#   hwrite            string               5     WRITE                    
#   hreadyout         integral             1     'h1                      
#   hresp             string               0     ""                       
#   hexokay           integral             1     'h0                      
#   hready            integral             1     'h0                      
#   choosePacketData  integral             1     'd0                      
#   hwdata[0]         integral             32    'h5ca8ebb9               
#   hwstrb[0]         integral             4     'b0                      
# ------------------------------------------------------------------------
# ENTERED THIS BLOCK @65
# ENTERED THIS BLOCK @65
# [65] slave_hwdata_stable[0] = cf60beee
#  1st hwdata = cf60beee
# [65] ahbSlaveInterface[0].haddr = 660
#  2nd hwdata = cf60beee
#  1st hwdata = x
# [65] ahbSlaveInterface[1].haddr = x
#  2nd hwdata = x
# [65] 2nd  slave_data_phase.[0].haddr = 660
# ** Info: THE REQ IS 1 for the slave 0
#    Time: 66 ns  Scope: HdlTop.ahbinterconnect.genblk5[0].genblk1[0] File: ../../src/hdlTop/interconnect/AhbInterconnect.sv Line: 192
# ** Info: THE GRANT IS 1 for the slave 0 addr is 664 for master 0
#    Time: 66 ns  Scope: HdlTop.ahbinterconnect.genblk5[0].genblk1[0] File: ../../src/hdlTop/interconnect/AhbInterconnect.sv Line: 193
# ** Info: THE REQ IS x for the slave 1
#    Time: 66 ns  Scope: HdlTop.ahbinterconnect.genblk5[1].genblk1[0] File: ../../src/hdlTop/interconnect/AhbInterconnect.sv Line: 192
# ** Info: THE GRANT IS x for the slave 1 addr is 664 for master 0
#    Time: 66 ns  Scope: HdlTop.ahbinterconnect.genblk5[1].genblk1[0] File: ../../src/hdlTop/interconnect/AhbInterconnect.sv Line: 193
# slave number 0 address 664
# slave number 0 address 664
# [66] master_pipeline[0][master_wr_ptr[0]].haddr = 660
# slave number 0 address 664
# 66 check slave_hreadyout[0] = 0
# last grant s=0 m=0 g==1
#                   66else hready 0 master [0] can_accept=1 oldest_is_ready=0
# ENTERED THIS BLOCK @66
# [66] slave_hwdata_stable[0] = cf60beee
#                   66 3rd block can accept=1 slave=1
# slave_has_owner = x slave = 1 
# ** Info: THE REQ IS 1 for the slave 0
#    Time: 66 ns  Scope: HdlTop.ahbinterconnect.genblk5[0].genblk1[0] File: ../../src/hdlTop/interconnect/AhbInterconnect.sv Line: 192
# ** Info: THE GRANT IS x for the slave 0 addr is 664 for master 0
#    Time: 66 ns  Scope: HdlTop.ahbinterconnect.genblk5[0].genblk1[0] File: ../../src/hdlTop/interconnect/AhbInterconnect.sv Line: 193
# ** Info: THE REQ IS x for the slave 1
#    Time: 66 ns  Scope: HdlTop.ahbinterconnect.genblk5[1].genblk1[0] File: ../../src/hdlTop/interconnect/AhbInterconnect.sv Line: 192
# ** Info: THE GRANT IS x for the slave 1 addr is 664 for master 0
#    Time: 66 ns  Scope: HdlTop.ahbinterconnect.genblk5[1].genblk1[0] File: ../../src/hdlTop/interconnect/AhbInterconnect.sv Line: 193
# 66 check slave_hreadyout[0] = 0
#                   66else hready 0 master [0] can_accept=0 oldest_is_ready=0
# ENTERED THIS BLOCK @66
# 66 check slave_hreadyout[0] = 0
#                   66else hready 0 master [0] can_accept=0 oldest_is_ready=0
# [75] my_slave = 1, my_read_owner = x
# [75] my_slave = 0, my_read_owner = 0
# [85] my_slave = 0, my_read_owner = 0
# [85] my_slave = 1, my_read_owner = x
# [95] my_slave = 1, my_read_owner = x
# [95] my_slave = 0, my_read_owner = 0
# 95 NEW DATA TO BE WRITTEN IS cf60beee at address  = 660 slave id=0
# 95 ||normal reg[0]:ee 660
# 95 ||normal reg[1]:be 660
# 95 ||normal reg[2]:60 660
# 95 ||normal reg[3]:cf 660
#                   95old one done 0 
# 96 check slave_hreadyout[0] = 1
#                   96else hready 0 master [0] can_accept=0 oldest_is_ready=1
# ENTERED THIS BLOCK @96
#                   96 3rd block can accept=1 slave=0
# slave_has_owner = x slave = 0 
# dead case s:          0 | m:          0
#                   96 inside 3rd block master_request[s=0][m= 0] htrans=3
#                   96 3rd block grant 1
# ** Info: THE REQ IS 1 for the slave 0
#    Time: 96 ns  Scope: HdlTop.ahbinterconnect.genblk5[0].genblk1[0] File: ../../src/hdlTop/interconnect/AhbInterconnect.sv Line: 192
# ** Info: THE GRANT IS 1 for the slave 0 addr is 664 for master 0
#    Time: 96 ns  Scope: HdlTop.ahbinterconnect.genblk5[0].genblk1[0] File: ../../src/hdlTop/interconnect/AhbInterconnect.sv Line: 193
# ** Info: THE REQ IS x for the slave 1
#    Time: 96 ns  Scope: HdlTop.ahbinterconnect.genblk5[1].genblk1[0] File: ../../src/hdlTop/interconnect/AhbInterconnect.sv Line: 192
# ** Info: THE GRANT IS x for the slave 1 addr is 664 for master 0
#    Time: 96 ns  Scope: HdlTop.ahbinterconnect.genblk5[1].genblk1[0] File: ../../src/hdlTop/interconnect/AhbInterconnect.sv Line: 193
# [96] master_pipeline[0][master_wr_ptr[0]].haddr = 660
# slave number 0 address 664
# 96 check slave_hreadyout[0] = 1
# last grant s=0 m=0 g==1
#                   96else hready 1 master [0] can_accept=1 oldest_is_ready=1
# ENTERED THIS BLOCK @96
# [96] slave_hwdata_stable[0] = cf60beee
#  1st hwdata = cf60beee
# [96] ahbSlaveInterface[0].haddr = 664
#  2nd hwdata = cf60beee
#  1st hwdata = x
# [96] ahbSlaveInterface[1].haddr = x
#  2nd hwdata = x
# 96 check slave_hreadyout[0] = 1
# last grant s=0 m=0 g==1
#                   96else hready 1 master [0] can_accept=1 oldest_is_ready=1
# [96] 3rd  slave_data_phase.[0].haddr = 664
#                  105 first master_grant[slaveloop=0][masterloop=0]=1
# [105] current_owner[0] = 0
# [105] new_c_owner[0] = 0
# [105] my_slave = 0, my_read_owner = 0
# [105] my_slave = 1, my_read_owner = x
#                  105 2nd else if block can_accept=1 htrans=3 slave_has_owner=1
#                  105 2nd blk grant 1 alsve=0
# ** Info: THE REQ IS 1 for the slave 0
#    Time: 105 ns  Scope: HdlTop.ahbinterconnect.genblk5[0].genblk1[0] File: ../../src/hdlTop/interconnect/AhbInterconnect.sv Line: 192
# ** Info: THE GRANT IS 1 for the slave 0 addr is 664 for master 0
#    Time: 105 ns  Scope: HdlTop.ahbinterconnect.genblk5[0].genblk1[0] File: ../../src/hdlTop/interconnect/AhbInterconnect.sv Line: 193
# ** Info: THE REQ IS x for the slave 1
#    Time: 105 ns  Scope: HdlTop.ahbinterconnect.genblk5[1].genblk1[0] File: ../../src/hdlTop/interconnect/AhbInterconnect.sv Line: 192
# ** Info: THE GRANT IS x for the slave 1 addr is 664 for master 0
#    Time: 105 ns  Scope: HdlTop.ahbinterconnect.genblk5[1].genblk1[0] File: ../../src/hdlTop/interconnect/AhbInterconnect.sv Line: 193
# [105] master_pipeline[0][master_wr_ptr[0]].haddr = 664
# slave number 0 address 664
# 105 check slave_hreadyout[0] = 1
# last grant s=0 m=0 g==1
#                  105else hready 1 master [0] can_accept=1 oldest_is_ready=1
# ishika 105 haddr = 294
# [105] from master monitor = haddr=664
# UVM_INFO ../../src/hvlTop/masterAgent/AhbMasterMonitorProxy.sv(72) @ 105: uvm_test_top.swasthik.ahbMasterAgent[0].ahbMasterMonitorProxy [AhbMasterMonitorProxy] Sending packet via analysis_port: , 
#  -------------------------------------------------------------------------------
# Name                      Type                  Size  Value                    
# -------------------------------------------------------------------------------
# ahbMasterPacket           AhbMasterTransaction  -     @1510                    
#   haddr                   integral              32    'h294                    
#   hselx                   integral              2     'b0                      
#   hburst                  string                6     INCR16                   
#   hmastlock               integral              1     'h0                      
#   hprot                   string                25    NORMAL_SECURE_INSTRUCTION
#   hsize                   string                4     WORD                     
#   hnonsec                 integral              1     'h0                      
#   hexcl                   integral              1     'h0                      
#   hmaster                 integral              1     'd0                      
#   htrans                  string                3     SEQ                      
#   hwrite                  string                5     WRITE                    
#   hreadyout               integral              1     'h0                      
#   hresp                   string                4     OKAY                     
#   hexokay                 integral              1     'h0                      
#   hready                  integral              1     'h0                      
#   noOfwaitStatesDetected  integral              32    'h0                      
#   hwdata[0]               integral              32    'hcf60beee               
#   hwstrb[0]               integral              4     'b1111                   
# -------------------------------------------------------------------------------
# 
# UVM_INFO ../../src/hvlTop/masterAgent/AhbMasterCoverage.sv(107) @ 105: uvm_test_top.swasthik.ahbMasterAgent[0].ahbMasterCoverage [AhbMasterCoverage] Before calling SAMPLE METHOD
# UVM_INFO ../../src/hvlTop/masterAgent/AhbMasterCoverage.sv(109) @ 105: uvm_test_top.swasthik.ahbMasterAgent[0].ahbMasterCoverage [AhbMasterCoverage] After calling SAMPLE METHOD
# HEY I AM INSIDE BURST
# ishika 105 haddr = 294
# UVM_INFO ../../src/hvlTop/slaveAgent/AhbSlaveMonitorProxy.sv(74) @ 105: uvm_test_top.swasthik.ahbSlaveAgent[0].ahbSlaveMonitorProxy [AhbSlaveMonitorProxy] Sending packet via analysis_port: , 
#  ------------------------------------------------------------------------
# Name                Type                 Size  Value                    
# ------------------------------------------------------------------------
# slave Packet        AhbSlaveTransaction  -     @1514                    
#   haddr             integral             32    'h294                    
#   hselx             integral             2     'b1                      
#   hburst            string               6     INCR16                   
#   hmastlock         integral             1     'h0                      
#   hprot             string               25    NORMAL_SECURE_INSTRUCTION
#   hsize             string               4     WORD                     
#   hnonsec           integral             1     'h0                      
#   hexcl             integral             1     'h0                      
#   hmaster           integral             1     'd0                      
#   htrans            string               3     SEQ                      
#   hwrite            string               5     WRITE                    
#   hreadyout         integral             1     'h1                      
#   hresp             string               0     ""                       
#   hexokay           integral             1     'h0                      
#   hready            integral             1     'h0                      
#   choosePacketData  integral             1     'd0                      
#   hwdata[0]         integral             32    'hcf60beee               
#   hwstrb[0]         integral             4     'b0                      
# ------------------------------------------------------------------------
# 
# UVM_INFO ../../src/hvlTop/slaveAgent/AhbSlaveCoverage.sv(39) @ 105: uvm_test_top.swasthik.ahbSlaveAgent[0].ahbSlaveCoverage [AhbSlaveCoverage] AHB SLAVE COVERAGE
# CONNVERTER NO OF WAIT STATES IS 3
#                  105new call 0
# [105] run phase got m_tx haddr=660, mtx=1, htrans= 3 
# -------------------------------------------------------------------------------
# Name                      Type                  Size  Value                    
# -------------------------------------------------------------------------------
# ahbMasterPacket           AhbMasterTransaction  -     @1510                    
#   haddr                   integral              32    'h294                    
#   hselx                   integral              2     'b0                      
#   hburst                  string                6     INCR16                   
#   hmastlock               integral              1     'h0                      
#   hprot                   string                25    NORMAL_SECURE_INSTRUCTION
#   hsize                   string                4     WORD                     
#   hnonsec                 integral              1     'h0                      
#   hexcl                   integral              1     'h0                      
#   hmaster                 integral              1     'd0                      
#   htrans                  string                3     SEQ                      
#   hwrite                  string                5     WRITE                    
#   hreadyout               integral              1     'h0                      
#   hresp                   string                4     OKAY                     
#   hexokay                 integral              1     'h0                      
#   hready                  integral              1     'h0                      
#   noOfwaitStatesDetected  integral              32    'h0                      
#   hwdata[0]               integral              32    'hcf60beee               
#   hwstrb[0]               integral              4     'b1111                   
# -------------------------------------------------------------------------------
# [105] Master 0 requested Slave 0 addr=660, master_requested_q = '{0:'{0} }
# [105] MASTER: predicted grant=0 for slave 0 haddr = 660
# UVM_INFO ../../src/hvlTop/environment/AhbScoreboard.sv(188) @ 105: uvm_test_top.swasthik.ahbScoreboard [REF_MODEL_WRITE] SLAVE=0 ADDR=0x294 DATA=0xee (beat=0 byte=0)
