# vsim -vopt work.HvlTop work.HdlTop -voptargs="+acc=npr" -sv_seed random -assertdebug "+UVM_TESTNAME=AhbSingleWriteTest" "+UVM_VERBOSITY=UVM_HIGH" "+define+" -l AhbSingleWriteTest/AhbSingleWriteTest.log -sva -coverage -c -do "log -r /*; add wave -r /*; coverage save -onexit -assert -directive -cvg -codeAll AhbSingleWriteTest/AhbSingleWriteTest_coverage.ucdb; run -all; exit" -wlf AhbSingleWriteTest/waveform.wlf 
# Start time: 15:32:24 on Mar 09,2026
# ** Note: (vsim-3812) Design is being optimized...
# ** Warning: ../../src/hdlTop/interconnect/AhbInterconnect.sv(204): (vopt-2182) 'slave_data_phase[0][0]' might be read before written in always_comb or always @* block.
# ** Warning: ../../src/hdlTop/interconnect/AhbInterconnect.sv(204): (vopt-2182) 'slave_data_phase[1][0]' might be read before written in always_comb or always @* block.
# ** Warning: ../../src/hvlTop/tb/test/AhbBaseTest.sv(63): (vopt-2240) Treating stand-alone use of function 'randomize' as an implicit VOID cast.
# //  Questa Sim
# //  Version 10.6c linux Jul 25 2017
# //
# //  Copyright 1991-2017 Mentor Graphics Corporation
# //  All Rights Reserved.
# //
# //  QuestaSim and its associated documentation contain trade
# //  secrets and commercial or financial information that are the property of
# //  Mentor Graphics Corporation and are privileged, confidential,
# //  and exempt from disclosure under the Freedom of Information Act,
# //  5 U.S.C. Section 552. Furthermore, this information
# //  is prohibited from disclosure under the Trade Secrets Act,
# //  18 U.S.C. Section 1905.
# //
# Loading sv_std.std
# Loading work.AhbMasterDriverBFM(fast)
# Loading work.AhbSlaveMonitorBFM(fast)
# Loading work.AhbGlobalPackage(fast)
# Loading mtiUvm.uvm_pkg
# Loading work.AhbSlavePackage(fast)
# Loading work.AhbMasterPackage(fast)
# Loading work.AhbEnvironmentPackage(fast)
# Loading work.AhbSlaveSequencePackage(fast)
# Loading work.AhbMasterSequencePackage(fast)
# Loading work.AhbVirtualSequencePackage(fast)
# Loading work.AhbTestPackage(fast)
# Loading work.AhbMasterMonitorBFM(fast)
# Loading work.AhbSlaveDriverBFM(fast)
# Loading work.HvlTop(fast)
# Loading work.HdlTop(fast)
# Loading work.AhbInterconnect_sv_unit(fast)
# Loading work.AhbInterconnect(fast)
# Loading work.AhbMasterAgentBFM(fast)
# Loading work.AhbMasterDriverBFM_sv_unit(fast)
# Loading work.AhbMasterDriverBFM(fast)
# Loading work.AhbMasterMonitorBFM_sv_unit(fast)
# Loading work.AhbMasterMonitorBFM(fast)
# Loading work.AhbMasterAgentBFM(fast__1)
# Loading work.AhbSlaveAgentBFM(fast)
# Loading work.AhbSlaveDriverBFM_sv_unit(fast)
# Loading work.AhbSlaveDriverBFM(fast)
# Loading work.AhbSlaveMonitorBFM_sv_unit(fast)
# Loading work.AhbSlaveMonitorBFM(fast)
# Loading work.AhbSlaveAgentBFM(fast__1)
# Loading mtiUvm.questa_uvm_pkg(fast)
# Loading work.AhbInterface_sv_unit(fast)
# Loading work.AhbInterface(fast__1)
# Loading work.AhbInterface(fast__2)
# ** Warning: (vsim-3015) ../../src/hdlTop/slaveAgentBFM/AhbSlaveAgentBFM.sv(40): [PCDPC] - Port size (2) does not match connection size (1) for port 'hselx'. The port definition is at: ../../src/hdlTop/slaveAgentBFM/AhbSlaveMonitorBFM.sv(25).
#    Time: 0 ns  Iteration: 0  Instance: /HdlTop/genblk2[0]/ahbSlaveAgentBFM/ahbSlaveMonitorBFM File: ../../src/hdlTop/slaveAgentBFM/AhbSlaveMonitorBFM.sv
# ** Warning: (vsim-3015) ../../src/hdlTop/slaveAgentBFM/AhbSlaveAgentBFM.sv(40): [PCDPC] - Port size (2) does not match connection size (1) for port 'hselx'. The port definition is at: ../../src/hdlTop/slaveAgentBFM/AhbSlaveMonitorBFM.sv(25).
#    Time: 0 ns  Iteration: 0  Instance: /HdlTop/genblk2[1]/ahbSlaveAgentBFM/ahbSlaveMonitorBFM File: ../../src/hdlTop/slaveAgentBFM/AhbSlaveMonitorBFM.sv
# Loading /tools/mentor/questasim_10.6c/questasim/uvm-1.1d/linux/uvm_dpi.so
# Sv_Seed = 2089915048
# log -r /*
#  add wave -r /*
#  coverage save -onexit -assert -directive -cvg -codeAll AhbSingleWriteTest/AhbSingleWriteTest_coverage.ucdb
#  run -all
# ----------------------------------------------------------------
# UVM-1.1d
# (C) 2007-2013 Mentor Graphics Corporation
# (C) 2007-2013 Cadence Design Systems, Inc.
# (C) 2006-2013 Synopsys, Inc.
# (C) 2011-2013 Cypress Semiconductor Corp.
# ----------------------------------------------------------------
# 
#   ***********       IMPORTANT RELEASE NOTES         ************
# 
#   You are using a version of the UVM library that has been compiled
#   with `UVM_NO_DEPRECATED undefined.
#   See http://www.eda.org/svdb/view.php?id=3313 for more details.
# 
#   You are using a version of the UVM library that has been compiled
#   with `UVM_OBJECT_MUST_HAVE_CONSTRUCTOR undefined.
#   See http://www.eda.org/svdb/view.php?id=3770 for more details.
# 
#       (Specify +UVM_NO_RELNOTES to turn off this notice)
# 
# UVM_INFO verilog_src/questa_uvm_pkg-1.2/src/questa_uvm_pkg.sv(215) @ 0: reporter [Questa UVM] QUESTA_UVM-1.2.3
# UVM_INFO verilog_src/questa_uvm_pkg-1.2/src/questa_uvm_pkg.sv(217) @ 0: reporter [Questa UVM]  questa_uvm::init(+struct)
# UVM_INFO @ 0: reporter [RNTST] Running test AhbSingleWriteTest...
# UVM_INFO ../../src/hdlTop/HdlTop.sv(13) @ 0: reporter [HDL_TOP] HDL_TOP
# UVM_INFO ../../src/hdlTop/masterAgentBFM/AhbMasterAgentBFM.sv(15) @ 0: reporter [ahb master agent bfm] AHB MASTER AGENT BFM id is 0
# THE MASTER AGENT ARE  CREATED AS EXPECTED HdlTop.genblk1[0].ahbMasterAgentBFM.ahbMasterDriverBFM.MASTER_DRIVER
# UVM_INFO ../../src/hdlTop/masterAgentBFM/AhbMasterMonitorBFM.sv(38) @ 0: reporter [AHB_MASTER_MONITOR_BFM] AHB MASTER MONITOR BFM
# UVM_INFO ../../src/hdlTop/masterAgentBFM/AhbMasterAgentBFM.sv(15) @ 0: reporter [ahb master agent bfm] AHB MASTER AGENT BFM id is 1
# THE MASTER AGENT ARE  CREATED AS EXPECTED HdlTop.genblk1[1].ahbMasterAgentBFM.ahbMasterDriverBFM.MASTER_DRIVER
# UVM_INFO ../../src/hdlTop/masterAgentBFM/AhbMasterMonitorBFM.sv(38) @ 0: reporter [AHB_MASTER_MONITOR_BFM] AHB MASTER MONITOR BFM
# UVM_INFO ../../src/hdlTop/slaveAgentBFM/AhbSlaveAgentBFM.sv(14) @ 0: reporter [ahb slave agent bfm] AHB SLAVE AGENT BFM 0
# UVM_INFO ../../src/hdlTop/slaveAgentBFM/AhbSlaveDriverBFM.sv(54) @ 0: reporter [AHB_SLAVE_DRIVER_BFM] AHB_SLAVE_DRIVER_BFM
# UVM_INFO ../../src/hdlTop/slaveAgentBFM/AhbSlaveMonitorBFM.sv(39) @ 0: reporter [AHB_SLAVE_MONITOR_BFM] AHB_SLAVE_MONITOR_BFM
# UVM_INFO ../../src/hdlTop/slaveAgentBFM/AhbSlaveAgentBFM.sv(14) @ 0: reporter [ahb slave agent bfm] AHB SLAVE AGENT BFM 1
# UVM_INFO ../../src/hdlTop/slaveAgentBFM/AhbSlaveDriverBFM.sv(54) @ 0: reporter [AHB_SLAVE_DRIVER_BFM] AHB_SLAVE_DRIVER_BFM
# UVM_INFO ../../src/hdlTop/slaveAgentBFM/AhbSlaveMonitorBFM.sv(39) @ 0: reporter [AHB_SLAVE_MONITOR_BFM] AHB_SLAVE_MONITOR_BFM
#                    0else hready 0 master [1] can_accept=0 oldest_is_ready=1
#                    0else hready 0 master [0] can_accept=0 oldest_is_ready=1
# ENTERED THIS BLOCK @0
# ENTERED THIS BLOCK @0
# ** Info: THE REQ IS x for the slave 1
#    Time: 0 ns  Scope: HdlTop.ahbinterconnect.genblk5[1].genblk1[1] File: ../../src/hdlTop/interconnect/AhbInterconnect.sv Line: 164
# ** Info: THE GRANT IS x for the slave 1 addr is x for master 1
#    Time: 0 ns  Scope: HdlTop.ahbinterconnect.genblk5[1].genblk1[1] File: ../../src/hdlTop/interconnect/AhbInterconnect.sv Line: 165
# ** Info: THE REQ IS x for the slave 1
#    Time: 0 ns  Scope: HdlTop.ahbinterconnect.genblk5[1].genblk1[0] File: ../../src/hdlTop/interconnect/AhbInterconnect.sv Line: 164
# ** Info: THE GRANT IS x for the slave 1 addr is x for master 0
#    Time: 0 ns  Scope: HdlTop.ahbinterconnect.genblk5[1].genblk1[0] File: ../../src/hdlTop/interconnect/AhbInterconnect.sv Line: 165
# ** Info: THE REQ IS x for the slave 0
#    Time: 0 ns  Scope: HdlTop.ahbinterconnect.genblk5[0].genblk1[1] File: ../../src/hdlTop/interconnect/AhbInterconnect.sv Line: 164
# ** Info: THE GRANT IS x for the slave 0 addr is x for master 1
#    Time: 0 ns  Scope: HdlTop.ahbinterconnect.genblk5[0].genblk1[1] File: ../../src/hdlTop/interconnect/AhbInterconnect.sv Line: 165
# ** Info: THE REQ IS x for the slave 0
#    Time: 0 ns  Scope: HdlTop.ahbinterconnect.genblk5[0].genblk1[0] File: ../../src/hdlTop/interconnect/AhbInterconnect.sv Line: 164
# ** Info: THE GRANT IS x for the slave 0 addr is x for master 0
#    Time: 0 ns  Scope: HdlTop.ahbinterconnect.genblk5[0].genblk1[0] File: ../../src/hdlTop/interconnect/AhbInterconnect.sv Line: 165
# invalid  address x
# invalid  address x
# invalid  address x
# invalid  address x
#                    0else hready 0 master [0] can_accept=0 oldest_is_ready=1
#                    0else hready 0 master [1] can_accept=0 oldest_is_ready=1
# ENTERED THIS BLOCK @0
# ENTERED THIS BLOCK @0
# THE MASTER FIELD IS AhbMasterDriverBFM0 
# THE MASTER FIELD IS AhbMasterDriverBFM1 
# UVM_INFO ../../src/hvlTop/tb/test/AhbBaseTest.sv(57) @ 0: uvm_test_top [AhbSingleWriteTest] 
# AHB_MASTER_CONFIG[0]
# ----------------------------------------------------------
# Name                     Type                  Size  Value
# ----------------------------------------------------------
# AhbMasterAgentConfig[0]  AhbMasterAgentConfig  -     @505 
#   is_active              integral              1     1    
#   hasCoverage            integral              1     1    
# ----------------------------------------------------------
# 
# UVM_INFO ../../src/hvlTop/tb/test/AhbBaseTest.sv(57) @ 0: uvm_test_top [AhbSingleWriteTest] 
# AHB_MASTER_CONFIG[1]
# ----------------------------------------------------------
# Name                     Type                  Size  Value
# ----------------------------------------------------------
# AhbMasterAgentConfig[1]  AhbMasterAgentConfig  -     @506 
#   is_active              integral              1     1    
#   hasCoverage            integral              1     1    
# ----------------------------------------------------------
# 
# THE FIELD IS AhbSlaveDriverBFM0
# THE FIELD IS AhbSlaveDriverBFM1
# UVM_INFO ../../src/hvlTop/tb/test/AhbBaseTest.sv(70) @ 0: uvm_test_top [AhbSingleWriteTest] 
# AHB_SLAVE_CONFIG[0]
# -------------------------------------------------------------
# Name                    Type                 Size  Value     
# -------------------------------------------------------------
# AhbSlaveAgentConfig[0]  AhbSlaveAgentConfig  -     @517      
#   is_active             string               10    UVM_ACTIVE
#   hasCoverage           integral             1     1         
#   maximumAddress        integral             32    'h0       
#   minimumAddress        integral             32    'h0       
# -------------------------------------------------------------
# 
# UVM_INFO ../../src/hvlTop/tb/test/AhbBaseTest.sv(70) @ 0: uvm_test_top [AhbSingleWriteTest] 
# AHB_SLAVE_CONFIG[1]
# -------------------------------------------------------------
# Name                    Type                 Size  Value     
# -------------------------------------------------------------
# AhbSlaveAgentConfig[1]  AhbSlaveAgentConfig  -     @518      
#   is_active             string               10    UVM_ACTIVE
#   hasCoverage           integral             1     1         
#   maximumAddress        integral             32    'h0       
#   minimumAddress        integral             32    'h0       
# -------------------------------------------------------------
# 
# UVM_INFO ../../src/hvlTop/tb/test/AhbBaseTest.sv(74) @ 0: uvm_test_top [AhbSingleWriteTest] 
# AHB_ENV_CONFIG
# -------------------------------------------------------------
# Name                   Type                  Size  Value     
# -------------------------------------------------------------
# ahbEnvironmentConfig   AhbEnvironmentConfig  -     @504      
#   hasScoreboard        integral              1     1         
#   hasVirtualSequencer  integral              1     1         
#   noOfMasters          integral              32    'd2       
#   noOfSlaves           integral              32    'd2       
#   operationMode        integral              2     2         
#   operationMode        string                10    WRITE_READ
# -------------------------------------------------------------
# 
# in env no of wait is 3
# ASSIGNMENT IN ENV IS 3
# ASSIGNMENT IN ENV IS 3
# THE CONFIG IS 65903
# THE CONFIG IS 131439
# THE NUMBER OF WAIT IS 3
# IN THE SLAVE PROXY THE  3
# THE NUMBER OF WAIT IS 3
# IN THE SLAVE PROXY THE  3
# UVM_INFO @ 0: reporter [UVMTOP] UVM testbench topology:
# -----------------------------------------------------------------------
# Name                            Type                        Size  Value
# -----------------------------------------------------------------------
# uvm_test_top                    AhbSingleWriteTest          -     @473 
#   swasthik                      AhbEnvironment              -     @533 
#     ahbMasterAgent[0]           AhbMasterAgent              -     @543 
#       ahbMasterCoverage         AhbMasterCoverage           -     @1025
#         analysis_imp            uvm_analysis_imp            -     @1032
#       ahbMasterDriverProxy      AhbMasterDriverProxy        -     @987 
#         rsp_port                uvm_analysis_port           -     @1002
#         seq_item_port           uvm_seq_item_pull_port      -     @994 
#       ahbMasterMonitorProxy     AhbMasterMonitorProxy       -     @1010
#         ahbMasterAnalysisPort   uvm_analysis_port           -     @1017
#       ahbMasterSequencer        AhbMasterSequencer          -     @878 
#         rsp_export              uvm_analysis_export         -     @885 
#         seq_item_export         uvm_seq_item_pull_imp       -     @979 
#         arbitration_queue       array                       0     -    
#         lock_queue              array                       0     -    
#         num_last_reqs           integral                    32    'd1  
#         num_last_rsps           integral                    32    'd1  
#     ahbMasterAgent[1]           AhbMasterAgent              -     @550 
#       ahbMasterCoverage         AhbMasterCoverage           -     @1193
#         analysis_imp            uvm_analysis_imp            -     @1200
#       ahbMasterDriverProxy      AhbMasterDriverProxy        -     @1155
#         rsp_port                uvm_analysis_port           -     @1170
#         seq_item_port           uvm_seq_item_pull_port      -     @1162
#       ahbMasterMonitorProxy     AhbMasterMonitorProxy       -     @1178
#         ahbMasterAnalysisPort   uvm_analysis_port           -     @1185
#       ahbMasterSequencer        AhbMasterSequencer          -     @1046
#         rsp_export              uvm_analysis_export         -     @1053
#         seq_item_export         uvm_seq_item_pull_imp       -     @1147
#         arbitration_queue       array                       0     -    
#         lock_queue              array                       0     -    
#         num_last_reqs           integral                    32    'd1  
#         num_last_rsps           integral                    32    'd1  
#     ahbScoreboard               AhbScoreboard               -     @682 
#       ahbMasterAnalysisFifo[0]  uvm_tlm_analysis_fifo #(T)  -     @689 
#         analysis_export         uvm_analysis_imp            -     @728 
#         get_ap                  uvm_analysis_port           -     @720 
#         get_peek_export         uvm_get_peek_imp            -     @704 
#         put_ap                  uvm_analysis_port           -     @712 
#         put_export              uvm_put_imp                 -     @696 
#       ahbMasterAnalysisFifo[1]  uvm_tlm_analysis_fifo #(T)  -     @736 
#         analysis_export         uvm_analysis_imp            -     @775 
#         get_ap                  uvm_analysis_port           -     @767 
#         get_peek_export         uvm_get_peek_imp            -     @751 
#         put_ap                  uvm_analysis_port           -     @759 
#         put_export              uvm_put_imp                 -     @743 
#       ahbSlaveAnalysisFifo[0]   uvm_tlm_analysis_fifo #(T)  -     @783 
#         analysis_export         uvm_analysis_imp            -     @822 
#         get_ap                  uvm_analysis_port           -     @814 
#         get_peek_export         uvm_get_peek_imp            -     @798 
#         put_ap                  uvm_analysis_port           -     @806 
#         put_export              uvm_put_imp                 -     @790 
#       ahbSlaveAnalysisFifo[1]   uvm_tlm_analysis_fifo #(T)  -     @830 
#         analysis_export         uvm_analysis_imp            -     @869 
#         get_ap                  uvm_analysis_port           -     @861 
#         get_peek_export         uvm_get_peek_imp            -     @845 
#         put_ap                  uvm_analysis_port           -     @853 
#         put_export              uvm_put_imp                 -     @837 
#     ahbSlaveAgent[0]            AhbSlaveAgent               -     @559 
#       ahbSlaveCoverage          AhbSlaveCoverage            -     @1362
#         analysis_imp            uvm_analysis_imp            -     @1369
#       ahbSlaveDriverProxy       AhbSlaveDriverProxy         -     @1324
#         rsp_port                uvm_analysis_port           -     @1339
#         seq_item_port           uvm_seq_item_pull_port      -     @1331
#       ahbSlaveMonitorProxy      AhbSlaveMonitorProxy        -     @1347
#         ahbSlaveAnalysisPort    uvm_analysis_port           -     @1354
#       ahbSlaveSequencer         AhbSlaveSequencer           -     @1215
#         rsp_export              uvm_analysis_export         -     @1222
#         seq_item_export         uvm_seq_item_pull_imp       -     @1316
#         arbitration_queue       array                       0     -    
#         lock_queue              array                       0     -    
#         num_last_reqs           integral                    32    'd1  
#         num_last_rsps           integral                    32    'd1  
#     ahbSlaveAgent[1]            AhbSlaveAgent               -     @566 
#       ahbSlaveCoverage          AhbSlaveCoverage            -     @1530
#         analysis_imp            uvm_analysis_imp            -     @1537
#       ahbSlaveDriverProxy       AhbSlaveDriverProxy         -     @1492
#         rsp_port                uvm_analysis_port           -     @1507
#         seq_item_port           uvm_seq_item_pull_port      -     @1499
#       ahbSlaveMonitorProxy      AhbSlaveMonitorProxy        -     @1515
#         ahbSlaveAnalysisPort    uvm_analysis_port           -     @1522
#       ahbSlaveSequencer         AhbSlaveSequencer           -     @1383
#         rsp_export              uvm_analysis_export         -     @1390
#         seq_item_export         uvm_seq_item_pull_imp       -     @1484
#         arbitration_queue       array                       0     -    
#         lock_queue              array                       0     -    
#         num_last_reqs           integral                    32    'd1  
#         num_last_rsps           integral                    32    'd1  
#     ahbVirtualSequencer         AhbVirtualSequencer         -     @573 
#       rsp_export                uvm_analysis_export         -     @580 
#       seq_item_export           uvm_seq_item_pull_imp       -     @674 
#       arbitration_queue         array                       0     -    
#       lock_queue                array                       0     -    
#       num_last_reqs             integral                    32    'd1  
#       num_last_rsps             integral                    32    'd1  
# -----------------------------------------------------------------------
# 
# UVM_INFO verilog_src/questa_uvm_pkg-1.2/src/questa_uvm_pkg.sv(277) @ 0: reporter [Questa UVM] End Of Elaboration
# in env no of wait is 3
# UVM_INFO ../../src/hvlTop/tb/test/AhbSingleWriteTest.sv(35) @ 0: uvm_test_top [AhbSingleWriteTest] AhbSingleWriteTest
# CONNVERTER NO OF WAIT STATES IS 0
# UVM_INFO ../../src/hvlTop/slaveAgent/AhbSlaveDriverProxy.sv(49) @ 0: uvm_test_top.swasthik.ahbSlaveAgent[1].ahbSlaveDriverProxy [AhbSlaveDriverProxy]  BEFORERESET 
#  
# CONNVERTER NO OF WAIT STATES IS 0
# UVM_INFO ../../src/hvlTop/slaveAgent/AhbSlaveDriverProxy.sv(49) @ 0: uvm_test_top.swasthik.ahbSlaveAgent[0].ahbSlaveDriverProxy [AhbSlaveDriverProxy]  BEFORERESET 
#  
# UVM_INFO ../../src/hvlTop/masterAgent/AhbMasterMonitorProxy.sv(56) @ 0: uvm_test_top.swasthik.ahbMasterAgent[1].ahbMasterMonitorProxy [AhbMasterMonitorProxy] Inside the master_monitor_proxy
# RESET CALLED
# UVM_INFO ../../src/hvlTop/masterAgent/AhbMasterMonitorProxy.sv(56) @ 0: uvm_test_top.swasthik.ahbMasterAgent[0].ahbMasterMonitorProxy [AhbMasterMonitorProxy] Inside the master_monitor_proxy
# RESET CALLED
# UVM_INFO ../../src/hdlTop/slaveAgentBFM/AhbSlaveDriverBFM.sv(66) @ 5: reporter [AHB_SLAVE_DRIVER_BFM] SYSTEM RESET DETECTED
# UVM_INFO ../../src/hdlTop/slaveAgentBFM/AhbSlaveDriverBFM.sv(66) @ 5: reporter [AHB_SLAVE_DRIVER_BFM] SYSTEM RESET DETECTED
# UVM_INFO ../../src/hdlTop/masterAgentBFM/AhbMasterDriverBFM.sv(48) @ 5: reporter [AHB_MASTER_DRIVER_BFM] SYSTEM RESET DETECTED
# UVM_INFO ../../src/hdlTop/masterAgentBFM/AhbMasterMonitorBFM.sv(43) @ 5: reporter [AHB_MASTER_MONITOR_BFM] system reset detected
# UVM_INFO ../../src/hdlTop/masterAgentBFM/AhbMasterDriverBFM.sv(48) @ 5: reporter [AHB_MASTER_DRIVER_BFM] SYSTEM RESET DETECTED
# UVM_INFO ../../src/hdlTop/masterAgentBFM/AhbMasterMonitorBFM.sv(43) @ 5: reporter [AHB_MASTER_MONITOR_BFM] system reset detected
#                    5else hready 0 master [0] can_accept=0 oldest_is_ready=1
#                    5else hready 0 master [1] can_accept=0 oldest_is_ready=1
#                    5 3rd block can accept=1 slave=1
# slave_has_owner = x slave = 1 
#                    5 3rd block can accept=1 slave=0
# slave_has_owner = x slave = 0 
#                    5hreadyy 1 master [0]
#                    5hreadyy 1 master [1]
#                    5 3rd block can accept=1 slave=1
# slave_has_owner = 0 slave = 1 
#                    5 3rd block can accept=1 slave=0
# slave_has_owner = 0 slave = 0 
# @                  15 H EY MAN
# ishika 15 haddr = 0
# UVM_INFO ../../src/hvlTop/slaveAgent/AhbSlaveMonitorProxy.sv(74) @ 15: uvm_test_top.swasthik.ahbSlaveAgent[0].ahbSlaveMonitorProxy [AhbSlaveMonitorProxy] Sending packet via analysis_port: , 
#  -----------------------------------------------------------------
# Name                Type                 Size  Value             
# -----------------------------------------------------------------
# slave Packet        AhbSlaveTransaction  -     @1743             
#   haddr             integral             32    'h0               
#   hselx             integral             2     'b0               
#   hburst            string               6     SINGLE            
#   hmastlock         integral             1     'h0               
#   hprot             string               18    NORMAL_SECURE_DATA
#   hsize             string               4     BYTE              
#   hnonsec           integral             1     'h0               
#   hexcl             integral             1     'h0               
#   hmaster           integral             1     'd0               
#   htrans            string               4     IDLE              
#   hwrite            string               4     READ              
#   hreadyout         integral             1     'h1               
#   hresp             string               0     ""                
#   hexokay           integral             1     'h0               
#   hready            integral             1     'h0               
#   choosePacketData  integral             1     'd0               
# -----------------------------------------------------------------
# 
# UVM_INFO ../../src/hvlTop/slaveAgent/AhbSlaveCoverage.sv(39) @ 15: uvm_test_top.swasthik.ahbSlaveAgent[0].ahbSlaveCoverage [AhbSlaveCoverage] AHB SLAVE COVERAGE
# CONNVERTER NO OF WAIT STATES IS 0
# ishika 15 haddr = 0
# UVM_INFO ../../src/hvlTop/slaveAgent/AhbSlaveMonitorProxy.sv(74) @ 15: uvm_test_top.swasthik.ahbSlaveAgent[1].ahbSlaveMonitorProxy [AhbSlaveMonitorProxy] Sending packet via analysis_port: , 
#  -----------------------------------------------------------------
# Name                Type                 Size  Value             
# -----------------------------------------------------------------
# slave Packet        AhbSlaveTransaction  -     @1747             
#   haddr             integral             32    'h0               
#   hselx             integral             2     'b0               
#   hburst            string               6     SINGLE            
#   hmastlock         integral             1     'h0               
#   hprot             string               18    NORMAL_SECURE_DATA
#   hsize             string               4     BYTE              
#   hnonsec           integral             1     'h0               
#   hexcl             integral             1     'h0               
#   hmaster           integral             1     'd0               
#   htrans            string               4     IDLE              
#   hwrite            string               4     READ              
#   hreadyout         integral             1     'h1               
#   hresp             string               0     ""                
#   hexokay           integral             1     'h0               
#   hready            integral             1     'h0               
#   choosePacketData  integral             1     'd0               
# -----------------------------------------------------------------
# 
# UVM_INFO ../../src/hvlTop/slaveAgent/AhbSlaveCoverage.sv(39) @ 15: uvm_test_top.swasthik.ahbSlaveAgent[1].ahbSlaveCoverage [AhbSlaveCoverage] AHB SLAVE COVERAGE
# CONNVERTER NO OF WAIT STATES IS 0
# ENTERED THIS BLOCK @15
# ENTERED THIS BLOCK @15
# run phase got s_tx
# -----------------------------------------------------------------
# Name                Type                 Size  Value             
# -----------------------------------------------------------------
# slave Packet        AhbSlaveTransaction  -     @1743             
#   haddr             integral             32    'h0               
#   hselx             integral             2     'b0               
#   hburst            string               6     SINGLE            
#   hmastlock         integral             1     'h0               
#   hprot             string               18    NORMAL_SECURE_DATA
#   hsize             string               4     BYTE              
#   hnonsec           integral             1     'h0               
#   hexcl             integral             1     'h0               
#   hmaster           integral             1     'd0               
#   htrans            string               4     IDLE              
#   hwrite            string               4     READ              
#   hreadyout         integral             1     'h1               
#   hresp             string               0     ""                
#   hexokay           integral             1     'h0               
#   hready            integral             1     'h0               
#   choosePacketData  integral             1     'd0               
# -----------------------------------------------------------------
# run phase got s_tx
# -----------------------------------------------------------------
# Name                Type                 Size  Value             
# -----------------------------------------------------------------
# slave Packet        AhbSlaveTransaction  -     @1747             
#   haddr             integral             32    'h0               
#   hselx             integral             2     'b0               
#   hburst            string               6     SINGLE            
#   hmastlock         integral             1     'h0               
#   hprot             string               18    NORMAL_SECURE_DATA
#   hsize             string               4     BYTE              
#   hnonsec           integral             1     'h0               
#   hexcl             integral             1     'h0               
#   hmaster           integral             1     'd0               
#   htrans            string               4     IDLE              
#   hwrite            string               4     READ              
#   hreadyout         integral             1     'h1               
#   hresp             string               0     ""                
#   hexokay           integral             1     'h0               
#   hready            integral             1     'h0               
#   choosePacketData  integral             1     'd0               
# -----------------------------------------------------------------
# UVM_INFO ../../src/hdlTop/masterAgentBFM/AhbMasterMonitorBFM.sv(45) @ 15: reporter [AHB_MASTER_MONITOR_BFM] system reset deactivated
# UVM_INFO ../../src/hdlTop/masterAgentBFM/AhbMasterMonitorBFM.sv(45) @ 15: reporter [AHB_MASTER_MONITOR_BFM] system reset deactivated
# UVM_INFO ../../src/hdlTop/masterAgentBFM/AhbMasterDriverBFM.sv(52) @ 15: reporter [AHB_MASTER_DRIVER_BFM]  @15 SYSTEM RESET DEACTIVATED
# 
#  
#  getting next one 
#  
# 
# ....I AM HERE..... 15 
# UVM_INFO ../../src/hdlTop/masterAgentBFM/AhbMasterDriverBFM.sv(52) @ 15: reporter [AHB_MASTER_DRIVER_BFM]  @15 SYSTEM RESET DEACTIVATED
# 
#  
#  getting next one 
#  
# 
# ....I AM HERE..... 15 
# UVM_INFO ../../src/hdlTop/slaveAgentBFM/AhbSlaveDriverBFM.sv(70) @ 15: reporter [AHB_SLAVE_DRIVER_BFM] SYSTEM RESET DEACTIVATED
# UVM_INFO ../../src/hdlTop/slaveAgentBFM/AhbSlaveDriverBFM.sv(70) @ 15: reporter [AHB_SLAVE_DRIVER_BFM] SYSTEM RESET DEACTIVATED
# ---------------------------------------------------------
# Name                Type                 Size  Value     
# ---------------------------------------------------------
# req                 AhbSlaveTransaction  -     @1619     
#   haddr             integral             32    'h0       
#   hselx             integral             2     'b0       
#   hburst            string               0     ""        
#   hmastlock         integral             1     'h0       
#   hprot             string               0     ""        
#   hsize             string               0     ""        
#   hnonsec           integral             1     'h0       
#   hexcl             integral             1     'h0       
#   hmaster           integral             1     'd0       
#   htrans            string               0     ""        
#   hwrite            string               4     READ      
#   hreadyout         integral             1     'h0       
#   hresp             string               0     ""        
#   hexokay           integral             1     'h0       
#   hready            integral             1     'h0       
#   choosePacketData  integral             1     'd0       
#   hwdata[0]         integral             32    'h3bbcc962
#   hwdata[1]         integral             32    'hb066af73
#   hwdata[2]         integral             32    'h14c00470
#   hwdata[3]         integral             32    'h359a2cae
#   hwdata[4]         integral             32    'he9defd5f
#   hwdata[5]         integral             32    'hf040f1fd
#   hwdata[6]         integral             32    'h9c5ba66a
#   hwdata[7]         integral             32    'h3a798c92
#   hwdata[8]         integral             32    'hcb1ddd87
#   hwdata[9]         integral             32    'h297a6584
#   hwdata[10]        integral             32    'h6ded5180
#   hwdata[11]        integral             32    'h44dee56c
#   hwdata[12]        integral             32    'hc2121f8d
#   hwdata[13]        integral             32    'h82f01cbf
#   hwdata[14]        integral             32    'hb86a4025
#   hwdata[15]        integral             32    'hef7a860c
#   hwstrb[0]         integral             4     'b1111    
#   hwstrb[1]         integral             4     'b1       
#   hwstrb[2]         integral             4     'b101     
#   hwstrb[3]         integral             4     'b10      
#   hwstrb[4]         integral             4     'b1100    
#   hwstrb[5]         integral             4     'b100     
#   hwstrb[6]         integral             4     'b1110    
#   hwstrb[7]         integral             4     'b110     
#   hwstrb[8]         integral             4     'b1001    
#   hwstrb[9]         integral             4     'b1100    
#   hwstrb[10]        integral             4     'b111     
#   hwstrb[11]        integral             4     'b1100    
#   hwstrb[12]        integral             4     'b101     
#   hwstrb[13]        integral             4     'b1001    
#   hwstrb[14]        integral             4     'b11      
#   hwstrb[15]        integral             4     'b1001    
#   hrdata[0]         integral             32    'hd1026ff3
#   hrdata[1]         integral             32    'hd8fd8e4e
#   hrdata[2]         integral             32    'hd844747a
#   hrdata[3]         integral             32    'he4bc48bb
#   hrdata[4]         integral             32    'ha155d029
#   hrdata[5]         integral             32    'he4265274
#   hrdata[6]         integral             32    'hd59f7616
#   hrdata[7]         integral             32    'hac7664a7
#   hrdata[8]         integral             32    'h6eb0b669
#   hrdata[9]         integral             32    'hdb71b3dc
#   hrdata[10]        integral             32    'hcc1aba40
#   hrdata[11]        integral             32    'h2999f713
#   hrdata[12]        integral             32    'hc8f694c7
#   hrdata[13]        integral             32    'h65623571
#   hrdata[14]        integral             32    'h5c661258
#   hrdata[15]        integral             32    'h9e625c40
# ---------------------------------------------------------
# ---------------------------------------------------------
# Name                Type                 Size  Value     
# ---------------------------------------------------------
# req                 AhbSlaveTransaction  -     @1615     
#   haddr             integral             32    'h0       
#   hselx             integral             2     'b0       
#   hburst            string               0     ""        
#   hmastlock         integral             1     'h0       
#   hprot             string               0     ""        
#   hsize             string               0     ""        
#   hnonsec           integral             1     'h0       
#   hexcl             integral             1     'h0       
#   hmaster           integral             1     'd0       
#   htrans            string               0     ""        
#   hwrite            string               4     READ      
#   hreadyout         integral             1     'h0       
#   hresp             string               0     ""        
#   hexokay           integral             1     'h1       
#   hready            integral             1     'h0       
#   choosePacketData  integral             1     'd0       
#   hwdata[0]         integral             32    'h79a6c99d
#   hwdata[1]         integral             32    'h855382db
#   hwdata[2]         integral             32    'h85cc5e9e
#   hwdata[3]         integral             32    'hbce81729
#   hwdata[4]         integral             32    'h4777707c
#   hwdata[5]         integral             32    'h424fdcad
#   hwdata[6]         integral             32    'h75e8605a
#   hwdata[7]         integral             32    'h88287a92
#   hwdata[8]         integral             32    'hb1c153  
#   hwdata[9]         integral             32    'hb3cb1e7e
#   hwdata[10]        integral             32    'h96fdb1d0
#   hwdata[11]        integral             32    'h3ca00d87
#   hwdata[12]        integral             32    'h2e78ea13
#   hwdata[13]        integral             32    'h2e641163
#   hwdata[14]        integral             32    'h35cfe523
#   hwdata[15]        integral             32    'hce2eebba
#   hwstrb[0]         integral             4     'b11      
#   hwstrb[1]         integral             4     'b11      
#   hwstrb[2]         integral             4     'b101     
#   hwstrb[3]         integral             4     'b1110    
#   hwstrb[4]         integral             4     'b11      
#   hwstrb[5]         integral             4     'b111     
#   hwstrb[6]         integral             4     'b0       
#   hwstrb[7]         integral             4     'b1       
#   hwstrb[8]         integral             4     'b110     
#   hwstrb[9]         integral             4     'b1100    
#   hwstrb[10]        integral             4     'b10      
#   hwstrb[11]        integral             4     'b1101    
#   hwstrb[12]        integral             4     'b1000    
#   hwstrb[13]        integral             4     'b101     
#   hwstrb[14]        integral             4     'b0       
#   hwstrb[15]        integral             4     'b1110    
#   hrdata[0]         integral             32    'hbe8ff95a
#   hrdata[1]         integral             32    'h1caa3136
#   hrdata[2]         integral             32    'h39abf36f
#   hrdata[3]         integral             32    'h5bb2dd22
#   hrdata[4]         integral             32    'hf4578d98
#   hrdata[5]         integral             32    'h4465adf4
#   hrdata[6]         integral             32    'hd5bdaf0b
#   hrdata[7]         integral             32    'hb977cc34
#   hrdata[8]         integral             32    'hd2c7b389
#   hrdata[9]         integral             32    'h63fba36 
#   hrdata[10]        integral             32    'hbf74591c
#   hrdata[11]        integral             32    'hc3bf9245
#   hrdata[12]        integral             32    'ha0138ae6
#   hrdata[13]        integral             32    'h50f9af16
#   hrdata[14]        integral             32    'h782bdb53
#   hrdata[15]        integral             32    'hd235bd5e
# ---------------------------------------------------------
# UVM_INFO ../../src/hvlTop/masterAgent/masterSequences/AhbMasterSequence.sv(142) @ 15: uvm_test_top.swasthik.ahbMasterAgent[0].ahbMasterSequencer@@ahbMasterSequence [AHB] req is of type: AhbMasterTransaction
# *****************************************master sequence***********************************
# -------------------------------------------------------------------------------
# Name                      Type                  Size  Value                    
# -------------------------------------------------------------------------------
# req                       AhbMasterTransaction  -     @1611                    
#   haddr                   integral              32    'h57c                    
#   hselx                   integral              2     'b1                      
#   hburst                  string                5     INCR4                    
#   hmastlock               integral              1     'h0                      
#   hprot                   string                25    NORMAL_SECURE_INSTRUCTION
#   hsize                   string                4     WORD                     
#   hnonsec                 integral              1     'h1                      
#   hexcl                   integral              1     'h1                      
#   hmaster                 integral              1     1                        
#   htrans                  string                3     SEQ                      
#   hwrite                  string                5     WRITE                    
#   hreadyout               integral              1     'h0                      
#   hresp                   string                0     ""                       
#   hexokay                 integral              1     'h0                      
#   hready                  integral              1     'h0                      
#   noOfwaitStatesDetected  integral              32    'h0                      
#   hwdata[0]               integral              32    'h23fd6d42               
#   hwdata[1]               integral              32    'h4398a74a               
#   hwdata[2]               integral              32    'h780c4f17               
#   hwdata[3]               integral              32    'he0964f84               
#   hwstrb[0]               integral              4     'b1111                   
#   hwstrb[1]               integral              4     'b1111                   
#   hwstrb[2]               integral              4     'b1111                   
#   hwstrb[3]               integral              4     'b1111                   
#   busyControl[0]          integral              1     'h0                      
#   busyControl[1]          integral              1     'h0                      
#   busyControl[2]          integral              1     'h0                      
#   busyControl[3]          integral              1     'h0                      
# -------------------------------------------------------------------------------
# ********************************************************************************************
# UVM_INFO ../../src/hvlTop/masterAgent/masterSequences/AhbMasterSequence.sv(142) @ 15: uvm_test_top.swasthik.ahbMasterAgent[1].ahbMasterSequencer@@ahbMasterSequence [AHB] req is of type: AhbMasterTransaction
# *****************************************master sequence***********************************
# -------------------------------------------------------------------------------
# Name                      Type                  Size  Value                    
# -------------------------------------------------------------------------------
# req                       AhbMasterTransaction  -     @1607                    
#   haddr                   integral              32    'h6e0                    
#   hselx                   integral              2     'b1                      
#   hburst                  string                5     INCR4                    
#   hmastlock               integral              1     'h0                      
#   hprot                   string                25    PRIVILEGED_NONSECURE_DATA
#   hsize                   string                4     WORD                     
#   hnonsec                 integral              1     'h1                      
#   hexcl                   integral              1     'h1                      
#   hmaster                 integral              1     1                        
#   htrans                  string                3     SEQ                      
#   hwrite                  string                5     WRITE                    
#   hreadyout               integral              1     'h0                      
#   hresp                   string                0     ""                       
#   hexokay                 integral              1     'h1                      
#   hready                  integral              1     'h0                      
#   noOfwaitStatesDetected  integral              32    'h0                      
#   hwdata[0]               integral              32    'h46369c39               
#   hwdata[1]               integral              32    'h1f2ced2d               
#   hwdata[2]               integral              32    'hf9922381               
#   hwdata[3]               integral              32    'h57ac3151               
#   hwstrb[0]               integral              4     'b1111                   
#   hwstrb[1]               integral              4     'b1111                   
#   hwstrb[2]               integral              4     'b1111                   
#   hwstrb[3]               integral              4     'b1111                   
#   busyControl[0]          integral              1     'h0                      
#   busyControl[1]          integral              1     'h0                      
#   busyControl[2]          integral              1     'h0                      
#   busyControl[3]          integral              1     'h0                      
# -------------------------------------------------------------------------------
# ********************************************************************************************
# UVM_INFO ../../src/hvlTop/slaveAgent/AhbSlaveSequenceItemConverter.sv(90) @ 15: reporter [ahbSlaveSequeceItemconverterClass] -------------------------------------------------------------
# THE RUN PHASE IS 0
# CONNVERTER NO OF WAIT STATES IS 0
# (((((((((((((((SENT ACK)))))))))))))))
# UVM_INFO ../../src/hvlTop/slaveAgent/AhbSlaveSequenceItemConverter.sv(90) @ 15: reporter [ahbSlaveSequeceItemconverterClass] -------------------------------------------------------------
# THE RUN PHASE IS 0
# CONNVERTER NO OF WAIT STATES IS 0
# (((((((((((((((SENT ACK)))))))))))))))
# UVM_INFO ../../src/hvlTop/masterAgent/AhbMasterDriverProxy.sv(68) @ 15: uvm_test_top.swasthik.ahbMasterAgent[0].ahbMasterDriverProxy [AhbMasterDriverProxy] REQ-MASTERTX 
#  -------------------------------------------------------------------------------
# Name                      Type                  Size  Value                    
# -------------------------------------------------------------------------------
# req                       AhbMasterTransaction  -     @1611                    
#   haddr                   integral              32    'h57c                    
#   hselx                   integral              2     'b1                      
#   hburst                  string                5     INCR4                    
#   hmastlock               integral              1     'h0                      
#   hprot                   string                25    NORMAL_SECURE_INSTRUCTION
#   hsize                   string                4     WORD                     
#   hnonsec                 integral              1     'h1                      
#   hexcl                   integral              1     'h1                      
#   hmaster                 integral              1     1                        
#   htrans                  string                3     SEQ                      
#   hwrite                  string                5     WRITE                    
#   hreadyout               integral              1     'h0                      
#   hresp                   string                0     ""                       
#   hexokay                 integral              1     'h0                      
#   hready                  integral              1     'h0                      
#   noOfwaitStatesDetected  integral              32    'h0                      
#   hwdata[0]               integral              32    'h23fd6d42               
#   hwdata[1]               integral              32    'h4398a74a               
#   hwdata[2]               integral              32    'h780c4f17               
#   hwdata[3]               integral              32    'he0964f84               
#   hwstrb[0]               integral              4     'b1111                   
#   hwstrb[1]               integral              4     'b1111                   
#   hwstrb[2]               integral              4     'b1111                   
#   hwstrb[3]               integral              4     'b1111                   
#   busyControl[0]          integral              1     'h0                      
#   busyControl[1]          integral              1     'h0                      
#   busyControl[2]          integral              1     'h0                      
#   busyControl[3]          integral              1     'h0                      
# -------------------------------------------------------------------------------
# 
# ***************************IN DRIVER************************************************************************
# -------------------------------------------------------------------------------
# Name                      Type                  Size  Value                    
# -------------------------------------------------------------------------------
# req                       AhbMasterTransaction  -     @1611                    
#   haddr                   integral              32    'h57c                    
#   hselx                   integral              2     'b1                      
#   hburst                  string                5     INCR4                    
#   hmastlock               integral              1     'h0                      
#   hprot                   string                25    NORMAL_SECURE_INSTRUCTION
#   hsize                   string                4     WORD                     
#   hnonsec                 integral              1     'h1                      
#   hexcl                   integral              1     'h1                      
#   hmaster                 integral              1     1                        
#   htrans                  string                3     SEQ                      
#   hwrite                  string                5     WRITE                    
#   hreadyout               integral              1     'h0                      
#   hresp                   string                0     ""                       
#   hexokay                 integral              1     'h0                      
#   hready                  integral              1     'h0                      
#   noOfwaitStatesDetected  integral              32    'h0                      
#   hwdata[0]               integral              32    'h23fd6d42               
#   hwdata[1]               integral              32    'h4398a74a               
#   hwdata[2]               integral              32    'h780c4f17               
#   hwdata[3]               integral              32    'he0964f84               
#   hwstrb[0]               integral              4     'b1111                   
#   hwstrb[1]               integral              4     'b1111                   
#   hwstrb[2]               integral              4     'b1111                   
#   hwstrb[3]               integral              4     'b1111                   
#   busyControl[0]          integral              1     'h0                      
#   busyControl[1]          integral              1     'h0                      
#   busyControl[2]          integral              1     'h0                      
#   busyControl[3]          integral              1     'h0                      
# -------------------------------------------------------------------------------
# ***************************************************************************************************
# INSIDE BURST
# UVM_INFO ../../src/hvlTop/masterAgent/AhbMasterDriverProxy.sv(68) @ 15: uvm_test_top.swasthik.ahbMasterAgent[1].ahbMasterDriverProxy [AhbMasterDriverProxy] REQ-MASTERTX 
#  -------------------------------------------------------------------------------
# Name                      Type                  Size  Value                    
# -------------------------------------------------------------------------------
# req                       AhbMasterTransaction  -     @1607                    
#   haddr                   integral              32    'h6e0                    
#   hselx                   integral              2     'b1                      
#   hburst                  string                5     INCR4                    
#   hmastlock               integral              1     'h0                      
#   hprot                   string                25    PRIVILEGED_NONSECURE_DATA
#   hsize                   string                4     WORD                     
#   hnonsec                 integral              1     'h1                      
#   hexcl                   integral              1     'h1                      
#   hmaster                 integral              1     1                        
#   htrans                  string                3     SEQ                      
#   hwrite                  string                5     WRITE                    
#   hreadyout               integral              1     'h0                      
#   hresp                   string                0     ""                       
#   hexokay                 integral              1     'h1                      
#   hready                  integral              1     'h0                      
#   noOfwaitStatesDetected  integral              32    'h0                      
#   hwdata[0]               integral              32    'h46369c39               
#   hwdata[1]               integral              32    'h1f2ced2d               
#   hwdata[2]               integral              32    'hf9922381               
#   hwdata[3]               integral              32    'h57ac3151               
#   hwstrb[0]               integral              4     'b1111                   
#   hwstrb[1]               integral              4     'b1111                   
#   hwstrb[2]               integral              4     'b1111                   
#   hwstrb[3]               integral              4     'b1111                   
#   busyControl[0]          integral              1     'h0                      
#   busyControl[1]          integral              1     'h0                      
#   busyControl[2]          integral              1     'h0                      
#   busyControl[3]          integral              1     'h0                      
# -------------------------------------------------------------------------------
# 
# ***************************IN DRIVER************************************************************************
# -------------------------------------------------------------------------------
# Name                      Type                  Size  Value                    
# -------------------------------------------------------------------------------
# req                       AhbMasterTransaction  -     @1607                    
#   haddr                   integral              32    'h6e0                    
#   hselx                   integral              2     'b1                      
#   hburst                  string                5     INCR4                    
#   hmastlock               integral              1     'h0                      
#   hprot                   string                25    PRIVILEGED_NONSECURE_DATA
#   hsize                   string                4     WORD                     
#   hnonsec                 integral              1     'h1                      
#   hexcl                   integral              1     'h1                      
#   hmaster                 integral              1     1                        
#   htrans                  string                3     SEQ                      
#   hwrite                  string                5     WRITE                    
#   hreadyout               integral              1     'h0                      
#   hresp                   string                0     ""                       
#   hexokay                 integral              1     'h1                      
#   hready                  integral              1     'h0                      
#   noOfwaitStatesDetected  integral              32    'h0                      
#   hwdata[0]               integral              32    'h46369c39               
#   hwdata[1]               integral              32    'h1f2ced2d               
#   hwdata[2]               integral              32    'hf9922381               
#   hwdata[3]               integral              32    'h57ac3151               
#   hwstrb[0]               integral              4     'b1111                   
#   hwstrb[1]               integral              4     'b1111                   
#   hwstrb[2]               integral              4     'b1111                   
#   hwstrb[3]               integral              4     'b1111                   
#   busyControl[0]          integral              1     'h0                      
#   busyControl[1]          integral              1     'h0                      
#   busyControl[2]          integral              1     'h0                      
#   busyControl[3]          integral              1     'h0                      
# -------------------------------------------------------------------------------
# ***************************************************************************************************
# INSIDE BURST
# SLAVE SEQUENCE DONE 
# SLAVE SEQUENCE DONE 
# ** Info: THE REQ IS x for the slave 0
#    Time: 16 ns  Scope: HdlTop.ahbinterconnect.genblk5[0].genblk1[1] File: ../../src/hdlTop/interconnect/AhbInterconnect.sv Line: 164
# ** Info: THE GRANT IS x for the slave 0 addr is 1760 for master 1
#    Time: 16 ns  Scope: HdlTop.ahbinterconnect.genblk5[0].genblk1[1] File: ../../src/hdlTop/interconnect/AhbInterconnect.sv Line: 165
# ** Info: THE REQ IS x for the slave 1
#    Time: 16 ns  Scope: HdlTop.ahbinterconnect.genblk5[1].genblk1[1] File: ../../src/hdlTop/interconnect/AhbInterconnect.sv Line: 164
# ** Info: THE GRANT IS x for the slave 1 addr is 1760 for master 1
#    Time: 16 ns  Scope: HdlTop.ahbinterconnect.genblk5[1].genblk1[1] File: ../../src/hdlTop/interconnect/AhbInterconnect.sv Line: 165
# ** Info: THE REQ IS x for the slave 0
#    Time: 16 ns  Scope: HdlTop.ahbinterconnect.genblk5[0].genblk1[0] File: ../../src/hdlTop/interconnect/AhbInterconnect.sv Line: 164
# ** Info: THE GRANT IS x for the slave 0 addr is 1404 for master 0
#    Time: 16 ns  Scope: HdlTop.ahbinterconnect.genblk5[0].genblk1[0] File: ../../src/hdlTop/interconnect/AhbInterconnect.sv Line: 165
# ** Info: THE REQ IS x for the slave 1
#    Time: 16 ns  Scope: HdlTop.ahbinterconnect.genblk5[1].genblk1[0] File: ../../src/hdlTop/interconnect/AhbInterconnect.sv Line: 164
# ** Info: THE GRANT IS x for the slave 1 addr is 1404 for master 0
#    Time: 16 ns  Scope: HdlTop.ahbinterconnect.genblk5[1].genblk1[0] File: ../../src/hdlTop/interconnect/AhbInterconnect.sv Line: 165
#                   16else hready 0 master [0] can_accept=0 oldest_is_ready=1
#                   16else hready 0 master [1] can_accept=0 oldest_is_ready=1
#                   16 3rd block can accept=1 slave=1
# slave_has_owner = 0 slave = 1 
#                   16 3rd block can accept=1 slave=0
# slave_has_owner = 0 slave = 0 
# slave number 1 address 1760
# slave number 1 address 1404
# slave number 1 address 1760
# slave number 1 address 1404
# ** Info: THE REQ IS x for the slave 0
#    Time: 16 ns  Scope: HdlTop.ahbinterconnect.genblk5[0].genblk1[0] File: ../../src/hdlTop/interconnect/AhbInterconnect.sv Line: 164
# ** Info: THE GRANT IS x for the slave 0 addr is 1404 for master 0
#    Time: 16 ns  Scope: HdlTop.ahbinterconnect.genblk5[0].genblk1[0] File: ../../src/hdlTop/interconnect/AhbInterconnect.sv Line: 165
# ** Info: THE REQ IS x for the slave 0
#    Time: 16 ns  Scope: HdlTop.ahbinterconnect.genblk5[0].genblk1[1] File: ../../src/hdlTop/interconnect/AhbInterconnect.sv Line: 164
# ** Info: THE GRANT IS x for the slave 0 addr is 1760 for master 1
#    Time: 16 ns  Scope: HdlTop.ahbinterconnect.genblk5[0].genblk1[1] File: ../../src/hdlTop/interconnect/AhbInterconnect.sv Line: 165
# ** Info: THE REQ IS 11 for the slave 1
#    Time: 16 ns  Scope: HdlTop.ahbinterconnect.genblk5[1].genblk1[0] File: ../../src/hdlTop/interconnect/AhbInterconnect.sv Line: 164
# ** Info: THE GRANT IS x for the slave 1 addr is 1404 for master 0
#    Time: 16 ns  Scope: HdlTop.ahbinterconnect.genblk5[1].genblk1[0] File: ../../src/hdlTop/interconnect/AhbInterconnect.sv Line: 165
# ** Info: THE REQ IS 11 for the slave 1
#    Time: 16 ns  Scope: HdlTop.ahbinterconnect.genblk5[1].genblk1[1] File: ../../src/hdlTop/interconnect/AhbInterconnect.sv Line: 164
# ** Info: THE GRANT IS x for the slave 1 addr is 1760 for master 1
#    Time: 16 ns  Scope: HdlTop.ahbinterconnect.genblk5[1].genblk1[1] File: ../../src/hdlTop/interconnect/AhbInterconnect.sv Line: 165
#                   16 3rd block can accept=1 slave=1
# slave_has_owner = 0 slave = 1 
# dead case s:          1 | m:          0
#                   16 inside 3rd block master_request[s=1][m= 0] htrans=3
#                   16 3rd block grant 1
# ** Info: THE REQ IS x for the slave 0
#    Time: 16 ns  Scope: HdlTop.ahbinterconnect.genblk5[0].genblk1[0] File: ../../src/hdlTop/interconnect/AhbInterconnect.sv Line: 164
# ** Info: THE GRANT IS x for the slave 0 addr is 1404 for master 0
#    Time: 16 ns  Scope: HdlTop.ahbinterconnect.genblk5[0].genblk1[0] File: ../../src/hdlTop/interconnect/AhbInterconnect.sv Line: 165
# ** Info: THE REQ IS x for the slave 0
#    Time: 16 ns  Scope: HdlTop.ahbinterconnect.genblk5[0].genblk1[1] File: ../../src/hdlTop/interconnect/AhbInterconnect.sv Line: 164
# ** Info: THE GRANT IS x for the slave 0 addr is 1760 for master 1
#    Time: 16 ns  Scope: HdlTop.ahbinterconnect.genblk5[0].genblk1[1] File: ../../src/hdlTop/interconnect/AhbInterconnect.sv Line: 165
# ** Info: THE REQ IS 11 for the slave 1
#    Time: 16 ns  Scope: HdlTop.ahbinterconnect.genblk5[1].genblk1[0] File: ../../src/hdlTop/interconnect/AhbInterconnect.sv Line: 164
# ** Info: THE GRANT IS 1 for the slave 1 addr is 1404 for master 0
#    Time: 16 ns  Scope: HdlTop.ahbinterconnect.genblk5[1].genblk1[0] File: ../../src/hdlTop/interconnect/AhbInterconnect.sv Line: 165
# ** Info: THE REQ IS 11 for the slave 1
#    Time: 16 ns  Scope: HdlTop.ahbinterconnect.genblk5[1].genblk1[1] File: ../../src/hdlTop/interconnect/AhbInterconnect.sv Line: 164
# ** Info: THE GRANT IS x for the slave 1 addr is 1760 for master 1
#    Time: 16 ns  Scope: HdlTop.ahbinterconnect.genblk5[1].genblk1[1] File: ../../src/hdlTop/interconnect/AhbInterconnect.sv Line: 165
# last grant s=1 m=0 g==1
#                   16else hready 1 master [0] can_accept=1 oldest_is_ready=1
#                   16else hready 0 master [1] can_accept=0 oldest_is_ready=1
# ENTERED THIS BLOCK @16
# slave number 1 address 1404
# last grant s=1 m=0 g==1
#                   16else hready 1 master [0] can_accept=1 oldest_is_ready=1
#                   16else hready 0 master [1] can_accept=0 oldest_is_ready=1
# ENTERED THIS BLOCK @16
#                   25 first master_grant[slaveloop=1][masterloop=0]=1
# ishika 25 haddr = x
# UVM_INFO ../../src/hvlTop/slaveAgent/AhbSlaveMonitorProxy.sv(74) @ 25: uvm_test_top.swasthik.ahbSlaveAgent[0].ahbSlaveMonitorProxy [AhbSlaveMonitorProxy] Sending packet via analysis_port: , 
#  ----------------------------------------------------
# Name                Type                 Size  Value
# ----------------------------------------------------
# slave Packet        AhbSlaveTransaction  -     @1753
#   haddr             integral             32    'h0  
#   hselx             integral             2     'b1  
#   hburst            string               0     ""   
#   hmastlock         integral             1     'h0  
#   hprot             string               0     ""   
#   hsize             string               0     ""   
#   hnonsec           integral             1     'h0  
#   hexcl             integral             1     'h0  
#   hmaster           integral             1     'd0  
#   htrans            string               4     IDLE 
#   hwrite            string               4     READ 
#   hreadyout         integral             1     'h1  
#   hresp             string               0     ""   
#   hexokay           integral             1     'h0  
#   hready            integral             1     'h0  
#   choosePacketData  integral             1     'd0  
# ----------------------------------------------------
# 
# UVM_INFO ../../src/hvlTop/slaveAgent/AhbSlaveCoverage.sv(39) @ 25: uvm_test_top.swasthik.ahbSlaveAgent[0].ahbSlaveCoverage [AhbSlaveCoverage] AHB SLAVE COVERAGE
# CONNVERTER NO OF WAIT STATES IS 0
# ishika 25 haddr = x
# UVM_INFO ../../src/hvlTop/slaveAgent/AhbSlaveMonitorProxy.sv(74) @ 25: uvm_test_top.swasthik.ahbSlaveAgent[1].ahbSlaveMonitorProxy [AhbSlaveMonitorProxy] Sending packet via analysis_port: , 
#  ----------------------------------------------------
# Name                Type                 Size  Value
# ----------------------------------------------------
# slave Packet        AhbSlaveTransaction  -     @1757
#   haddr             integral             32    'h0  
#   hselx             integral             2     'b1  
#   hburst            string               0     ""   
#   hmastlock         integral             1     'h0  
#   hprot             string               0     ""   
#   hsize             string               0     ""   
#   hnonsec           integral             1     'h0  
#   hexcl             integral             1     'h0  
#   hmaster           integral             1     'd0  
#   htrans            string               4     IDLE 
#   hwrite            string               4     READ 
#   hreadyout         integral             1     'h1  
#   hresp             string               0     ""   
#   hexokay           integral             1     'h0  
#   hready            integral             1     'h0  
#   choosePacketData  integral             1     'd0  
# ----------------------------------------------------
# 
# UVM_INFO ../../src/hvlTop/slaveAgent/AhbSlaveCoverage.sv(39) @ 25: uvm_test_top.swasthik.ahbSlaveAgent[1].ahbSlaveCoverage [AhbSlaveCoverage] AHB SLAVE COVERAGE
# CONNVERTER NO OF WAIT STATES IS 0
# UVM_INFO ../../src/hvlTop/masterAgent/AhbMasterMonitorProxy.sv(72) @ 25: uvm_test_top.swasthik.ahbMasterAgent[0].ahbMasterMonitorProxy [AhbMasterMonitorProxy] Sending packet via analysis_port: , 
#  ------------------------------------------------------------------------
# Name                      Type                  Size  Value             
# ------------------------------------------------------------------------
# ahbMasterPacket           AhbMasterTransaction  -     @1761             
#   haddr                   integral              32    'h0               
#   hselx                   integral              2     'b0               
#   hburst                  string                6     SINGLE            
#   hmastlock               integral              1     'h0               
#   hprot                   string                18    NORMAL_SECURE_DATA
#   hsize                   string                4     BYTE              
#   hnonsec                 integral              1     'h0               
#   hexcl                   integral              1     'h0               
#   hmaster                 integral              1     'd0               
#   htrans                  string                4     IDLE              
#   hwrite                  string                4     READ              
#   hreadyout               integral              1     'h1               
#   hresp                   string                4     OKAY              
#   hexokay                 integral              1     'h0               
#   hready                  integral              1     'h0               
#   noOfwaitStatesDetected  integral              32    'h0               
# ------------------------------------------------------------------------
# 
# UVM_INFO ../../src/hvlTop/masterAgent/AhbMasterCoverage.sv(107) @ 25: uvm_test_top.swasthik.ahbMasterAgent[0].ahbMasterCoverage [AhbMasterCoverage] Before calling SAMPLE METHOD
# UVM_INFO ../../src/hvlTop/masterAgent/AhbMasterCoverage.sv(109) @ 25: uvm_test_top.swasthik.ahbMasterAgent[0].ahbMasterCoverage [AhbMasterCoverage] After calling SAMPLE METHOD
# run phase got s_tx
# ----------------------------------------------------
# Name                Type                 Size  Value
# ----------------------------------------------------
# slave Packet        AhbSlaveTransaction  -     @1753
#   haddr             integral             32    'h0  
#   hselx             integral             2     'b1  
#   hburst            string               0     ""   
#   hmastlock         integral             1     'h0  
#   hprot             string               0     ""   
#   hsize             string               0     ""   
#   hnonsec           integral             1     'h0  
#   hexcl             integral             1     'h0  
#   hmaster           integral             1     'd0  
#   htrans            string               4     IDLE 
#   hwrite            string               4     READ 
#   hreadyout         integral             1     'h1  
#   hresp             string               0     ""   
#   hexokay           integral             1     'h0  
#   hready            integral             1     'h0  
#   choosePacketData  integral             1     'd0  
# ----------------------------------------------------
# run phase got s_tx
# ----------------------------------------------------
# Name                Type                 Size  Value
# ----------------------------------------------------
# slave Packet        AhbSlaveTransaction  -     @1757
#   haddr             integral             32    'h0  
#   hselx             integral             2     'b1  
#   hburst            string               0     ""   
#   hmastlock         integral             1     'h0  
#   hprot             string               0     ""   
#   hsize             string               0     ""   
#   hnonsec           integral             1     'h0  
#   hexcl             integral             1     'h0  
#   hmaster           integral             1     'd0  
#   htrans            string               4     IDLE 
#   hwrite            string               4     READ 
#   hreadyout         integral             1     'h1  
#   hresp             string               0     ""   
#   hexokay           integral             1     'h0  
#   hready            integral             1     'h0  
#   choosePacketData  integral             1     'd0  
# ----------------------------------------------------
# run phase got m_tx
# ------------------------------------------------------------------------
# Name                      Type                  Size  Value             
# ------------------------------------------------------------------------
# ahbMasterPacket           AhbMasterTransaction  -     @1761             
#   haddr                   integral              32    'h0               
#   hselx                   integral              2     'b0               
#   hburst                  string                6     SINGLE            
#   hmastlock               integral              1     'h0               
#   hprot                   string                18    NORMAL_SECURE_DATA
#   hsize                   string                4     BYTE              
#   hnonsec                 integral              1     'h0               
#   hexcl                   integral              1     'h0               
#   hmaster                 integral              1     'd0               
#   htrans                  string                4     IDLE              
#   hwrite                  string                4     READ              
#   hreadyout               integral              1     'h1               
#   hresp                   string                4     OKAY              
#   hexokay                 integral              1     'h0               
#   hready                  integral              1     'h0               
#   noOfwaitStatesDetected  integral              32    'h0               
# ------------------------------------------------------------------------
# ENTERED THIS BLOCK @25
#                   25 2nd else if block can_accept=1 htrans=3 slave_has_owner=1
#                   25 2nd blk grant 1 alsve=1
# ** Info: THE REQ IS x for the slave 0
#    Time: 25 ns  Scope: HdlTop.ahbinterconnect.genblk5[0].genblk1[0] File: ../../src/hdlTop/interconnect/AhbInterconnect.sv Line: 164
# ** Info: THE GRANT IS x for the slave 0 addr is 1404 for master 0
#    Time: 25 ns  Scope: HdlTop.ahbinterconnect.genblk5[0].genblk1[0] File: ../../src/hdlTop/interconnect/AhbInterconnect.sv Line: 165
# ** Info: THE REQ IS x for the slave 0
#    Time: 25 ns  Scope: HdlTop.ahbinterconnect.genblk5[0].genblk1[1] File: ../../src/hdlTop/interconnect/AhbInterconnect.sv Line: 164
# ** Info: THE GRANT IS x for the slave 0 addr is 1760 for master 1
#    Time: 25 ns  Scope: HdlTop.ahbinterconnect.genblk5[0].genblk1[1] File: ../../src/hdlTop/interconnect/AhbInterconnect.sv Line: 165
# ** Info: THE REQ IS 11 for the slave 1
#    Time: 25 ns  Scope: HdlTop.ahbinterconnect.genblk5[1].genblk1[0] File: ../../src/hdlTop/interconnect/AhbInterconnect.sv Line: 164
# ** Info: THE GRANT IS 1 for the slave 1 addr is 1404 for master 0
#    Time: 25 ns  Scope: HdlTop.ahbinterconnect.genblk5[1].genblk1[0] File: ../../src/hdlTop/interconnect/AhbInterconnect.sv Line: 165
# ** Info: THE REQ IS 11 for the slave 1
#    Time: 25 ns  Scope: HdlTop.ahbinterconnect.genblk5[1].genblk1[1] File: ../../src/hdlTop/interconnect/AhbInterconnect.sv Line: 164
# ** Info: THE GRANT IS 0 for the slave 1 addr is 1760 for master 1
#    Time: 25 ns  Scope: HdlTop.ahbinterconnect.genblk5[1].genblk1[1] File: ../../src/hdlTop/interconnect/AhbInterconnect.sv Line: 165
# last grant s=1 m=0 g==1
#                   25else hready 1 master [0] can_accept=1 oldest_is_ready=1
#                   25else hready 0 master [1] can_accept=0 oldest_is_ready=1
# ENTERED THIS BLOCK @25
# slave number 1 address 1404
# DRIVER
# HEY I AM INSIDE BURST
# ENTERED THIS BLOCK @25
# ENTERED THIS BLOCK @25
# ** Info: THE REQ IS x for the slave 0
#    Time: 26 ns  Scope: HdlTop.ahbinterconnect.genblk5[0].genblk1[0] File: ../../src/hdlTop/interconnect/AhbInterconnect.sv Line: 164
# ** Info: THE GRANT IS x for the slave 0 addr is 1408 for master 0
#    Time: 26 ns  Scope: HdlTop.ahbinterconnect.genblk5[0].genblk1[0] File: ../../src/hdlTop/interconnect/AhbInterconnect.sv Line: 165
# ** Info: THE REQ IS 11 for the slave 1
#    Time: 26 ns  Scope: HdlTop.ahbinterconnect.genblk5[1].genblk1[0] File: ../../src/hdlTop/interconnect/AhbInterconnect.sv Line: 164
# ** Info: THE GRANT IS 1 for the slave 1 addr is 1408 for master 0
#    Time: 26 ns  Scope: HdlTop.ahbinterconnect.genblk5[1].genblk1[0] File: ../../src/hdlTop/interconnect/AhbInterconnect.sv Line: 165
# slave number 1 address 1408
#                   26 2nd else if block can_accept=1 htrans=3 slave_has_owner=1
#                   26 2nd blk grant 1 alsve=1
#                   26 3rd block can accept=1 slave=0
# slave_has_owner = 0 slave = 0 
# slave number 1 address 1408
# slave number 1 address 1408
# ** Info: THE REQ IS x for the slave 0
#    Time: 26 ns  Scope: HdlTop.ahbinterconnect.genblk5[0].genblk1[0] File: ../../src/hdlTop/interconnect/AhbInterconnect.sv Line: 164
# ** Info: THE GRANT IS x for the slave 0 addr is 1408 for master 0
#    Time: 26 ns  Scope: HdlTop.ahbinterconnect.genblk5[0].genblk1[0] File: ../../src/hdlTop/interconnect/AhbInterconnect.sv Line: 165
# ** Info: THE REQ IS x for the slave 0
#    Time: 26 ns  Scope: HdlTop.ahbinterconnect.genblk5[0].genblk1[1] File: ../../src/hdlTop/interconnect/AhbInterconnect.sv Line: 164
# ** Info: THE GRANT IS x for the slave 0 addr is 1760 for master 1
#    Time: 26 ns  Scope: HdlTop.ahbinterconnect.genblk5[0].genblk1[1] File: ../../src/hdlTop/interconnect/AhbInterconnect.sv Line: 165
# ** Info: THE REQ IS 11 for the slave 1
#    Time: 26 ns  Scope: HdlTop.ahbinterconnect.genblk5[1].genblk1[0] File: ../../src/hdlTop/interconnect/AhbInterconnect.sv Line: 164
# ** Info: THE GRANT IS 1 for the slave 1 addr is 1408 for master 0
#    Time: 26 ns  Scope: HdlTop.ahbinterconnect.genblk5[1].genblk1[0] File: ../../src/hdlTop/interconnect/AhbInterconnect.sv Line: 165
# ** Info: THE REQ IS 11 for the slave 1
#    Time: 26 ns  Scope: HdlTop.ahbinterconnect.genblk5[1].genblk1[1] File: ../../src/hdlTop/interconnect/AhbInterconnect.sv Line: 164
# ** Info: THE GRANT IS 0 for the slave 1 addr is 1760 for master 1
#    Time: 26 ns  Scope: HdlTop.ahbinterconnect.genblk5[1].genblk1[1] File: ../../src/hdlTop/interconnect/AhbInterconnect.sv Line: 165
# last grant s=1 m=0 g==1
#                   26else hready 1 master [0] can_accept=1 oldest_is_ready=1
#                   26else hready 0 master [1] can_accept=0 oldest_is_ready=1
#                   35 first master_grant[slaveloop=1][masterloop=0]=1
# ishika 35 haddr = x
# UVM_INFO ../../src/hvlTop/slaveAgent/AhbSlaveMonitorProxy.sv(74) @ 35: uvm_test_top.swasthik.ahbSlaveAgent[0].ahbSlaveMonitorProxy [AhbSlaveMonitorProxy] Sending packet via analysis_port: , 
#  ----------------------------------------------------
# Name                Type                 Size  Value
# ----------------------------------------------------
# slave Packet        AhbSlaveTransaction  -     @1765
#   haddr             integral             32    'h0  
#   hselx             integral             2     'b1  
#   hburst            string               0     ""   
#   hmastlock         integral             1     'h0  
#   hprot             string               0     ""   
#   hsize             string               0     ""   
#   hnonsec           integral             1     'h0  
#   hexcl             integral             1     'h0  
#   hmaster           integral             1     'd0  
#   htrans            string               4     IDLE 
#   hwrite            string               4     READ 
#   hreadyout         integral             1     'h1  
#   hresp             string               0     ""   
#   hexokay           integral             1     'h0  
#   hready            integral             1     'h0  
#   choosePacketData  integral             1     'd0  
# ----------------------------------------------------
# 
# UVM_INFO ../../src/hvlTop/slaveAgent/AhbSlaveCoverage.sv(39) @ 35: uvm_test_top.swasthik.ahbSlaveAgent[0].ahbSlaveCoverage [AhbSlaveCoverage] AHB SLAVE COVERAGE
# CONNVERTER NO OF WAIT STATES IS 0
# ishika 35 haddr = 57c
# UVM_INFO ../../src/hvlTop/slaveAgent/AhbSlaveMonitorProxy.sv(74) @ 35: uvm_test_top.swasthik.ahbSlaveAgent[1].ahbSlaveMonitorProxy [AhbSlaveMonitorProxy] Sending packet via analysis_port: , 
#  ------------------------------------------------------------------------
# Name                Type                 Size  Value                    
# ------------------------------------------------------------------------
# slave Packet        AhbSlaveTransaction  -     @1769                    
#   haddr             integral             32    'h57c                    
#   hselx             integral             2     'b1                      
#   hburst            string               5     INCR4                    
#   hmastlock         integral             1     'h0                      
#   hprot             string               25    NORMAL_SECURE_INSTRUCTION
#   hsize             string               4     WORD                     
#   hnonsec           integral             1     'h0                      
#   hexcl             integral             1     'h0                      
#   hmaster           integral             1     'd0                      
#   htrans            string               3     SEQ                      
#   hwrite            string               5     WRITE                    
#   hreadyout         integral             1     'h1                      
#   hresp             string               0     ""                       
#   hexokay           integral             1     'h0                      
#   hready            integral             1     'h0                      
#   choosePacketData  integral             1     'd0                      
#   hwdata[0]         integral             32    'h23fd6d42               
#   hwstrb[0]         integral             4     'b0                      
# ------------------------------------------------------------------------
# 
# UVM_INFO ../../src/hvlTop/slaveAgent/AhbSlaveCoverage.sv(39) @ 35: uvm_test_top.swasthik.ahbSlaveAgent[1].ahbSlaveCoverage [AhbSlaveCoverage] AHB SLAVE COVERAGE
# CONNVERTER NO OF WAIT STATES IS 0
# UVM_INFO ../../src/hvlTop/masterAgent/AhbMasterMonitorProxy.sv(72) @ 35: uvm_test_top.swasthik.ahbMasterAgent[0].ahbMasterMonitorProxy [AhbMasterMonitorProxy] Sending packet via analysis_port: , 
#  -------------------------------------------------------------------------------
# Name                      Type                  Size  Value                    
# -------------------------------------------------------------------------------
# ahbMasterPacket           AhbMasterTransaction  -     @1773                    
#   haddr                   integral              32    'h57c                    
#   hselx                   integral              2     'b0                      
#   hburst                  string                5     INCR4                    
#   hmastlock               integral              1     'h0                      
#   hprot                   string                25    NORMAL_SECURE_INSTRUCTION
#   hsize                   string                4     WORD                     
#   hnonsec                 integral              1     'h1                      
#   hexcl                   integral              1     'h0                      
#   hmaster                 integral              1     'd0                      
#   htrans                  string                3     SEQ                      
#   hwrite                  string                5     WRITE                    
#   hreadyout               integral              1     'h1                      
#   hresp                   string                4     OKAY                     
#   hexokay                 integral              1     'h0                      
#   hready                  integral              1     'h0                      
#   noOfwaitStatesDetected  integral              32    'h0                      
#   hwdata[0]               integral              32    'h23fd6d42               
#   hwstrb[0]               integral              4     'b1111                   
# -------------------------------------------------------------------------------
# 
# UVM_INFO ../../src/hvlTop/masterAgent/AhbMasterCoverage.sv(107) @ 35: uvm_test_top.swasthik.ahbMasterAgent[0].ahbMasterCoverage [AhbMasterCoverage] Before calling SAMPLE METHOD
# UVM_INFO ../../src/hvlTop/masterAgent/AhbMasterCoverage.sv(109) @ 35: uvm_test_top.swasthik.ahbMasterAgent[0].ahbMasterCoverage [AhbMasterCoverage] After calling SAMPLE METHOD
# run phase got s_tx
# ----------------------------------------------------
# Name                Type                 Size  Value
# ----------------------------------------------------
# slave Packet        AhbSlaveTransaction  -     @1765
#   haddr             integral             32    'h0  
#   hselx             integral             2     'b1  
#   hburst            string               0     ""   
#   hmastlock         integral             1     'h0  
#   hprot             string               0     ""   
#   hsize             string               0     ""   
#   hnonsec           integral             1     'h0  
#   hexcl             integral             1     'h0  
#   hmaster           integral             1     'd0  
#   htrans            string               4     IDLE 
#   hwrite            string               4     READ 
#   hreadyout         integral             1     'h1  
#   hresp             string               0     ""   
#   hexokay           integral             1     'h0  
#   hready            integral             1     'h0  
#   choosePacketData  integral             1     'd0  
# ----------------------------------------------------
# run phase got s_tx
# ------------------------------------------------------------------------
# Name                Type                 Size  Value                    
# ------------------------------------------------------------------------
# slave Packet        AhbSlaveTransaction  -     @1769                    
#   haddr             integral             32    'h57c                    
#   hselx             integral             2     'b1                      
#   hburst            string               5     INCR4                    
#   hmastlock         integral             1     'h0                      
#   hprot             string               25    NORMAL_SECURE_INSTRUCTION
#   hsize             string               4     WORD                     
#   hnonsec           integral             1     'h0                      
#   hexcl             integral             1     'h0                      
#   hmaster           integral             1     'd0                      
#   htrans            string               3     SEQ                      
#   hwrite            string               5     WRITE                    
#   hreadyout         integral             1     'h1                      
#   hresp             string               0     ""                       
#   hexokay           integral             1     'h0                      
#   hready            integral             1     'h0                      
#   choosePacketData  integral             1     'd0                      
#   hwdata[0]         integral             32    'h23fd6d42               
#   hwstrb[0]         integral             4     'b0                      
# ------------------------------------------------------------------------
# ** Warning: (vsim-3829) ../../src/hvlTop/environment/AhbScoreboard.sv(294): Non-existent associative array entry. Returning default value.
# run phase got m_tx
# -------------------------------------------------------------------------------
# Name                      Type                  Size  Value                    
# -------------------------------------------------------------------------------
# ahbMasterPacket           AhbMasterTransaction  -     @1773                    
#   haddr                   integral              32    'h57c                    
#   hselx                   integral              2     'b0                      
#   hburst                  string                5     INCR4                    
#   hmastlock               integral              1     'h0                      
#   hprot                   string                25    NORMAL_SECURE_INSTRUCTION
#   hsize                   string                4     WORD                     
#   hnonsec                 integral              1     'h1                      
#   hexcl                   integral              1     'h0                      
#   hmaster                 integral              1     'd0                      
#   htrans                  string                3     SEQ                      
#   hwrite                  string                5     WRITE                    
#   hreadyout               integral              1     'h1                      
#   hresp                   string                4     OKAY                     
#   hexokay                 integral              1     'h0                      
#   hready                  integral              1     'h0                      
#   noOfwaitStatesDetected  integral              32    'h0                      
#   hwdata[0]               integral              32    'h23fd6d42               
#   hwstrb[0]               integral              4     'b1111                   
# -------------------------------------------------------------------------------
# UVM_INFO ../../src/hvlTop/environment/AhbScoreboard.sv(137) @ 35: uvm_test_top.swasthik.ahbScoreboard [REF_MODEL_WRITE] SLAVE=1 ADDR=0x57c DATA=0x42 (beat=0 byte=0)
# data written in ref model='{603811138} for addr=0000057c
# UVM_INFO ../../src/hvlTop/environment/AhbScoreboard.sv(137) @ 35: uvm_test_top.swasthik.ahbScoreboard [REF_MODEL_WRITE] SLAVE=1 ADDR=0x57d DATA=0x6d (beat=0 byte=1)
# data written in ref model='{603811138} for addr=0000057c
# UVM_INFO ../../src/hvlTop/environment/AhbScoreboard.sv(137) @ 35: uvm_test_top.swasthik.ahbScoreboard [REF_MODEL_WRITE] SLAVE=1 ADDR=0x57e DATA=0xfd (beat=0 byte=2)
# data written in ref model='{603811138} for addr=0000057c
# UVM_INFO ../../src/hvlTop/environment/AhbScoreboard.sv(137) @ 35: uvm_test_top.swasthik.ahbScoreboard [REF_MODEL_WRITE] SLAVE=1 ADDR=0x57f DATA=0x23 (beat=0 byte=3)
# data written in ref model='{603811138} for addr=0000057c
# ENTERED THIS BLOCK @35
#                   35 3rd block can accept=1 slave=1
# slave_has_owner = 1 slave = 1 
# dead case s:          1 | m:          1
#                   35 inside 3rd block master_request[s=1][m= 1] htrans=3
#                   35 3rd block grant 1
# ** Info: THE REQ IS x for the slave 0
#    Time: 35 ns  Scope: HdlTop.ahbinterconnect.genblk5[0].genblk1[0] File: ../../src/hdlTop/interconnect/AhbInterconnect.sv Line: 164
# ** Info: THE GRANT IS x for the slave 0 addr is 1408 for master 0
#    Time: 35 ns  Scope: HdlTop.ahbinterconnect.genblk5[0].genblk1[0] File: ../../src/hdlTop/interconnect/AhbInterconnect.sv Line: 165
# ** Info: THE REQ IS x for the slave 0
#    Time: 35 ns  Scope: HdlTop.ahbinterconnect.genblk5[0].genblk1[1] File: ../../src/hdlTop/interconnect/AhbInterconnect.sv Line: 164
# ** Info: THE GRANT IS x for the slave 0 addr is 1760 for master 1
#    Time: 35 ns  Scope: HdlTop.ahbinterconnect.genblk5[0].genblk1[1] File: ../../src/hdlTop/interconnect/AhbInterconnect.sv Line: 165
# ** Info: THE REQ IS 11 for the slave 1
#    Time: 35 ns  Scope: HdlTop.ahbinterconnect.genblk5[1].genblk1[0] File: ../../src/hdlTop/interconnect/AhbInterconnect.sv Line: 164
# ** Info: THE GRANT IS x for the slave 1 addr is 1408 for master 0
#    Time: 35 ns  Scope: HdlTop.ahbinterconnect.genblk5[1].genblk1[0] File: ../../src/hdlTop/interconnect/AhbInterconnect.sv Line: 165
# ** Info: THE REQ IS 11 for the slave 1
#    Time: 35 ns  Scope: HdlTop.ahbinterconnect.genblk5[1].genblk1[1] File: ../../src/hdlTop/interconnect/AhbInterconnect.sv Line: 164
# ** Info: THE GRANT IS 1 for the slave 1 addr is 1760 for master 1
#    Time: 35 ns  Scope: HdlTop.ahbinterconnect.genblk5[1].genblk1[1] File: ../../src/hdlTop/interconnect/AhbInterconnect.sv Line: 165
#                   35else hready 0 master [0] can_accept=0 oldest_is_ready=1
# last grant s=1 m=1 g==1
#                   35else hready 1 master [1] can_accept=1 oldest_is_ready=1
# ENTERED THIS BLOCK @35
# slave number 1 address 1760
# -------------------------------------------------------------------------------
# Name                      Type                  Size  Value                    
# -------------------------------------------------------------------------------
# ahbMasterPacket           AhbMasterTransaction  -     @1777                    
#   haddr                   integral              32    'h57c                    
#   hselx                   integral              2     'b0                      
#   hburst                  string                5     INCR4                    
#   hmastlock               integral              1     'h0                      
#   hprot                   string                25    NORMAL_SECURE_INSTRUCTION
#   hsize                   string                4     WORD                     
#   hnonsec                 integral              1     'h1                      
#   hexcl                   integral              1     'h0                      
#   hmaster                 integral              1     'd0                      
#   htrans                  string                3     SEQ                      
#   hwrite                  string                5     WRITE                    
#   hreadyout               integral              1     'h1                      
#   hresp                   string                4     OKAY                     
#   hexokay                 integral              1     'h0                      
#   hready                  integral              1     'h0                      
#   noOfwaitStatesDetected  integral              32    'h0                      
#   hwdata[0]               integral              32    'h23fd6d42               
#   hwstrb[0]               integral              4     'b1111                   
# -------------------------------------------------------------------------------
# NIHAL EXP
# ------------------------------------------------------------------------
# Name                Type                 Size  Value                    
# ------------------------------------------------------------------------
# slave Packet        AhbSlaveTransaction  -     @1769                    
#   haddr             integral             32    'h57c                    
#   hselx             integral             2     'b1                      
#   hburst            string               5     INCR4                    
#   hmastlock         integral             1     'h0                      
#   hprot             string               25    NORMAL_SECURE_INSTRUCTION
#   hsize             string               4     WORD                     
#   hnonsec           integral             1     'h0                      
#   hexcl             integral             1     'h0                      
#   hmaster           integral             1     'd0                      
#   htrans            string               3     SEQ                      
#   hwrite            string               5     WRITE                    
#   hreadyout         integral             1     'h1                      
#   hresp             string               0     ""                       
#   hexokay           integral             1     'h0                      
#   hready            integral             1     'h0                      
#   choosePacketData  integral             1     'd0                      
#   hwdata[0]         integral             32    'h23fd6d42               
#   hwstrb[0]         integral             4     'b0                      
# ------------------------------------------------------------------------
# NIHAL S_tx
# UVM_INFO ../../src/hvlTop/environment/AhbScoreboard.sv(424) @ 35: uvm_test_top.swasthik.ahbScoreboard [AhbScoreboard] ---------------- AHB SCOREBOARD [WRITE] ----------------
# UVM_INFO ../../src/hvlTop/environment/AhbScoreboard.sv(429) @ 35: uvm_test_top.swasthik.ahbScoreboard [SB_HADDR_MATCH] HADDR Match: 0000057c
# UVM_INFO ../../src/hvlTop/environment/AhbScoreboard.sv(457) @ 35: uvm_test_top.swasthik.ahbScoreboard [SB_HWDATA_MATCH] HWDATA match at beat 0: 23fd6d42
# UVM_INFO ../../src/hvlTop/environment/AhbScoreboard.sv(507) @ 35: uvm_test_top.swasthik.ahbScoreboard [SB_HPROT_MATCH] HPROT Match
# UVM_INFO ../../src/hvlTop/environment/AhbScoreboard.sv(513) @ 35: uvm_test_top.swasthik.ahbScoreboard [SB_HSIZE_MATCH] HSIZE Match
# UVM_INFO ../../src/hvlTop/environment/AhbScoreboard.sv(519) @ 35: uvm_test_top.swasthik.ahbScoreboard [AhbScoreboard] -------------- END WRITE COMPARISON ----------------
# sending to compare
# exp_tx
# -------------------------------------------------------------------------------
# Name                      Type                  Size  Value                    
# -------------------------------------------------------------------------------
# ahbMasterPacket           AhbMasterTransaction  -     @1777                    
#   haddr                   integral              32    'h57c                    
#   hselx                   integral              2     'b0                      
#   hburst                  string                5     INCR4                    
#   hmastlock               integral              1     'h0                      
#   hprot                   string                25    NORMAL_SECURE_INSTRUCTION
#   hsize                   string                4     WORD                     
#   hnonsec                 integral              1     'h1                      
#   hexcl                   integral              1     'h0                      
#   hmaster                 integral              1     'd0                      
#   htrans                  string                3     SEQ                      
#   hwrite                  string                5     WRITE                    
#   hreadyout               integral              1     'h1                      
#   hresp                   string                4     OKAY                     
#   hexokay                 integral              1     'h0                      
#   hready                  integral              1     'h0                      
#   noOfwaitStatesDetected  integral              32    'h0                      
#   hwdata[0]               integral              32    'h23fd6d42               
#   hwstrb[0]               integral              4     'b1111                   
# -------------------------------------------------------------------------------
# s_tx
# ------------------------------------------------------------------------
# Name                Type                 Size  Value                    
# ------------------------------------------------------------------------
# slave Packet        AhbSlaveTransaction  -     @1769                    
#   haddr             integral             32    'h57c                    
#   hselx             integral             2     'b1                      
#   hburst            string               5     INCR4                    
#   hmastlock         integral             1     'h0                      
#   hprot             string               25    NORMAL_SECURE_INSTRUCTION
#   hsize             string               4     WORD                     
#   hnonsec           integral             1     'h0                      
#   hexcl             integral             1     'h0                      
#   hmaster           integral             1     'd0                      
#   htrans            string               3     SEQ                      
#   hwrite            string               5     WRITE                    
#   hreadyout         integral             1     'h1                      
#   hresp             string               0     ""                       
#   hexokay           integral             1     'h0                      
#   hready            integral             1     'h0                      
#   choosePacketData  integral             1     'd0                      
#   hwdata[0]         integral             32    'h23fd6d42               
#   hwstrb[0]         integral             4     'b0                      
# ------------------------------------------------------------------------
#                   35else hready 0 master [0] can_accept=0 oldest_is_ready=1
# last grant s=1 m=1 g==1
#                   35else hready 1 master [1] can_accept=1 oldest_is_ready=1
# ENTERED THIS BLOCK @35
#                   35 2nd else if block can_accept=1 htrans=3 slave_has_owner=1
#                   35 2nd blk grant 1 alsve=1
# ** Info: THE REQ IS x for the slave 0
#    Time: 35 ns  Scope: HdlTop.ahbinterconnect.genblk5[0].genblk1[0] File: ../../src/hdlTop/interconnect/AhbInterconnect.sv Line: 164
# ** Info: THE GRANT IS x for the slave 0 addr is 1408 for master 0
#    Time: 35 ns  Scope: HdlTop.ahbinterconnect.genblk5[0].genblk1[0] File: ../../src/hdlTop/interconnect/AhbInterconnect.sv Line: 165
# ** Info: THE REQ IS x for the slave 0
#    Time: 35 ns  Scope: HdlTop.ahbinterconnect.genblk5[0].genblk1[1] File: ../../src/hdlTop/interconnect/AhbInterconnect.sv Line: 164
# ** Info: THE GRANT IS x for the slave 0 addr is 1760 for master 1
#    Time: 35 ns  Scope: HdlTop.ahbinterconnect.genblk5[0].genblk1[1] File: ../../src/hdlTop/interconnect/AhbInterconnect.sv Line: 165
# ** Info: THE REQ IS 11 for the slave 1
#    Time: 35 ns  Scope: HdlTop.ahbinterconnect.genblk5[1].genblk1[0] File: ../../src/hdlTop/interconnect/AhbInterconnect.sv Line: 164
# ** Info: THE GRANT IS 1 for the slave 1 addr is 1408 for master 0
#    Time: 35 ns  Scope: HdlTop.ahbinterconnect.genblk5[1].genblk1[0] File: ../../src/hdlTop/interconnect/AhbInterconnect.sv Line: 165
