# vsim -vopt work.HvlTop work.HdlTop -voptargs="+acc=npr" -sv_seed random -assertdebug "+UVM_TESTNAME=AhbSingleWriteTest" "+UVM_VERBOSITY=UVM_LOW" "+define+" -l AhbSingleWriteTest/AhbSingleWriteTest.log -sva -coverage -c -do "log -r /*; add wave -r /*; coverage save -onexit -assert -directive -cvg -codeAll AhbSingleWriteTest/AhbSingleWriteTest_coverage.ucdb; run -all; exit" -wlf AhbSingleWriteTest/waveform.wlf 
# Start time: 16:09:17 on Jan 07,2026
# ** Note: (vsim-3812) Design is being optimized...
# ** Warning: ../../src/hdlTop/masterAgentBFM/AhbMasterAgentBFM.sv(41): (vopt-2685) [TFMPC] - Too few port connections for 'ahbMasterMonitorBFM'.  Expected 20, found 19.
# ** Warning: ../../src/hdlTop/masterAgentBFM/AhbMasterAgentBFM.sv(41): (vopt-2718) [TFMPC] - Missing connection for port 'hselx'.
# ** Warning: ../../src/hdlTop/masterAgentBFM/AhbMasterAgentBFM.sv(41): (vopt-2685) [TFMPC] - Too few port connections for 'ahbMasterMonitorBFM'.  Expected 20, found 19.
# ** Warning: ../../src/hdlTop/masterAgentBFM/AhbMasterAgentBFM.sv(41): (vopt-2718) [TFMPC] - Missing connection for port 'hselx'.
# ** Warning: ../../src/hvlTop/tb/test/AhbBaseTest.sv(63): (vopt-2240) Treating stand-alone use of function 'randomize' as an implicit VOID cast.
# //  Questa Sim
# //  Version 10.6c linux Jul 25 2017
# //
# //  Copyright 1991-2017 Mentor Graphics Corporation
# //  All Rights Reserved.
# //
# //  QuestaSim and its associated documentation contain trade
# //  secrets and commercial or financial information that are the property of
# //  Mentor Graphics Corporation and are privileged, confidential,
# //  and exempt from disclosure under the Freedom of Information Act,
# //  5 U.S.C. Section 552. Furthermore, this information
# //  is prohibited from disclosure under the Trade Secrets Act,
# //  18 U.S.C. Section 1905.
# //
# Loading sv_std.std
# Loading work.AhbMasterDriverBFM(fast)
# Loading work.AhbSlaveMonitorBFM(fast)
# Loading work.AhbGlobalPackage(fast)
# Loading mtiUvm.uvm_pkg
# Loading work.AhbSlavePackage(fast)
# Loading work.AhbMasterPackage(fast)
# Loading work.AhbEnvironmentPackage(fast)
# Loading work.AhbSlaveSequencePackage(fast)
# Loading work.AhbMasterSequencePackage(fast)
# Loading work.AhbVirtualSequencePackage(fast)
# Loading work.AhbTestPackage(fast)
# Loading work.AhbMasterMonitorBFM(fast)
# Loading work.AhbSlaveDriverBFM(fast)
# Loading work.HvlTop(fast)
# Loading work.HdlTop(fast)
# Loading work.AhbInterconnect_sv_unit(fast)
# Loading work.AhbInterconnect(fast)
# Loading work.AhbMasterAgentBFM(fast)
# Loading work.AhbMasterDriverBFM_sv_unit(fast)
# Loading work.AhbMasterDriverBFM(fast)
# Loading work.AhbMasterMonitorBFM_sv_unit(fast)
# Loading work.AhbMasterMonitorBFM(fast)
# Loading work.AhbMasterAgentBFM(fast__1)
# Loading work.AhbSlaveAgentBFM(fast)
# Loading work.AhbSlaveDriverBFM_sv_unit(fast)
# Loading work.AhbSlaveDriverBFM(fast)
# Loading work.AhbSlaveMonitorBFM_sv_unit(fast)
# Loading work.AhbSlaveMonitorBFM(fast)
# Loading work.AhbSlaveAgentBFM(fast__1)
# Loading mtiUvm.questa_uvm_pkg(fast)
# Loading work.AhbInterface_sv_unit(fast)
# Loading work.AhbInterface(fast__1)
# Loading work.AhbInterface(fast__2)
# ** Warning: (vsim-3015) ../../src/hdlTop/slaveAgentBFM/AhbSlaveAgentBFM.sv(40): [PCDPC] - Port size (2) does not match connection size (1) for port 'hselx'. The port definition is at: ../../src/hdlTop/slaveAgentBFM/AhbSlaveMonitorBFM.sv(25).
#    Time: 0 ns  Iteration: 0  Instance: /HdlTop/genblk2[0]/ahbSlaveAgentBFM/ahbSlaveMonitorBFM File: ../../src/hdlTop/slaveAgentBFM/AhbSlaveMonitorBFM.sv
# ** Warning: (vsim-3015) ../../src/hdlTop/slaveAgentBFM/AhbSlaveAgentBFM.sv(40): [PCDPC] - Port size (2) does not match connection size (1) for port 'hselx'. The port definition is at: ../../src/hdlTop/slaveAgentBFM/AhbSlaveMonitorBFM.sv(25).
#    Time: 0 ns  Iteration: 0  Instance: /HdlTop/genblk2[1]/ahbSlaveAgentBFM/ahbSlaveMonitorBFM File: ../../src/hdlTop/slaveAgentBFM/AhbSlaveMonitorBFM.sv
# Loading /tools/mentor/questasim_10.6c/questasim/uvm-1.1d/linux/uvm_dpi.so
# Sv_Seed = 3817235817
# log -r /*
#  add wave -r /*
#  coverage save -onexit -assert -directive -cvg -codeAll AhbSingleWriteTest/AhbSingleWriteTest_coverage.ucdb
#  run -all
# ----------------------------------------------------------------
# UVM-1.1d
# (C) 2007-2013 Mentor Graphics Corporation
# (C) 2007-2013 Cadence Design Systems, Inc.
# (C) 2006-2013 Synopsys, Inc.
# (C) 2011-2013 Cypress Semiconductor Corp.
# ----------------------------------------------------------------
# 
#   ***********       IMPORTANT RELEASE NOTES         ************
# 
#   You are using a version of the UVM library that has been compiled
#   with `UVM_NO_DEPRECATED undefined.
#   See http://www.eda.org/svdb/view.php?id=3313 for more details.
# 
#   You are using a version of the UVM library that has been compiled
#   with `UVM_OBJECT_MUST_HAVE_CONSTRUCTOR undefined.
#   See http://www.eda.org/svdb/view.php?id=3770 for more details.
# 
#       (Specify +UVM_NO_RELNOTES to turn off this notice)
# 
# UVM_INFO @ 0: reporter [RNTST] Running test AhbSingleWriteTest...
# UVM_INFO ../../src/hdlTop/HdlTop.sv(13) @ 0: reporter [HDL_TOP] HDL_TOP
# UVM_INFO ../../src/hdlTop/masterAgentBFM/AhbMasterAgentBFM.sv(15) @ 0: reporter [ahb master agent bfm] AHB MASTER AGENT BFM id is 0
# UVM_INFO ../../src/hdlTop/masterAgentBFM/AhbMasterDriverBFM.sv(37) @ 0: reporter [MASTER AGENT DRIVER BFM] [0]  MASTER AGENT DRIVER BFM STARTED AND CREATED AS EXPECTED HdlTop.genblk1[0].ahbMasterAgentBFM.ahbMasterDriverBFM.MASTER_DRIVER
# UVM_INFO ../../src/hdlTop/masterAgentBFM/AhbMasterMonitorBFM.sv(38) @ 0: reporter [AHB_MASTER_MONITOR_BFM] AHB MASTER MONITOR BFM
# UVM_INFO ../../src/hdlTop/masterAgentBFM/AhbMasterAgentBFM.sv(15) @ 0: reporter [ahb master agent bfm] AHB MASTER AGENT BFM id is 1
# UVM_INFO ../../src/hdlTop/masterAgentBFM/AhbMasterDriverBFM.sv(37) @ 0: reporter [MASTER AGENT DRIVER BFM] [0]  MASTER AGENT DRIVER BFM STARTED AND CREATED AS EXPECTED HdlTop.genblk1[1].ahbMasterAgentBFM.ahbMasterDriverBFM.MASTER_DRIVER
# UVM_INFO ../../src/hdlTop/masterAgentBFM/AhbMasterMonitorBFM.sv(38) @ 0: reporter [AHB_MASTER_MONITOR_BFM] AHB MASTER MONITOR BFM
# UVM_INFO ../../src/hdlTop/slaveAgentBFM/AhbSlaveAgentBFM.sv(14) @ 0: reporter [ahb slave agent bfm] AHB SLAVE AGENT BFM 0
# UVM_INFO ../../src/hdlTop/slaveAgentBFM/AhbSlaveDriverBFM.sv(54) @ 0: reporter [AHB_SLAVE_DRIVER_BFM] AHB_SLAVE_DRIVER_BFM
# UVM_INFO ../../src/hdlTop/slaveAgentBFM/AhbSlaveMonitorBFM.sv(39) @ 0: reporter [AHB_SLAVE_MONITOR_BFM] AHB_SLAVE_MONITOR_BFM
# UVM_INFO ../../src/hdlTop/slaveAgentBFM/AhbSlaveAgentBFM.sv(14) @ 0: reporter [ahb slave agent bfm] AHB SLAVE AGENT BFM 1
# UVM_INFO ../../src/hdlTop/slaveAgentBFM/AhbSlaveDriverBFM.sv(54) @ 0: reporter [AHB_SLAVE_DRIVER_BFM] AHB_SLAVE_DRIVER_BFM
# UVM_INFO ../../src/hdlTop/slaveAgentBFM/AhbSlaveMonitorBFM.sv(39) @ 0: reporter [AHB_SLAVE_MONITOR_BFM] AHB_SLAVE_MONITOR_BFM
# ** Info: THE REQ IS x for the slave 1
#    Time: 0 ns  Scope: HdlTop.ahbinterconnect.genblk5[1].genblk1[1] File: ../../src/hdlTop/interconnect/AhbInterconnect.sv Line: 164
# ** Info: THE GRANT IS 0 for the slave 1
#    Time: 0 ns  Scope: HdlTop.ahbinterconnect.genblk5[1].genblk1[1] File: ../../src/hdlTop/interconnect/AhbInterconnect.sv Line: 165
# THE ADDRESS IS x for the master =1
# ** Info: THE REQ IS x for the slave 1
#    Time: 0 ns  Scope: HdlTop.ahbinterconnect.genblk5[1].genblk1[0] File: ../../src/hdlTop/interconnect/AhbInterconnect.sv Line: 164
# ** Info: THE GRANT IS 0 for the slave 1
#    Time: 0 ns  Scope: HdlTop.ahbinterconnect.genblk5[1].genblk1[0] File: ../../src/hdlTop/interconnect/AhbInterconnect.sv Line: 165
# THE ADDRESS IS x for the master =0
# ** Info: THE REQ IS x for the slave 0
#    Time: 0 ns  Scope: HdlTop.ahbinterconnect.genblk5[0].genblk1[1] File: ../../src/hdlTop/interconnect/AhbInterconnect.sv Line: 164
# ** Info: THE GRANT IS 0 for the slave 0
#    Time: 0 ns  Scope: HdlTop.ahbinterconnect.genblk5[0].genblk1[1] File: ../../src/hdlTop/interconnect/AhbInterconnect.sv Line: 165
# THE ADDRESS IS x for the master =1
# ** Info: THE REQ IS x for the slave 0
#    Time: 0 ns  Scope: HdlTop.ahbinterconnect.genblk5[0].genblk1[0] File: ../../src/hdlTop/interconnect/AhbInterconnect.sv Line: 164
# ** Info: THE GRANT IS 0 for the slave 0
#    Time: 0 ns  Scope: HdlTop.ahbinterconnect.genblk5[0].genblk1[0] File: ../../src/hdlTop/interconnect/AhbInterconnect.sv Line: 165
# THE ADDRESS IS x for the master =0
# ** Info: THE REQ IS x for the slave 0
#    Time: 0 ns  Scope: HdlTop.ahbinterconnect.genblk5[0].genblk1[0] File: ../../src/hdlTop/interconnect/AhbInterconnect.sv Line: 164
# ** Info: THE GRANT IS 0 for the slave 0
#    Time: 0 ns  Scope: HdlTop.ahbinterconnect.genblk5[0].genblk1[0] File: ../../src/hdlTop/interconnect/AhbInterconnect.sv Line: 165
# THE ADDRESS IS x for the master =0
# ** Info: THE REQ IS x for the slave 0
#    Time: 0 ns  Scope: HdlTop.ahbinterconnect.genblk5[0].genblk1[1] File: ../../src/hdlTop/interconnect/AhbInterconnect.sv Line: 164
# ** Info: THE GRANT IS 0 for the slave 0
#    Time: 0 ns  Scope: HdlTop.ahbinterconnect.genblk5[0].genblk1[1] File: ../../src/hdlTop/interconnect/AhbInterconnect.sv Line: 165
# THE ADDRESS IS x for the master =1
# ** Info: THE REQ IS 0 for the slave 1
#    Time: 0 ns  Scope: HdlTop.ahbinterconnect.genblk5[1].genblk1[0] File: ../../src/hdlTop/interconnect/AhbInterconnect.sv Line: 164
# ** Info: THE GRANT IS 0 for the slave 1
#    Time: 0 ns  Scope: HdlTop.ahbinterconnect.genblk5[1].genblk1[0] File: ../../src/hdlTop/interconnect/AhbInterconnect.sv Line: 165
# THE ADDRESS IS x for the master =0
# ** Info: THE REQ IS 0 for the slave 1
#    Time: 0 ns  Scope: HdlTop.ahbinterconnect.genblk5[1].genblk1[1] File: ../../src/hdlTop/interconnect/AhbInterconnect.sv Line: 164
# ** Info: THE GRANT IS 0 for the slave 1
#    Time: 0 ns  Scope: HdlTop.ahbinterconnect.genblk5[1].genblk1[1] File: ../../src/hdlTop/interconnect/AhbInterconnect.sv Line: 165
# THE ADDRESS IS x for the master =1
# THE MASTER FIELD IS AhbMasterDriverBFM0 
# THE MASTER FIELD IS AhbMasterDriverBFM1 
# UVM_INFO ../../src/hvlTop/tb/test/AhbBaseTest.sv(57) @ 0: uvm_test_top [AhbSingleWriteTest] 
# AHB_MASTER_CONFIG[0]
# ----------------------------------------------------------
# Name                     Type                  Size  Value
# ----------------------------------------------------------
# AhbMasterAgentConfig[0]  AhbMasterAgentConfig  -     @505 
#   is_active              integral              1     1    
#   hasCoverage            integral              1     1    
# ----------------------------------------------------------
# 
# UVM_INFO ../../src/hvlTop/tb/test/AhbBaseTest.sv(57) @ 0: uvm_test_top [AhbSingleWriteTest] 
# AHB_MASTER_CONFIG[1]
# ----------------------------------------------------------
# Name                     Type                  Size  Value
# ----------------------------------------------------------
# AhbMasterAgentConfig[1]  AhbMasterAgentConfig  -     @506 
#   is_active              integral              1     1    
#   hasCoverage            integral              1     1    
# ----------------------------------------------------------
# 
# THE FIELD IS AhbSlaveDriverBFM0
# THE FIELD IS AhbSlaveDriverBFM1
# UVM_INFO ../../src/hvlTop/tb/test/AhbBaseTest.sv(70) @ 0: uvm_test_top [AhbSingleWriteTest] 
# AHB_SLAVE_CONFIG[0]
# -------------------------------------------------------------
# Name                    Type                 Size  Value     
# -------------------------------------------------------------
# AhbSlaveAgentConfig[0]  AhbSlaveAgentConfig  -     @517      
#   is_active             string               10    UVM_ACTIVE
#   hasCoverage           integral             1     1         
#   maximumAddress        integral             32    'h0       
#   minimumAddress        integral             32    'h0       
# -------------------------------------------------------------
# 
# UVM_INFO ../../src/hvlTop/tb/test/AhbBaseTest.sv(70) @ 0: uvm_test_top [AhbSingleWriteTest] 
# AHB_SLAVE_CONFIG[1]
# -------------------------------------------------------------
# Name                    Type                 Size  Value     
# -------------------------------------------------------------
# AhbSlaveAgentConfig[1]  AhbSlaveAgentConfig  -     @518      
#   is_active             string               10    UVM_ACTIVE
#   hasCoverage           integral             1     1         
#   maximumAddress        integral             32    'h0       
#   minimumAddress        integral             32    'h0       
# -------------------------------------------------------------
# 
# UVM_INFO ../../src/hvlTop/tb/test/AhbBaseTest.sv(74) @ 0: uvm_test_top [AhbSingleWriteTest] 
# AHB_ENV_CONFIG
# -------------------------------------------------------------
# Name                   Type                  Size  Value     
# -------------------------------------------------------------
# ahbEnvironmentConfig   AhbEnvironmentConfig  -     @504      
#   hasScoreboard        integral              1     1         
#   hasVirtualSequencer  integral              1     1         
#   noOfMasters          integral              32    'd2       
#   noOfSlaves           integral              32    'd2       
#   operationMode        integral              2     2         
#   operationMode        string                10    WRITE_READ
# -------------------------------------------------------------
# 
# UVM_INFO ../../src/hvlTop/tb/test/AhbSingleWriteTest.sv(22) @ 0: uvm_test_top [AhbSingleWriteTest] 1. IN ENV NO OF WAIT: 3
# ASSIGNMENT IN ENV IS 3
# ASSIGNMENT IN ENV IS 3
# THE CONFIG IS 65903
# THE CONFIG IS 131439
# UVM_INFO ../../src/hvlTop/slaveAgent/AhbSlaveAgent.sv(28) @ 0: uvm_test_top.swasthik.ahbSlaveAgent[0] [AhbSlaveAgent] SLAVE AGENT CREATED
# UVM_INFO ../../src/hvlTop/slaveAgent/AhbSlaveAgent.sv(30) @ 0: uvm_test_top.swasthik.ahbSlaveAgent[0] [AhbSlaveAgent] NO OF WAIT STATES: 3
# UVM_INFO ../../src/hvlTop/slaveAgent/AhbSlaveDriverProxy.sv(146) @ 0: uvm_test_top.swasthik.ahbSlaveAgent[0].ahbSlaveDriverProxy [AhbSlaveDriverProxy] NO OF WAIT STATES: 3
# UVM_INFO ../../src/hvlTop/slaveAgent/AhbSlaveDriverProxy.sv(34) @ 0: uvm_test_top.swasthik.ahbSlaveAgent[0].ahbSlaveDriverProxy [AhbSlaveDriverProxy] SLAVE DRIVER PROXY CREATED
# UVM_INFO ../../src/hvlTop/slaveAgent/AhbSlaveMonitorProxy.sv(32) @ 0: uvm_test_top.swasthik.ahbSlaveAgent[0].ahbSlaveMonitorProxy [AhbSlaveMonitorProxy] SLAVE MONITOR PROXY CREATED
# UVM_INFO ../../src/hvlTop/slaveAgent/AhbSlaveAgent.sv(28) @ 0: uvm_test_top.swasthik.ahbSlaveAgent[1] [AhbSlaveAgent] SLAVE AGENT CREATED
# UVM_INFO ../../src/hvlTop/slaveAgent/AhbSlaveAgent.sv(30) @ 0: uvm_test_top.swasthik.ahbSlaveAgent[1] [AhbSlaveAgent] NO OF WAIT STATES: 3
# UVM_INFO ../../src/hvlTop/slaveAgent/AhbSlaveDriverProxy.sv(146) @ 0: uvm_test_top.swasthik.ahbSlaveAgent[1].ahbSlaveDriverProxy [AhbSlaveDriverProxy] NO OF WAIT STATES: 3
# UVM_INFO ../../src/hvlTop/slaveAgent/AhbSlaveDriverProxy.sv(34) @ 0: uvm_test_top.swasthik.ahbSlaveAgent[1].ahbSlaveDriverProxy [AhbSlaveDriverProxy] SLAVE DRIVER PROXY CREATED
# UVM_INFO ../../src/hvlTop/slaveAgent/AhbSlaveMonitorProxy.sv(32) @ 0: uvm_test_top.swasthik.ahbSlaveAgent[1].ahbSlaveMonitorProxy [AhbSlaveMonitorProxy] SLAVE MONITOR PROXY CREATED
# UVM_INFO @ 0: reporter [UVMTOP] UVM testbench topology:
# -----------------------------------------------------------------------
# Name                            Type                        Size  Value
# -----------------------------------------------------------------------
# uvm_test_top                    AhbSingleWriteTest          -     @473 
#   swasthik                      AhbEnvironment              -     @533 
#     ahbMasterAgent[0]           AhbMasterAgent              -     @543 
#       ahbMasterCoverage         AhbMasterCoverage           -     @1025
#         analysis_imp            uvm_analysis_imp            -     @1032
#       ahbMasterDriverProxy      AhbMasterDriverProxy        -     @987 
#         rsp_port                uvm_analysis_port           -     @1002
#         seq_item_port           uvm_seq_item_pull_port      -     @994 
#       ahbMasterMonitorProxy     AhbMasterMonitorProxy       -     @1010
#         ahbMasterAnalysisPort   uvm_analysis_port           -     @1017
#       ahbMasterSequencer        AhbMasterSequencer          -     @878 
#         rsp_export              uvm_analysis_export         -     @885 
#         seq_item_export         uvm_seq_item_pull_imp       -     @979 
#         arbitration_queue       array                       0     -    
#         lock_queue              array                       0     -    
#         num_last_reqs           integral                    32    'd1  
#         num_last_rsps           integral                    32    'd1  
#     ahbMasterAgent[1]           AhbMasterAgent              -     @550 
#       ahbMasterCoverage         AhbMasterCoverage           -     @1193
#         analysis_imp            uvm_analysis_imp            -     @1200
#       ahbMasterDriverProxy      AhbMasterDriverProxy        -     @1155
#         rsp_port                uvm_analysis_port           -     @1170
#         seq_item_port           uvm_seq_item_pull_port      -     @1162
#       ahbMasterMonitorProxy     AhbMasterMonitorProxy       -     @1178
#         ahbMasterAnalysisPort   uvm_analysis_port           -     @1185
#       ahbMasterSequencer        AhbMasterSequencer          -     @1046
#         rsp_export              uvm_analysis_export         -     @1053
#         seq_item_export         uvm_seq_item_pull_imp       -     @1147
#         arbitration_queue       array                       0     -    
#         lock_queue              array                       0     -    
#         num_last_reqs           integral                    32    'd1  
#         num_last_rsps           integral                    32    'd1  
#     ahbScoreboard               AhbScoreboard               -     @682 
#       ahbMasterAnalysisFifo[0]  uvm_tlm_analysis_fifo #(T)  -     @689 
#         analysis_export         uvm_analysis_imp            -     @728 
#         get_ap                  uvm_analysis_port           -     @720 
#         get_peek_export         uvm_get_peek_imp            -     @704 
#         put_ap                  uvm_analysis_port           -     @712 
#         put_export              uvm_put_imp                 -     @696 
#       ahbMasterAnalysisFifo[1]  uvm_tlm_analysis_fifo #(T)  -     @736 
#         analysis_export         uvm_analysis_imp            -     @775 
#         get_ap                  uvm_analysis_port           -     @767 
#         get_peek_export         uvm_get_peek_imp            -     @751 
#         put_ap                  uvm_analysis_port           -     @759 
#         put_export              uvm_put_imp                 -     @743 
#       ahbSlaveAnalysisFifo[0]   uvm_tlm_analysis_fifo #(T)  -     @783 
#         analysis_export         uvm_analysis_imp            -     @822 
#         get_ap                  uvm_analysis_port           -     @814 
#         get_peek_export         uvm_get_peek_imp            -     @798 
#         put_ap                  uvm_analysis_port           -     @806 
#         put_export              uvm_put_imp                 -     @790 
#       ahbSlaveAnalysisFifo[1]   uvm_tlm_analysis_fifo #(T)  -     @830 
#         analysis_export         uvm_analysis_imp            -     @869 
#         get_ap                  uvm_analysis_port           -     @861 
#         get_peek_export         uvm_get_peek_imp            -     @845 
#         put_ap                  uvm_analysis_port           -     @853 
#         put_export              uvm_put_imp                 -     @837 
#     ahbSlaveAgent[0]            AhbSlaveAgent               -     @559 
#       ahbSlaveCoverage          AhbSlaveCoverage            -     @1362
#         analysis_imp            uvm_analysis_imp            -     @1369
#       ahbSlaveDriverProxy       AhbSlaveDriverProxy         -     @1324
#         rsp_port                uvm_analysis_port           -     @1339
#         seq_item_port           uvm_seq_item_pull_port      -     @1331
#       ahbSlaveMonitorProxy      AhbSlaveMonitorProxy        -     @1347
#         ahbSlaveAnalysisPort    uvm_analysis_port           -     @1354
#       ahbSlaveSequencer         AhbSlaveSequencer           -     @1215
#         rsp_export              uvm_analysis_export         -     @1222
#         seq_item_export         uvm_seq_item_pull_imp       -     @1316
#         arbitration_queue       array                       0     -    
#         lock_queue              array                       0     -    
#         num_last_reqs           integral                    32    'd1  
#         num_last_rsps           integral                    32    'd1  
#     ahbSlaveAgent[1]            AhbSlaveAgent               -     @566 
#       ahbSlaveCoverage          AhbSlaveCoverage            -     @1530
#         analysis_imp            uvm_analysis_imp            -     @1537
#       ahbSlaveDriverProxy       AhbSlaveDriverProxy         -     @1492
#         rsp_port                uvm_analysis_port           -     @1507
#         seq_item_port           uvm_seq_item_pull_port      -     @1499
#       ahbSlaveMonitorProxy      AhbSlaveMonitorProxy        -     @1515
#         ahbSlaveAnalysisPort    uvm_analysis_port           -     @1522
#       ahbSlaveSequencer         AhbSlaveSequencer           -     @1383
#         rsp_export              uvm_analysis_export         -     @1390
#         seq_item_export         uvm_seq_item_pull_imp       -     @1484
#         arbitration_queue       array                       0     -    
#         lock_queue              array                       0     -    
#         num_last_reqs           integral                    32    'd1  
#         num_last_rsps           integral                    32    'd1  
#     ahbVirtualSequencer         AhbVirtualSequencer         -     @573 
#       rsp_export                uvm_analysis_export         -     @580 
#       seq_item_export           uvm_seq_item_pull_imp       -     @674 
#       arbitration_queue         array                       0     -    
#       lock_queue                array                       0     -    
#       num_last_reqs             integral                    32    'd1  
#       num_last_rsps             integral                    32    'd1  
# -----------------------------------------------------------------------
# 
# UVM_INFO ../../src/hvlTop/tb/test/AhbSingleWriteTest.sv(27) @ 0: uvm_test_top [AhbSingleWriteTest] 2. IN ENV NO OF WAIT: 3
# UVM_INFO ../../src/hvlTop/tb/test/AhbSingleWriteTest.sv(37) @ 0: uvm_test_top [AhbSingleWriteTest] AhbSingleWriteTest
# CONNVERTER NO OF WAIT STATES IS 3
# UVM_INFO ../../src/hvlTop/slaveAgent/AhbSlaveDriverProxy.sv(50) @ 0: uvm_test_top.swasthik.ahbSlaveAgent[1].ahbSlaveDriverProxy [AhbSlaveDriverProxy]  BEFORE RESET 
#  
# CONNVERTER NO OF WAIT STATES IS 3
# UVM_INFO ../../src/hvlTop/slaveAgent/AhbSlaveDriverProxy.sv(50) @ 0: uvm_test_top.swasthik.ahbSlaveAgent[0].ahbSlaveDriverProxy [AhbSlaveDriverProxy]  BEFORE RESET 
#  
# UVM_INFO ../../src/hvlTop/masterAgent/AhbMasterMonitorProxy.sv(88) @ 0: uvm_test_top.swasthik.ahbMasterAgent[1].ahbMasterMonitorProxy [AhbMasterMonitorProxy] Inside the master_monitor_proxy
# UVM_INFO ../../src/hdlTop/masterAgentBFM/AhbMasterMonitorBFM.sv(42) @ 0: reporter [MASTER AGENT MONITOR BFM] [0]  waitForResetn CALLED
# UVM_INFO ../../src/hdlTop/masterAgentBFM/AhbMasterDriverBFM.sv(48) @ 0: reporter [MASTER AGENT DRIVER BFM] [0]  waitForRestn CALLED
# UVM_INFO ../../src/hvlTop/masterAgent/AhbMasterMonitorProxy.sv(88) @ 0: uvm_test_top.swasthik.ahbMasterAgent[0].ahbMasterMonitorProxy [AhbMasterMonitorProxy] Inside the master_monitor_proxy
# UVM_INFO ../../src/hdlTop/masterAgentBFM/AhbMasterMonitorBFM.sv(42) @ 0: reporter [MASTER AGENT MONITOR BFM] [0]  waitForResetn CALLED
# UVM_INFO ../../src/hdlTop/masterAgentBFM/AhbMasterDriverBFM.sv(48) @ 0: reporter [MASTER AGENT DRIVER BFM] [0]  waitForRestn CALLED
# UVM_INFO ../../src/hvlTop/slaveAgent/AhbSlaveMonitorProxy.sv(75) @ 5: uvm_test_top.swasthik.ahbSlaveAgent[0].ahbSlaveMonitorProxy [AhbSlaveMonitorProxy] Sending packet via analysis_port: , 
#  ----------------------------------------------------
# Name                Type                 Size  Value
# ----------------------------------------------------
# slave Packet        AhbSlaveTransaction  -     @1743
#   haddr             integral             32    'h0  
#   hselx             integral             2     'b1  
#   hburst            string               0     ""   
#   hmastlock         integral             1     'h0  
#   hprot             string               0     ""   
#   hsize             string               0     ""   
#   hnonsec           integral             1     'h0  
#   hexcl             integral             1     'h0  
#   hmaster           integral             1     'd0  
#   htrans            string               0     ""   
#   hwrite            string               4     READ 
#   hreadyout         integral             1     'h0  
#   hresp             string               0     ""   
#   hexokay           integral             1     'h0  
#   hready            integral             1     'h0  
#   choosePacketData  integral             1     'd0  
# ----------------------------------------------------
# 
# CONNVERTER NO OF WAIT STATES IS 3
# UVM_INFO ../../src/hvlTop/slaveAgent/AhbSlaveMonitorProxy.sv(75) @ 5: uvm_test_top.swasthik.ahbSlaveAgent[1].ahbSlaveMonitorProxy [AhbSlaveMonitorProxy] Sending packet via analysis_port: , 
#  ----------------------------------------------------
# Name                Type                 Size  Value
# ----------------------------------------------------
# slave Packet        AhbSlaveTransaction  -     @1747
#   haddr             integral             32    'h0  
#   hselx             integral             2     'b1  
#   hburst            string               0     ""   
#   hmastlock         integral             1     'h0  
#   hprot             string               0     ""   
#   hsize             string               0     ""   
#   hnonsec           integral             1     'h0  
#   hexcl             integral             1     'h0  
#   hmaster           integral             1     'd0  
#   htrans            string               0     ""   
#   hwrite            string               4     READ 
#   hreadyout         integral             1     'h0  
#   hresp             string               0     ""   
#   hexokay           integral             1     'h0  
#   hready            integral             1     'h0  
#   choosePacketData  integral             1     'd0  
# ----------------------------------------------------
# 
# CONNVERTER NO OF WAIT STATES IS 3
# UVM_INFO ../../src/hdlTop/slaveAgentBFM/AhbSlaveDriverBFM.sv(66) @ 5: reporter [AHB_SLAVE_DRIVER_BFM] SYSTEM RESET DETECTED
# UVM_INFO ../../src/hdlTop/slaveAgentBFM/AhbSlaveDriverBFM.sv(66) @ 5: reporter [AHB_SLAVE_DRIVER_BFM] SYSTEM RESET DETECTED
# UVM_INFO ../../src/hdlTop/masterAgentBFM/AhbMasterDriverBFM.sv(51) @ 5: reporter [MASTER AGENT DRIVER BFM] [5]  SYSTEM RESET DETECTED
# UVM_INFO ../../src/hdlTop/masterAgentBFM/AhbMasterMonitorBFM.sv(45) @ 5: reporter [MASTER AGENT MONITOR BFM] [5]  SYETEM RESET DETECTED
# UVM_INFO ../../src/hdlTop/masterAgentBFM/AhbMasterDriverBFM.sv(51) @ 5: reporter [MASTER AGENT DRIVER BFM] [5]  SYSTEM RESET DETECTED
# UVM_INFO ../../src/hdlTop/masterAgentBFM/AhbMasterMonitorBFM.sv(45) @ 5: reporter [MASTER AGENT MONITOR BFM] [5]  SYETEM RESET DETECTED
# ** Info: THE REQ IS 0 for the slave 0
#    Time: 5 ns  Scope: HdlTop.ahbinterconnect.genblk5[0].genblk1[0] File: ../../src/hdlTop/interconnect/AhbInterconnect.sv Line: 164
# ** Info: THE GRANT IS 0 for the slave 0
#    Time: 5 ns  Scope: HdlTop.ahbinterconnect.genblk5[0].genblk1[0] File: ../../src/hdlTop/interconnect/AhbInterconnect.sv Line: 165
# THE ADDRESS IS x for the master =0
# ** Info: THE REQ IS 0 for the slave 0
#    Time: 5 ns  Scope: HdlTop.ahbinterconnect.genblk5[0].genblk1[1] File: ../../src/hdlTop/interconnect/AhbInterconnect.sv Line: 164
# ** Info: THE GRANT IS 0 for the slave 0
#    Time: 5 ns  Scope: HdlTop.ahbinterconnect.genblk5[0].genblk1[1] File: ../../src/hdlTop/interconnect/AhbInterconnect.sv Line: 165
# THE ADDRESS IS x for the master =1
# ** Info: THE REQ IS 0 for the slave 1
#    Time: 5 ns  Scope: HdlTop.ahbinterconnect.genblk5[1].genblk1[0] File: ../../src/hdlTop/interconnect/AhbInterconnect.sv Line: 164
# ** Info: THE GRANT IS 0 for the slave 1
#    Time: 5 ns  Scope: HdlTop.ahbinterconnect.genblk5[1].genblk1[0] File: ../../src/hdlTop/interconnect/AhbInterconnect.sv Line: 165
# THE ADDRESS IS x for the master =0
# ** Info: THE REQ IS 0 for the slave 1
#    Time: 5 ns  Scope: HdlTop.ahbinterconnect.genblk5[1].genblk1[1] File: ../../src/hdlTop/interconnect/AhbInterconnect.sv Line: 164
# ** Info: THE GRANT IS 0 for the slave 1
#    Time: 5 ns  Scope: HdlTop.ahbinterconnect.genblk5[1].genblk1[1] File: ../../src/hdlTop/interconnect/AhbInterconnect.sv Line: 165
# THE ADDRESS IS x for the master =1
# @                  15 H EY MAN
# UVM_INFO ../../src/hvlTop/slaveAgent/AhbSlaveMonitorProxy.sv(75) @ 15: uvm_test_top.swasthik.ahbSlaveAgent[0].ahbSlaveMonitorProxy [AhbSlaveMonitorProxy] Sending packet via analysis_port: , 
#  -----------------------------------------------------------------
# Name                Type                 Size  Value             
# -----------------------------------------------------------------
# slave Packet        AhbSlaveTransaction  -     @1751             
#   haddr             integral             32    'h0               
#   hselx             integral             2     'b1               
#   hburst            string               6     SINGLE            
#   hmastlock         integral             1     'h0               
#   hprot             string               18    NORMAL_SECURE_DATA
#   hsize             string               4     BYTE              
#   hnonsec           integral             1     'h0               
#   hexcl             integral             1     'h0               
#   hmaster           integral             1     'd0               
#   htrans            string               4     IDLE              
#   hwrite            string               4     READ              
#   hreadyout         integral             1     'h1               
#   hresp             string               0     ""                
#   hexokay           integral             1     'h0               
#   hready            integral             1     'h0               
#   choosePacketData  integral             1     'd0               
# -----------------------------------------------------------------
# 
# CONNVERTER NO OF WAIT STATES IS 3
# UVM_INFO ../../src/hvlTop/slaveAgent/AhbSlaveMonitorProxy.sv(75) @ 15: uvm_test_top.swasthik.ahbSlaveAgent[1].ahbSlaveMonitorProxy [AhbSlaveMonitorProxy] Sending packet via analysis_port: , 
#  -----------------------------------------------------------------
# Name                Type                 Size  Value             
# -----------------------------------------------------------------
# slave Packet        AhbSlaveTransaction  -     @1755             
#   haddr             integral             32    'h0               
#   hselx             integral             2     'b1               
#   hburst            string               6     SINGLE            
#   hmastlock         integral             1     'h0               
#   hprot             string               18    NORMAL_SECURE_DATA
#   hsize             string               4     BYTE              
#   hnonsec           integral             1     'h0               
#   hexcl             integral             1     'h0               
#   hmaster           integral             1     'd0               
#   htrans            string               4     IDLE              
#   hwrite            string               4     READ              
#   hreadyout         integral             1     'h1               
#   hresp             string               0     ""                
#   hexokay           integral             1     'h0               
#   hready            integral             1     'h0               
#   choosePacketData  integral             1     'd0               
# -----------------------------------------------------------------
# 
# CONNVERTER NO OF WAIT STATES IS 3
# UVM_INFO ../../src/hdlTop/masterAgentBFM/AhbMasterMonitorBFM.sv(48) @ 15: reporter [MASTER AGENT MONITOR BFM] [15]  waitForResetn DEACTIVATED
# UVM_INFO ../../src/hdlTop/masterAgentBFM/AhbMasterMonitorBFM.sv(52) @ 15: reporter [MASTER AGENT MONITOR BFM] [15]  sampleData CALLED
# UVM_INFO ../../src/hdlTop/masterAgentBFM/AhbMasterMonitorBFM.sv(48) @ 15: reporter [MASTER AGENT MONITOR BFM] [15]  waitForResetn DEACTIVATED
# UVM_INFO ../../src/hdlTop/masterAgentBFM/AhbMasterMonitorBFM.sv(52) @ 15: reporter [MASTER AGENT MONITOR BFM] [15]  sampleData CALLED
# UVM_INFO ../../src/hdlTop/masterAgentBFM/AhbMasterDriverBFM.sv(56) @ 15: reporter [MASTER AGENT DRIVER BFM] [15]  SYSTEM RESET DEACTIVATED
# UVM_INFO ../../src/hdlTop/masterAgentBFM/AhbMasterDriverBFM.sv(56) @ 15: reporter [MASTER AGENT DRIVER BFM] [15]  SYSTEM RESET DEACTIVATED
# UVM_INFO ../../src/hdlTop/slaveAgentBFM/AhbSlaveDriverBFM.sv(70) @ 15: reporter [AHB_SLAVE_DRIVER_BFM] SYSTEM RESET DEACTIVATED
# UVM_INFO ../../src/hdlTop/slaveAgentBFM/AhbSlaveDriverBFM.sv(70) @ 15: reporter [AHB_SLAVE_DRIVER_BFM] SYSTEM RESET DEACTIVATED
# ---------------------------------------------------------
# Name                Type                 Size  Value     
# ---------------------------------------------------------
# req                 AhbSlaveTransaction  -     @1619     
#   haddr             integral             32    'h0       
#   hselx             integral             2     'b0       
#   hburst            string               0     ""        
#   hmastlock         integral             1     'h0       
#   hprot             string               0     ""        
#   hsize             string               0     ""        
#   hnonsec           integral             1     'h0       
#   hexcl             integral             1     'h0       
#   hmaster           integral             1     'd0       
#   htrans            string               0     ""        
#   hwrite            string               4     READ      
#   hreadyout         integral             1     'h0       
#   hresp             string               0     ""        
#   hexokay           integral             1     'h1       
#   hready            integral             1     'h0       
#   choosePacketData  integral             1     'd0       
#   hwdata[0]         integral             32    'h82635cea
#   hwdata[1]         integral             32    'hebd7fcb1
#   hwdata[2]         integral             32    'hf680785a
#   hwdata[3]         integral             32    'h99a8b9e3
#   hwdata[4]         integral             32    'h662b369b
#   hwdata[5]         integral             32    'h916de866
#   hwdata[6]         integral             32    'h5857a868
#   hwdata[7]         integral             32    'hb8e7369 
#   hwdata[8]         integral             32    'h2f03086a
#   hwdata[9]         integral             32    'h573416bb
#   hwdata[10]        integral             32    'he11a2c9a
#   hwdata[11]        integral             32    'hf552db2b
#   hwdata[12]        integral             32    'hbdac7878
#   hwdata[13]        integral             32    'h2e82061f
#   hwdata[14]        integral             32    'h37b040c8
#   hwdata[15]        integral             32    'h8a2eb533
#   hwstrb[0]         integral             4     'b1       
#   hwstrb[1]         integral             4     'b10      
#   hwstrb[2]         integral             4     'b1       
#   hwstrb[3]         integral             4     'b11      
#   hwstrb[4]         integral             4     'b100     
#   hwstrb[5]         integral             4     'b1001    
#   hwstrb[6]         integral             4     'b1011    
#   hwstrb[7]         integral             4     'b111     
#   hwstrb[8]         integral             4     'b1010    
#   hwstrb[9]         integral             4     'b1001    
#   hwstrb[10]        integral             4     'b1010    
#   hwstrb[11]        integral             4     'b1100    
#   hwstrb[12]        integral             4     'b1000    
#   hwstrb[13]        integral             4     'b1110    
#   hwstrb[14]        integral             4     'b1000    
#   hwstrb[15]        integral             4     'b1010    
#   hrdata[0]         integral             32    'h408647f2
#   hrdata[1]         integral             32    'h953099  
#   hrdata[2]         integral             32    'h786de7d8
#   hrdata[3]         integral             32    'h43d7bab3
#   hrdata[4]         integral             32    'h3292a749
#   hrdata[5]         integral             32    'h737cc86d
#   hrdata[6]         integral             32    'h940dab03
#   hrdata[7]         integral             32    'h54c3a01e
#   hrdata[8]         integral             32    'hb51c2ef5
#   hrdata[9]         integral             32    'h67401e96
#   hrdata[10]        integral             32    'h809333a1
#   hrdata[11]        integral             32    'h1eb44b89
#   hrdata[12]        integral             32    'hcd3e3cd9
#   hrdata[13]        integral             32    'he1b59758
#   hrdata[14]        integral             32    'h5768c5ec
#   hrdata[15]        integral             32    'hc3382311
# ---------------------------------------------------------
# ---------------------------------------------------------
# Name                Type                 Size  Value     
# ---------------------------------------------------------
# req                 AhbSlaveTransaction  -     @1615     
#   haddr             integral             32    'h0       
#   hselx             integral             2     'b0       
#   hburst            string               0     ""        
#   hmastlock         integral             1     'h0       
#   hprot             string               0     ""        
#   hsize             string               0     ""        
#   hnonsec           integral             1     'h0       
#   hexcl             integral             1     'h0       
#   hmaster           integral             1     'd0       
#   htrans            string               0     ""        
#   hwrite            string               4     READ      
#   hreadyout         integral             1     'h1       
#   hresp             string               0     ""        
#   hexokay           integral             1     'h1       
#   hready            integral             1     'h0       
#   choosePacketData  integral             1     'd0       
#   hwdata[0]         integral             32    'he2a011d7
#   hwdata[1]         integral             32    'ha96f30b7
#   hwdata[2]         integral             32    'h1ae7ab56
#   hwdata[3]         integral             32    'haa3d64f1
#   hwdata[4]         integral             32    'h22728714
#   hwdata[5]         integral             32    'h6b323fc8
#   hwdata[6]         integral             32    'hbe13fb99
#   hwdata[7]         integral             32    'he508d9cf
#   hwdata[8]         integral             32    'hef588e93
#   hwdata[9]         integral             32    'h16dcda04
#   hwdata[10]        integral             32    'h7f7832d5
#   hwdata[11]        integral             32    'h74a79908
#   hwdata[12]        integral             32    'ha2cde5b5
#   hwdata[13]        integral             32    'h6979b53b
#   hwdata[14]        integral             32    'h42404f4e
#   hwdata[15]        integral             32    'he5b8e6ec
#   hwstrb[0]         integral             4     'b111     
#   hwstrb[1]         integral             4     'b100     
#   hwstrb[2]         integral             4     'b1       
#   hwstrb[3]         integral             4     'b1       
#   hwstrb[4]         integral             4     'b1100    
#   hwstrb[5]         integral             4     'b11      
#   hwstrb[6]         integral             4     'b0       
#   hwstrb[7]         integral             4     'b1       
#   hwstrb[8]         integral             4     'b1       
#   hwstrb[9]         integral             4     'b1110    
#   hwstrb[10]        integral             4     'b1000    
#   hwstrb[11]        integral             4     'b1111    
#   hwstrb[12]        integral             4     'b1100    
#   hwstrb[13]        integral             4     'b1101    
#   hwstrb[14]        integral             4     'b100     
#   hwstrb[15]        integral             4     'b1000    
#   hrdata[0]         integral             32    'h609a28dc
#   hrdata[1]         integral             32    'hdea1da8b
#   hrdata[2]         integral             32    'hf218e646
#   hrdata[3]         integral             32    'hb32726ed
#   hrdata[4]         integral             32    'hf373771d
#   hrdata[5]         integral             32    'h210f68fc
#   hrdata[6]         integral             32    'h2409f134
#   hrdata[7]         integral             32    'h734daf64
#   hrdata[8]         integral             32    'h652ce41b
#   hrdata[9]         integral             32    'h79da7584
#   hrdata[10]        integral             32    'he07cb1be
#   hrdata[11]        integral             32    'hb86519b5
#   hrdata[12]        integral             32    'h2b441864
#   hrdata[13]        integral             32    'h6cafc1e2
#   hrdata[14]        integral             32    'h91b2ddf0
#   hrdata[15]        integral             32    'h14bae4a7
# ---------------------------------------------------------
# UVM_INFO ../../src/hvlTop/masterAgent/masterSequences/AhbMasterSequence.sv(116) @ 15: uvm_test_top.swasthik.ahbMasterAgent[0].ahbMasterSequencer@@ahbMasterSequence [AHB] req is of type: AhbMasterTransaction
# *****************************************master sequence***********************************
# ---------------------------------------------------------------------------
# Name                      Type                  Size  Value                
# ---------------------------------------------------------------------------
# req                       AhbMasterTransaction  -     @1611                
#   haddr                   integral              32    'h294                
#   hselx                   integral              2     'b10                 
#   hburst                  string                6     SINGLE               
#   hmastlock               integral              1     'h1                  
#   hprot                   string                21    NORMAL_NONSECURE_DATA
#   hsize                   string                4     WORD                 
#   hnonsec                 integral              1     'h1                  
#   hexcl                   integral              1     'h0                  
#   hmaster                 integral              1     'd0                  
#   htrans                  string                6     NONSEQ               
#   hwrite                  string                5     WRITE                
#   hreadyout               integral              1     'h0                  
#   hresp                   string                0     ""                   
#   hexokay                 integral              1     'h0                  
#   hready                  integral              1     'h0                  
#   noOfwaitStatesDetected  integral              32    'h0                  
#   hwdata[0]               integral              32    'h38b85549           
#   hwstrb[0]               integral              4     'b1111               
#   busyControl[0]          integral              1     'h0                  
# ---------------------------------------------------------------------------
# ********************************************************************************************
# UVM_INFO ../../src/hvlTop/masterAgent/masterSequences/AhbMasterSequence.sv(116) @ 15: uvm_test_top.swasthik.ahbMasterAgent[1].ahbMasterSequencer@@ahbMasterSequence [AHB] req is of type: AhbMasterTransaction
# *****************************************master sequence***********************************
# ----------------------------------------------------------------------------------
# Name                      Type                  Size  Value                       
# ----------------------------------------------------------------------------------
# req                       AhbMasterTransaction  -     @1607                       
#   haddr                   integral              32    'h420                       
#   hselx                   integral              2     'b10                        
#   hburst                  string                6     SINGLE                      
#   hmastlock               integral              1     'h1                         
#   hprot                   string                28    NORMAL_NONSECURE_INSTRUCTION
#   hsize                   string                4     WORD                        
#   hnonsec                 integral              1     'h1                         
#   hexcl                   integral              1     'h1                         
#   hmaster                 integral              1     'd0                         
#   htrans                  string                6     NONSEQ                      
#   hwrite                  string                5     WRITE                       
#   hreadyout               integral              1     'h0                         
#   hresp                   string                0     ""                          
#   hexokay                 integral              1     'h0                         
#   hready                  integral              1     'h0                         
#   noOfwaitStatesDetected  integral              32    'h0                         
#   hwdata[0]               integral              32    'haa2f3415                  
#   hwstrb[0]               integral              4     'b1111                      
#   busyControl[0]          integral              1     'h0                         
# ----------------------------------------------------------------------------------
# ********************************************************************************************
# UVM_INFO ../../src/hvlTop/slaveAgent/AhbSlaveDriverProxy.sv(92) @ 15: uvm_test_top.swasthik.ahbSlaveAgent[0].ahbSlaveDriverProxy [AhbSlaveDriverProxy] RUN PHASE: NO OF WAIT STATES: 3
# CONNVERTER NO OF WAIT STATES IS 3
# UVM_INFO ../../src/hvlTop/slaveAgent/AhbSlaveDriverProxy.sv(100) @ 15: uvm_test_top.swasthik.ahbSlaveAgent[0].ahbSlaveDriverProxy [AhbSlaveDriverProxy] ACK SENT
# UVM_INFO ../../src/hvlTop/slaveAgent/AhbSlaveDriverProxy.sv(92) @ 15: uvm_test_top.swasthik.ahbSlaveAgent[1].ahbSlaveDriverProxy [AhbSlaveDriverProxy] RUN PHASE: NO OF WAIT STATES: 3
# CONNVERTER NO OF WAIT STATES IS 3
# UVM_INFO ../../src/hvlTop/slaveAgent/AhbSlaveDriverProxy.sv(100) @ 15: uvm_test_top.swasthik.ahbSlaveAgent[1].ahbSlaveDriverProxy [AhbSlaveDriverProxy] ACK SENT
# UVM_INFO ../../src/hvlTop/masterAgent/AhbMasterDriverProxy.sv(100) @ 15: uvm_test_top.swasthik.ahbMasterAgent[0].ahbMasterDriverProxy [AhbMasterDriverProxy] Received Transaction: 
# ---------------------------------------------------------------------------
# Name                      Type                  Size  Value                
# ---------------------------------------------------------------------------
# req                       AhbMasterTransaction  -     @1611                
#   haddr                   integral              32    'h294                
#   hselx                   integral              2     'b10                 
#   hburst                  string                6     SINGLE               
#   hmastlock               integral              1     'h1                  
#   hprot                   string                21    NORMAL_NONSECURE_DATA
#   hsize                   string                4     WORD                 
#   hnonsec                 integral              1     'h1                  
#   hexcl                   integral              1     'h0                  
#   hmaster                 integral              1     'd0                  
#   htrans                  string                6     NONSEQ               
#   hwrite                  string                5     WRITE                
#   hreadyout               integral              1     'h0                  
#   hresp                   string                0     ""                   
#   hexokay                 integral              1     'h0                  
#   hready                  integral              1     'h0                  
#   noOfwaitStatesDetected  integral              32    'h0                  
#   hwdata[0]               integral              32    'h38b85549           
#   hwstrb[0]               integral              4     'b1111               
#   busyControl[0]          integral              1     'h0                  
# ---------------------------------------------------------------------------
# 
# UVM_INFO ../../src/hdlTop/masterAgentBFM/AhbMasterDriverBFM.sv(60) @ 15: reporter [MASTER AGENT DRIVER BFM] [15]  driveToBFM CALLED
# UVM_INFO ../../src/hdlTop/masterAgentBFM/AhbMasterDriverBFM.sv(73) @ 15: reporter [MASTER AGENT DRIVER BFM] [15]  driveSingleTransfer CALLED
# UVM_INFO ../../src/hvlTop/masterAgent/AhbMasterDriverProxy.sv(100) @ 15: uvm_test_top.swasthik.ahbMasterAgent[1].ahbMasterDriverProxy [AhbMasterDriverProxy] Received Transaction: 
# ----------------------------------------------------------------------------------
# Name                      Type                  Size  Value                       
# ----------------------------------------------------------------------------------
# req                       AhbMasterTransaction  -     @1607                       
#   haddr                   integral              32    'h420                       
#   hselx                   integral              2     'b10                        
#   hburst                  string                6     SINGLE                      
#   hmastlock               integral              1     'h1                         
#   hprot                   string                28    NORMAL_NONSECURE_INSTRUCTION
#   hsize                   string                4     WORD                        
#   hnonsec                 integral              1     'h1                         
#   hexcl                   integral              1     'h1                         
#   hmaster                 integral              1     'd0                         
#   htrans                  string                6     NONSEQ                      
#   hwrite                  string                5     WRITE                       
#   hreadyout               integral              1     'h0                         
#   hresp                   string                0     ""                          
#   hexokay                 integral              1     'h0                         
#   hready                  integral              1     'h0                         
#   noOfwaitStatesDetected  integral              32    'h0                         
#   hwdata[0]               integral              32    'haa2f3415                  
#   hwstrb[0]               integral              4     'b1111                      
#   busyControl[0]          integral              1     'h0                         
# ----------------------------------------------------------------------------------
# 
# UVM_INFO ../../src/hdlTop/masterAgentBFM/AhbMasterDriverBFM.sv(60) @ 15: reporter [MASTER AGENT DRIVER BFM] [15]  driveToBFM CALLED
# UVM_INFO ../../src/hdlTop/masterAgentBFM/AhbMasterDriverBFM.sv(73) @ 15: reporter [MASTER AGENT DRIVER BFM] [15]  driveSingleTransfer CALLED
# SLAVE SEQUENCE DONE 
# SLAVE SEQUENCE DONE 
# ** Info: THE REQ IS 0 for the slave 0
#    Time: 16 ns  Scope: HdlTop.ahbinterconnect.genblk5[0].genblk1[1] File: ../../src/hdlTop/interconnect/AhbInterconnect.sv Line: 164
# ** Info: THE GRANT IS 0 for the slave 0
#    Time: 16 ns  Scope: HdlTop.ahbinterconnect.genblk5[0].genblk1[1] File: ../../src/hdlTop/interconnect/AhbInterconnect.sv Line: 165
# THE ADDRESS IS 10000100000 for the master =1
# ** Info: THE REQ IS 0 for the slave 1
#    Time: 16 ns  Scope: HdlTop.ahbinterconnect.genblk5[1].genblk1[1] File: ../../src/hdlTop/interconnect/AhbInterconnect.sv Line: 164
# ** Info: THE GRANT IS 0 for the slave 1
#    Time: 16 ns  Scope: HdlTop.ahbinterconnect.genblk5[1].genblk1[1] File: ../../src/hdlTop/interconnect/AhbInterconnect.sv Line: 165
# THE ADDRESS IS 10000100000 for the master =1
# ** Info: THE REQ IS 0 for the slave 0
#    Time: 16 ns  Scope: HdlTop.ahbinterconnect.genblk5[0].genblk1[0] File: ../../src/hdlTop/interconnect/AhbInterconnect.sv Line: 164
# ** Info: THE GRANT IS 0 for the slave 0
#    Time: 16 ns  Scope: HdlTop.ahbinterconnect.genblk5[0].genblk1[0] File: ../../src/hdlTop/interconnect/AhbInterconnect.sv Line: 165
# THE ADDRESS IS 1010010100 for the master =0
# ** Info: THE REQ IS 0 for the slave 1
#    Time: 16 ns  Scope: HdlTop.ahbinterconnect.genblk5[1].genblk1[0] File: ../../src/hdlTop/interconnect/AhbInterconnect.sv Line: 164
# ** Info: THE GRANT IS 0 for the slave 1
#    Time: 16 ns  Scope: HdlTop.ahbinterconnect.genblk5[1].genblk1[0] File: ../../src/hdlTop/interconnect/AhbInterconnect.sv Line: 165
# THE ADDRESS IS 1010010100 for the master =0
# ** Info: THE REQ IS 1 for the slave 0
#    Time: 16 ns  Scope: HdlTop.ahbinterconnect.genblk5[0].genblk1[0] File: ../../src/hdlTop/interconnect/AhbInterconnect.sv Line: 164
# ** Info: THE GRANT IS 0 for the slave 0
#    Time: 16 ns  Scope: HdlTop.ahbinterconnect.genblk5[0].genblk1[0] File: ../../src/hdlTop/interconnect/AhbInterconnect.sv Line: 165
# THE ADDRESS IS 1010010100 for the master =0
# ** Info: THE REQ IS 1 for the slave 0
#    Time: 16 ns  Scope: HdlTop.ahbinterconnect.genblk5[0].genblk1[1] File: ../../src/hdlTop/interconnect/AhbInterconnect.sv Line: 164
# ** Info: THE GRANT IS 0 for the slave 0
#    Time: 16 ns  Scope: HdlTop.ahbinterconnect.genblk5[0].genblk1[1] File: ../../src/hdlTop/interconnect/AhbInterconnect.sv Line: 165
# THE ADDRESS IS 10000100000 for the master =1
# ** Info: THE REQ IS 10 for the slave 1
#    Time: 16 ns  Scope: HdlTop.ahbinterconnect.genblk5[1].genblk1[0] File: ../../src/hdlTop/interconnect/AhbInterconnect.sv Line: 164
# ** Info: THE GRANT IS 0 for the slave 1
#    Time: 16 ns  Scope: HdlTop.ahbinterconnect.genblk5[1].genblk1[0] File: ../../src/hdlTop/interconnect/AhbInterconnect.sv Line: 165
# THE ADDRESS IS 1010010100 for the master =0
# ** Info: THE REQ IS 10 for the slave 1
#    Time: 16 ns  Scope: HdlTop.ahbinterconnect.genblk5[1].genblk1[1] File: ../../src/hdlTop/interconnect/AhbInterconnect.sv Line: 164
# ** Info: THE GRANT IS 0 for the slave 1
#    Time: 16 ns  Scope: HdlTop.ahbinterconnect.genblk5[1].genblk1[1] File: ../../src/hdlTop/interconnect/AhbInterconnect.sv Line: 165
# THE ADDRESS IS 10000100000 for the master =1
# ** Info: THE REQ IS 1 for the slave 0
#    Time: 16 ns  Scope: HdlTop.ahbinterconnect.genblk5[0].genblk1[0] File: ../../src/hdlTop/interconnect/AhbInterconnect.sv Line: 164
# ** Info: THE GRANT IS 1 for the slave 0
#    Time: 16 ns  Scope: HdlTop.ahbinterconnect.genblk5[0].genblk1[0] File: ../../src/hdlTop/interconnect/AhbInterconnect.sv Line: 165
# THE ADDRESS IS 1010010100 for the master =0
# ** Info: THE REQ IS 1 for the slave 0
#    Time: 16 ns  Scope: HdlTop.ahbinterconnect.genblk5[0].genblk1[1] File: ../../src/hdlTop/interconnect/AhbInterconnect.sv Line: 164
# ** Info: THE GRANT IS 0 for the slave 0
#    Time: 16 ns  Scope: HdlTop.ahbinterconnect.genblk5[0].genblk1[1] File: ../../src/hdlTop/interconnect/AhbInterconnect.sv Line: 165
# THE ADDRESS IS 10000100000 for the master =1
# ** Info: THE REQ IS 10 for the slave 1
#    Time: 16 ns  Scope: HdlTop.ahbinterconnect.genblk5[1].genblk1[0] File: ../../src/hdlTop/interconnect/AhbInterconnect.sv Line: 164
# ** Info: THE GRANT IS 0 for the slave 1
#    Time: 16 ns  Scope: HdlTop.ahbinterconnect.genblk5[1].genblk1[0] File: ../../src/hdlTop/interconnect/AhbInterconnect.sv Line: 165
# THE ADDRESS IS 1010010100 for the master =0
# ** Info: THE REQ IS 10 for the slave 1
#    Time: 16 ns  Scope: HdlTop.ahbinterconnect.genblk5[1].genblk1[1] File: ../../src/hdlTop/interconnect/AhbInterconnect.sv Line: 164
# ** Info: THE GRANT IS 1 for the slave 1
#    Time: 16 ns  Scope: HdlTop.ahbinterconnect.genblk5[1].genblk1[1] File: ../../src/hdlTop/interconnect/AhbInterconnect.sv Line: 165
# THE ADDRESS IS 10000100000 for the master =1
# ** Info: THE REQ IS 1 for the slave 0
#    Time: 16 ns  Scope: HdlTop.ahbinterconnect.genblk5[0].genblk1[0] File: ../../src/hdlTop/interconnect/AhbInterconnect.sv Line: 164
# ** Info: THE GRANT IS 1 for the slave 0
#    Time: 16 ns  Scope: HdlTop.ahbinterconnect.genblk5[0].genblk1[0] File: ../../src/hdlTop/interconnect/AhbInterconnect.sv Line: 165
# THE ADDRESS IS 1010010100 for the master =0
# ** Info: THE REQ IS 1 for the slave 0
#    Time: 16 ns  Scope: HdlTop.ahbinterconnect.genblk5[0].genblk1[1] File: ../../src/hdlTop/interconnect/AhbInterconnect.sv Line: 164
# ** Info: THE GRANT IS 0 for the slave 0
#    Time: 16 ns  Scope: HdlTop.ahbinterconnect.genblk5[0].genblk1[1] File: ../../src/hdlTop/interconnect/AhbInterconnect.sv Line: 165
# THE ADDRESS IS 10000100000 for the master =1
# ** Info: THE REQ IS 10 for the slave 1
#    Time: 16 ns  Scope: HdlTop.ahbinterconnect.genblk5[1].genblk1[0] File: ../../src/hdlTop/interconnect/AhbInterconnect.sv Line: 164
# ** Info: THE GRANT IS 0 for the slave 1
#    Time: 16 ns  Scope: HdlTop.ahbinterconnect.genblk5[1].genblk1[0] File: ../../src/hdlTop/interconnect/AhbInterconnect.sv Line: 165
# THE ADDRESS IS 1010010100 for the master =0
# ** Info: THE REQ IS 10 for the slave 1
#    Time: 16 ns  Scope: HdlTop.ahbinterconnect.genblk5[1].genblk1[1] File: ../../src/hdlTop/interconnect/AhbInterconnect.sv Line: 164
# ** Info: THE GRANT IS 1 for the slave 1
#    Time: 16 ns  Scope: HdlTop.ahbinterconnect.genblk5[1].genblk1[1] File: ../../src/hdlTop/interconnect/AhbInterconnect.sv Line: 165
# THE ADDRESS IS 10000100000 for the master =1
# UVM_INFO ../../src/hvlTop/slaveAgent/AhbSlaveMonitorProxy.sv(75) @ 25: uvm_test_top.swasthik.ahbSlaveAgent[0].ahbSlaveMonitorProxy [AhbSlaveMonitorProxy] Sending packet via analysis_port: , 
#  --------------------------------------------------------------------
# Name                Type                 Size  Value                
# --------------------------------------------------------------------
# slave Packet        AhbSlaveTransaction  -     @1761                
#   haddr             integral             32    'h294                
#   hselx             integral             2     'b1                  
#   hburst            string               6     SINGLE               
#   hmastlock         integral             1     'h0                  
#   hprot             string               21    NORMAL_NONSECURE_DATA
#   hsize             string               4     WORD                 
#   hnonsec           integral             1     'h0                  
#   hexcl             integral             1     'h0                  
#   hmaster           integral             1     'd0                  
#   htrans            string               6     NONSEQ               
#   hwrite            string               5     WRITE                
#   hreadyout         integral             1     'h1                  
#   hresp             string               0     ""                   
#   hexokay           integral             1     'h0                  
#   hready            integral             1     'h0                  
#   choosePacketData  integral             1     'd0                  
# --------------------------------------------------------------------
# 
# CONNVERTER NO OF WAIT STATES IS 3
# UVM_INFO ../../src/hvlTop/slaveAgent/AhbSlaveMonitorProxy.sv(75) @ 25: uvm_test_top.swasthik.ahbSlaveAgent[1].ahbSlaveMonitorProxy [AhbSlaveMonitorProxy] Sending packet via analysis_port: , 
#  ---------------------------------------------------------------------------
# Name                Type                 Size  Value                       
# ---------------------------------------------------------------------------
# slave Packet        AhbSlaveTransaction  -     @1765                       
#   haddr             integral             32    'h420                       
#   hselx             integral             2     'b1                         
#   hburst            string               6     SINGLE                      
#   hmastlock         integral             1     'h0                         
#   hprot             string               28    NORMAL_NONSECURE_INSTRUCTION
#   hsize             string               4     WORD                        
#   hnonsec           integral             1     'h0                         
#   hexcl             integral             1     'h0                         
#   hmaster           integral             1     'd0                         
#   htrans            string               6     NONSEQ                      
#   hwrite            string               5     WRITE                       
#   hreadyout         integral             1     'h1                         
#   hresp             string               0     ""                          
#   hexokay           integral             1     'h0                         
#   hready            integral             1     'h0                         
#   choosePacketData  integral             1     'd0                         
# ---------------------------------------------------------------------------
# 
# CONNVERTER NO OF WAIT STATES IS 3
# UVM_INFO ../../src/hvlTop/masterAgent/AhbMasterMonitorProxy.sv(103) @ 25: uvm_test_top.swasthik.ahbMasterAgent[0].ahbMasterMonitorProxy [AhbMasterMonitorProxy] [M_PROXY] Raw Struct from BFM: Addr='h294 Data='h0xxxxxxxx Write=1
# UVM_INFO ../../src/hvlTop/masterAgent/AhbMasterMonitorProxy.sv(111) @ 25: uvm_test_top.swasthik.ahbMasterAgent[0].ahbMasterMonitorProxy [AhbMasterMonitorProxy] Sending packet to Scoreboard:
# ---------------------------------------------------------------------------
# Name                      Type                  Size  Value                
# ---------------------------------------------------------------------------
# ahbMasterPacket           AhbMasterTransaction  -     @1769                
#   haddr                   integral              32    'h294                
#   hselx                   integral              2     'b0                  
#   hburst                  string                6     SINGLE               
#   hmastlock               integral              1     'h1                  
#   hprot                   string                21    NORMAL_NONSECURE_DATA
#   hsize                   string                4     WORD                 
#   hnonsec                 integral              1     'h0                  
#   hexcl                   integral              1     'h0                  
#   hmaster                 integral              1     'd0                  
#   htrans                  string                6     NONSEQ               
#   hwrite                  string                5     WRITE                
#   hreadyout               integral              1     'h0                  
#   hresp                   string                4     OKAY                 
#   hexokay                 integral              1     'h0                  
#   hready                  integral              1     'h1                  
#   noOfwaitStatesDetected  integral              32    'h0                  
# ---------------------------------------------------------------------------
# 
# UVM_INFO ../../src/hdlTop/masterAgentBFM/AhbMasterMonitorBFM.sv(52) @ 25: reporter [MASTER AGENT MONITOR BFM] [25]  sampleData CALLED
# UVM_INFO ../../src/hvlTop/masterAgent/AhbMasterMonitorProxy.sv(103) @ 25: uvm_test_top.swasthik.ahbMasterAgent[1].ahbMasterMonitorProxy [AhbMasterMonitorProxy] [M_PROXY] Raw Struct from BFM: Addr='h420 Data='h0xxxxxxxx Write=1
# UVM_INFO ../../src/hvlTop/masterAgent/AhbMasterMonitorProxy.sv(111) @ 25: uvm_test_top.swasthik.ahbMasterAgent[1].ahbMasterMonitorProxy [AhbMasterMonitorProxy] Sending packet to Scoreboard:
# ----------------------------------------------------------------------------------
# Name                      Type                  Size  Value                       
# ----------------------------------------------------------------------------------
# ahbMasterPacket           AhbMasterTransaction  -     @1773                       
#   haddr                   integral              32    'h420                       
#   hselx                   integral              2     'b0                         
#   hburst                  string                6     SINGLE                      
#   hmastlock               integral              1     'h1                         
#   hprot                   string                28    NORMAL_NONSECURE_INSTRUCTION
#   hsize                   string                4     WORD                        
#   hnonsec                 integral              1     'h0                         
#   hexcl                   integral              1     'h0                         
#   hmaster                 integral              1     'd0                         
#   htrans                  string                6     NONSEQ                      
#   hwrite                  string                5     WRITE                       
#   hreadyout               integral              1     'h0                         
#   hresp                   string                4     OKAY                        
#   hexokay                 integral              1     'h0                         
#   hready                  integral              1     'h1                         
#   noOfwaitStatesDetected  integral              32    'h0                         
# ----------------------------------------------------------------------------------
# 
# UVM_INFO ../../src/hdlTop/masterAgentBFM/AhbMasterMonitorBFM.sv(52) @ 25: reporter [MASTER AGENT MONITOR BFM] [25]  sampleData CALLED
# ** Info: THE REQ IS 1 for the slave 0
#    Time: 25 ns  Scope: HdlTop.ahbinterconnect.genblk5[0].genblk1[0] File: ../../src/hdlTop/interconnect/AhbInterconnect.sv Line: 164
# ** Info: THE GRANT IS 1 for the slave 0
#    Time: 25 ns  Scope: HdlTop.ahbinterconnect.genblk5[0].genblk1[0] File: ../../src/hdlTop/interconnect/AhbInterconnect.sv Line: 165
# THE ADDRESS IS 1010010100 for the master =0
# ** Info: THE REQ IS 1 for the slave 0
#    Time: 25 ns  Scope: HdlTop.ahbinterconnect.genblk5[0].genblk1[1] File: ../../src/hdlTop/interconnect/AhbInterconnect.sv Line: 164
# ** Info: THE GRANT IS 0 for the slave 0
#    Time: 25 ns  Scope: HdlTop.ahbinterconnect.genblk5[0].genblk1[1] File: ../../src/hdlTop/interconnect/AhbInterconnect.sv Line: 165
# THE ADDRESS IS 10000100000 for the master =1
# ** Info: THE REQ IS 10 for the slave 1
#    Time: 25 ns  Scope: HdlTop.ahbinterconnect.genblk5[1].genblk1[0] File: ../../src/hdlTop/interconnect/AhbInterconnect.sv Line: 164
# ** Info: THE GRANT IS 0 for the slave 1
#    Time: 25 ns  Scope: HdlTop.ahbinterconnect.genblk5[1].genblk1[0] File: ../../src/hdlTop/interconnect/AhbInterconnect.sv Line: 165
# THE ADDRESS IS 1010010100 for the master =0
# ** Info: THE REQ IS 10 for the slave 1
#    Time: 25 ns  Scope: HdlTop.ahbinterconnect.genblk5[1].genblk1[1] File: ../../src/hdlTop/interconnect/AhbInterconnect.sv Line: 164
# ** Info: THE GRANT IS 1 for the slave 1
#    Time: 25 ns  Scope: HdlTop.ahbinterconnect.genblk5[1].genblk1[1] File: ../../src/hdlTop/interconnect/AhbInterconnect.sv Line: 165
# THE ADDRESS IS 10000100000 for the master =1
# UVM_INFO ../../src/hdlTop/masterAgentBFM/AhbMasterDriverBFM.sv(197) @ 25: reporter [MASTER AGENT DRIVER BFM] [25]  makingStrobe CALLED
# UVM_INFO ../../src/hdlTop/masterAgentBFM/AhbMasterDriverBFM.sv(95) @ 25: reporter [MASTER AGENT DRIVER BFM] [25]  driveIdle called from driveSingleTransfer with hmastlock = 1
# UVM_INFO ../../src/hdlTop/masterAgentBFM/AhbMasterDriverBFM.sv(213) @ 25: reporter [MASTER AGENT DRIVER BFM] [25]  driveIdle STARTED
# UVM_INFO ../../src/hdlTop/masterAgentBFM/AhbMasterDriverBFM.sv(197) @ 25: reporter [MASTER AGENT DRIVER BFM] [25]  makingStrobe CALLED
# UVM_INFO ../../src/hdlTop/masterAgentBFM/AhbMasterDriverBFM.sv(95) @ 25: reporter [MASTER AGENT DRIVER BFM] [25]  driveIdle called from driveSingleTransfer with hmastlock = 1
# UVM_INFO ../../src/hdlTop/masterAgentBFM/AhbMasterDriverBFM.sv(213) @ 25: reporter [MASTER AGENT DRIVER BFM] [25]  driveIdle STARTED
# ** Info: THE REQ IS 0 for the slave 0
#    Time: 26 ns  Scope: HdlTop.ahbinterconnect.genblk5[0].genblk1[0] File: ../../src/hdlTop/interconnect/AhbInterconnect.sv Line: 164
# ** Info: THE GRANT IS 0 for the slave 0
#    Time: 26 ns  Scope: HdlTop.ahbinterconnect.genblk5[0].genblk1[0] File: ../../src/hdlTop/interconnect/AhbInterconnect.sv Line: 165
# THE ADDRESS IS 1010010100 for the master =0
# ** Info: THE REQ IS 0 for the slave 0
#    Time: 26 ns  Scope: HdlTop.ahbinterconnect.genblk5[0].genblk1[1] File: ../../src/hdlTop/interconnect/AhbInterconnect.sv Line: 164
# ** Info: THE GRANT IS 0 for the slave 0
#    Time: 26 ns  Scope: HdlTop.ahbinterconnect.genblk5[0].genblk1[1] File: ../../src/hdlTop/interconnect/AhbInterconnect.sv Line: 165
# THE ADDRESS IS 10000100000 for the master =1
# ** Info: THE REQ IS 0 for the slave 1
#    Time: 26 ns  Scope: HdlTop.ahbinterconnect.genblk5[1].genblk1[0] File: ../../src/hdlTop/interconnect/AhbInterconnect.sv Line: 164
# ** Info: THE GRANT IS 0 for the slave 1
#    Time: 26 ns  Scope: HdlTop.ahbinterconnect.genblk5[1].genblk1[0] File: ../../src/hdlTop/interconnect/AhbInterconnect.sv Line: 165
# THE ADDRESS IS 1010010100 for the master =0
# ** Info: THE REQ IS 0 for the slave 1
#    Time: 26 ns  Scope: HdlTop.ahbinterconnect.genblk5[1].genblk1[1] File: ../../src/hdlTop/interconnect/AhbInterconnect.sv Line: 164
# ** Info: THE GRANT IS 0 for the slave 1
#    Time: 26 ns  Scope: HdlTop.ahbinterconnect.genblk5[1].genblk1[1] File: ../../src/hdlTop/interconnect/AhbInterconnect.sv Line: 165
# THE ADDRESS IS 10000100000 for the master =1
# UVM_INFO ../../src/hvlTop/slaveAgent/AhbSlaveMonitorProxy.sv(75) @ 35: uvm_test_top.swasthik.ahbSlaveAgent[0].ahbSlaveMonitorProxy [AhbSlaveMonitorProxy] Sending packet via analysis_port: , 
#  --------------------------------------------------------------------
# Name                Type                 Size  Value                
# --------------------------------------------------------------------
# slave Packet        AhbSlaveTransaction  -     @1777                
#   haddr             integral             32    'h294                
#   hselx             integral             2     'b1                  
#   hburst            string               6     SINGLE               
#   hmastlock         integral             1     'h0                  
#   hprot             string               21    NORMAL_NONSECURE_DATA
#   hsize             string               4     WORD                 
#   hnonsec           integral             1     'h0                  
#   hexcl             integral             1     'h0                  
#   hmaster           integral             1     'd0                  
#   htrans            string               4     IDLE                 
#   hwrite            string               5     WRITE                
#   hreadyout         integral             1     'h0                  
#   hresp             string               0     ""                   
#   hexokay           integral             1     'h0                  
#   hready            integral             1     'h0                  
#   choosePacketData  integral             1     'd0                  
#   hwdata[0]         integral             32    'h38b85549           
#   hwstrb[0]         integral             4     'b0                  
# --------------------------------------------------------------------
# 
# CONNVERTER NO OF WAIT STATES IS 3
# UVM_INFO ../../src/hvlTop/slaveAgent/AhbSlaveMonitorProxy.sv(75) @ 35: uvm_test_top.swasthik.ahbSlaveAgent[1].ahbSlaveMonitorProxy [AhbSlaveMonitorProxy] Sending packet via analysis_port: , 
#  ---------------------------------------------------------------------------
# Name                Type                 Size  Value                       
# ---------------------------------------------------------------------------
# slave Packet        AhbSlaveTransaction  -     @1781                       
#   haddr             integral             32    'h420                       
#   hselx             integral             2     'b1                         
#   hburst            string               6     SINGLE                      
#   hmastlock         integral             1     'h0                         
#   hprot             string               28    NORMAL_NONSECURE_INSTRUCTION
#   hsize             string               4     WORD                        
#   hnonsec           integral             1     'h0                         
#   hexcl             integral             1     'h0                         
#   hmaster           integral             1     'd0                         
#   htrans            string               4     IDLE                        
#   hwrite            string               5     WRITE                       
#   hreadyout         integral             1     'h0                         
#   hresp             string               0     ""                          
#   hexokay           integral             1     'h0                         
#   hready            integral             1     'h0                         
#   choosePacketData  integral             1     'd0                         
#   hwdata[0]         integral             32    'haa2f3415                  
#   hwstrb[0]         integral             4     'b0                         
# ---------------------------------------------------------------------------
# 
# CONNVERTER NO OF WAIT STATES IS 3
# UVM_INFO ../../src/hvlTop/masterAgent/AhbMasterMonitorProxy.sv(103) @ 35: uvm_test_top.swasthik.ahbMasterAgent[0].ahbMasterMonitorProxy [AhbMasterMonitorProxy] [M_PROXY] Raw Struct from BFM: Addr='h294 Data='h38b85549 Write=1
# UVM_INFO ../../src/hvlTop/masterAgent/AhbMasterMonitorProxy.sv(111) @ 35: uvm_test_top.swasthik.ahbMasterAgent[0].ahbMasterMonitorProxy [AhbMasterMonitorProxy] Sending packet to Scoreboard:
# ---------------------------------------------------------------------------
# Name                      Type                  Size  Value                
# ---------------------------------------------------------------------------
# ahbMasterPacket           AhbMasterTransaction  -     @1785                
#   haddr                   integral              32    'h294                
#   hselx                   integral              2     'b0                  
#   hburst                  string                6     SINGLE               
#   hmastlock               integral              1     'h0                  
#   hprot                   string                21    NORMAL_NONSECURE_DATA
#   hsize                   string                4     WORD                 
#   hnonsec                 integral              1     'h0                  
#   hexcl                   integral              1     'h0                  
#   hmaster                 integral              1     'd0                  
#   htrans                  string                4     IDLE                 
#   hwrite                  string                5     WRITE                
#   hreadyout               integral              1     'h0                  
#   hresp                   string                4     OKAY                 
#   hexokay                 integral              1     'h0                  
#   hready                  integral              1     'h1                  
#   noOfwaitStatesDetected  integral              32    'h0                  
#   hwdata[0]               integral              32    'h38b85549           
#   hwstrb[0]               integral              4     'b1111               
# ---------------------------------------------------------------------------
# 
# UVM_INFO ../../src/hdlTop/masterAgentBFM/AhbMasterMonitorBFM.sv(52) @ 35: reporter [MASTER AGENT MONITOR BFM] [35]  sampleData CALLED
# UVM_INFO ../../src/hvlTop/masterAgent/AhbMasterMonitorProxy.sv(103) @ 35: uvm_test_top.swasthik.ahbMasterAgent[1].ahbMasterMonitorProxy [AhbMasterMonitorProxy] [M_PROXY] Raw Struct from BFM: Addr='h420 Data='haa2f3415 Write=1
# UVM_INFO ../../src/hvlTop/masterAgent/AhbMasterMonitorProxy.sv(111) @ 35: uvm_test_top.swasthik.ahbMasterAgent[1].ahbMasterMonitorProxy [AhbMasterMonitorProxy] Sending packet to Scoreboard:
# ----------------------------------------------------------------------------------
# Name                      Type                  Size  Value                       
# ----------------------------------------------------------------------------------
# ahbMasterPacket           AhbMasterTransaction  -     @1789                       
#   haddr                   integral              32    'h420                       
#   hselx                   integral              2     'b0                         
#   hburst                  string                6     SINGLE                      
#   hmastlock               integral              1     'h0                         
#   hprot                   string                28    NORMAL_NONSECURE_INSTRUCTION
#   hsize                   string                4     WORD                        
#   hnonsec                 integral              1     'h0                         
#   hexcl                   integral              1     'h0                         
#   hmaster                 integral              1     'd0                         
#   htrans                  string                4     IDLE                        
#   hwrite                  string                5     WRITE                       
#   hreadyout               integral              1     'h0                         
#   hresp                   string                4     OKAY                        
#   hexokay                 integral              1     'h0                         
#   hready                  integral              1     'h1                         
#   noOfwaitStatesDetected  integral              32    'h0                         
#   hwdata[0]               integral              32    'haa2f3415                  
#   hwstrb[0]               integral              4     'b1111                      
# ----------------------------------------------------------------------------------
# 
# UVM_INFO ../../src/hdlTop/masterAgentBFM/AhbMasterMonitorBFM.sv(52) @ 35: reporter [MASTER AGENT MONITOR BFM] [35]  sampleData CALLED
# UVM_INFO ../../src/hdlTop/masterAgentBFM/AhbMasterDriverBFM.sv(197) @ 35: reporter [MASTER AGENT DRIVER BFM] [35]  makingStrobe CALLED
# UVM_INFO ../../src/hvlTop/masterAgent/AhbMasterDriverProxy.sv(106) @ 35: uvm_test_top.swasthik.ahbMasterAgent[1].ahbMasterDriverProxy [AhbMasterDriverProxy] Completed Driving Transaction at Time: 35
# UVM_INFO ../../src/hdlTop/masterAgentBFM/AhbMasterDriverBFM.sv(197) @ 35: reporter [MASTER AGENT DRIVER BFM] [35]  makingStrobe CALLED
# UVM_INFO ../../src/hvlTop/masterAgent/AhbMasterDriverProxy.sv(106) @ 35: uvm_test_top.swasthik.ahbMasterAgent[0].ahbMasterDriverProxy [AhbMasterDriverProxy] Completed Driving Transaction at Time: 35
# 
#  
#  
#  I AM DONE 
#  
#  
#  
# MASTER SEQUENCE DONE 
# 
#  
#  
#  I AM DONE 
#  
#  
#  
# MASTER SEQUENCE DONE 
# UVM_INFO ../../src/hvlTop/slaveAgent/AhbSlaveMonitorProxy.sv(75) @ 45: uvm_test_top.swasthik.ahbSlaveAgent[0].ahbSlaveMonitorProxy [AhbSlaveMonitorProxy] Sending packet via analysis_port: , 
#  --------------------------------------------------------------------
# Name                Type                 Size  Value                
# --------------------------------------------------------------------
# slave Packet        AhbSlaveTransaction  -     @1796                
#   haddr             integral             32    'h294                
#   hselx             integral             2     'b1                  
#   hburst            string               6     SINGLE               
#   hmastlock         integral             1     'h0                  
#   hprot             string               21    NORMAL_NONSECURE_DATA
#   hsize             string               4     WORD                 
#   hnonsec           integral             1     'h0                  
#   hexcl             integral             1     'h0                  
#   hmaster           integral             1     'd0                  
#   htrans            string               4     IDLE                 
#   hwrite            string               5     WRITE                
#   hreadyout         integral             1     'h0                  
#   hresp             string               0     ""                   
#   hexokay           integral             1     'h0                  
#   hready            integral             1     'h0                  
#   choosePacketData  integral             1     'd0                  
#   hwdata[0]         integral             32    'h38b85549           
#   hwstrb[0]         integral             4     'b0                  
# --------------------------------------------------------------------
# 
# CONNVERTER NO OF WAIT STATES IS 3
# UVM_INFO ../../src/hvlTop/slaveAgent/AhbSlaveMonitorProxy.sv(75) @ 45: uvm_test_top.swasthik.ahbSlaveAgent[1].ahbSlaveMonitorProxy [AhbSlaveMonitorProxy] Sending packet via analysis_port: , 
#  ---------------------------------------------------------------------------
# Name                Type                 Size  Value                       
# ---------------------------------------------------------------------------
# slave Packet        AhbSlaveTransaction  -     @1800                       
#   haddr             integral             32    'h420                       
#   hselx             integral             2     'b1                         
#   hburst            string               6     SINGLE                      
#   hmastlock         integral             1     'h0                         
#   hprot             string               28    NORMAL_NONSECURE_INSTRUCTION
#   hsize             string               4     WORD                        
#   hnonsec           integral             1     'h0                         
#   hexcl             integral             1     'h0                         
#   hmaster           integral             1     'd0                         
#   htrans            string               4     IDLE                        
#   hwrite            string               5     WRITE                       
#   hreadyout         integral             1     'h0                         
#   hresp             string               0     ""                          
#   hexokay           integral             1     'h0                         
#   hready            integral             1     'h0                         
#   choosePacketData  integral             1     'd0                         
#   hwdata[0]         integral             32    'haa2f3415                  
#   hwstrb[0]         integral             4     'b0                         
# ---------------------------------------------------------------------------
# 
# CONNVERTER NO OF WAIT STATES IS 3
# UVM_INFO ../../src/hvlTop/masterAgent/AhbMasterMonitorProxy.sv(103) @ 45: uvm_test_top.swasthik.ahbMasterAgent[0].ahbMasterMonitorProxy [AhbMasterMonitorProxy] [M_PROXY] Raw Struct from BFM: Addr='h294 Data='h38b85549 Write=1
# UVM_INFO ../../src/hvlTop/masterAgent/AhbMasterMonitorProxy.sv(111) @ 45: uvm_test_top.swasthik.ahbMasterAgent[0].ahbMasterMonitorProxy [AhbMasterMonitorProxy] Sending packet to Scoreboard:
# ---------------------------------------------------------------------------
# Name                      Type                  Size  Value                
# ---------------------------------------------------------------------------
# ahbMasterPacket           AhbMasterTransaction  -     @1804                
#   haddr                   integral              32    'h294                
#   hselx                   integral              2     'b0                  
#   hburst                  string                6     SINGLE               
#   hmastlock               integral              1     'h0                  
#   hprot                   string                21    NORMAL_NONSECURE_DATA
#   hsize                   string                4     WORD                 
#   hnonsec                 integral              1     'h0                  
#   hexcl                   integral              1     'h0                  
#   hmaster                 integral              1     'd0                  
#   htrans                  string                4     IDLE                 
#   hwrite                  string                5     WRITE                
#   hreadyout               integral              1     'h0                  
#   hresp                   string                4     OKAY                 
#   hexokay                 integral              1     'h0                  
#   hready                  integral              1     'h1                  
#   noOfwaitStatesDetected  integral              32    'h0                  
#   hwdata[0]               integral              32    'h38b85549           
#   hwstrb[0]               integral              4     'b1111               
# ---------------------------------------------------------------------------
# 
# UVM_INFO ../../src/hdlTop/masterAgentBFM/AhbMasterMonitorBFM.sv(52) @ 45: reporter [MASTER AGENT MONITOR BFM] [45]  sampleData CALLED
# UVM_INFO ../../src/hvlTop/masterAgent/AhbMasterMonitorProxy.sv(103) @ 45: uvm_test_top.swasthik.ahbMasterAgent[1].ahbMasterMonitorProxy [AhbMasterMonitorProxy] [M_PROXY] Raw Struct from BFM: Addr='h420 Data='haa2f3415 Write=1
# UVM_INFO ../../src/hvlTop/masterAgent/AhbMasterMonitorProxy.sv(111) @ 45: uvm_test_top.swasthik.ahbMasterAgent[1].ahbMasterMonitorProxy [AhbMasterMonitorProxy] Sending packet to Scoreboard:
# ----------------------------------------------------------------------------------
# Name                      Type                  Size  Value                       
# ----------------------------------------------------------------------------------
# ahbMasterPacket           AhbMasterTransaction  -     @1808                       
#   haddr                   integral              32    'h420                       
#   hselx                   integral              2     'b0                         
#   hburst                  string                6     SINGLE                      
#   hmastlock               integral              1     'h0                         
#   hprot                   string                28    NORMAL_NONSECURE_INSTRUCTION
#   hsize                   string                4     WORD                        
#   hnonsec                 integral              1     'h0                         
#   hexcl                   integral              1     'h0                         
#   hmaster                 integral              1     'd0                         
#   htrans                  string                4     IDLE                        
#   hwrite                  string                5     WRITE                       
#   hreadyout               integral              1     'h0                         
#   hresp                   string                4     OKAY                        
#   hexokay                 integral              1     'h0                         
#   hready                  integral              1     'h1                         
#   noOfwaitStatesDetected  integral              32    'h0                         
#   hwdata[0]               integral              32    'haa2f3415                  
#   hwstrb[0]               integral              4     'b1111                      
# ----------------------------------------------------------------------------------
# 
# UVM_INFO ../../src/hdlTop/masterAgentBFM/AhbMasterMonitorBFM.sv(52) @ 45: reporter [MASTER AGENT MONITOR BFM] [45]  sampleData CALLED
# UVM_INFO ../../src/hvlTop/slaveAgent/AhbSlaveMonitorProxy.sv(75) @ 55: uvm_test_top.swasthik.ahbSlaveAgent[0].ahbSlaveMonitorProxy [AhbSlaveMonitorProxy] Sending packet via analysis_port: , 
#  --------------------------------------------------------------------
# Name                Type                 Size  Value                
# --------------------------------------------------------------------
# slave Packet        AhbSlaveTransaction  -     @1812                
#   haddr             integral             32    'h294                
#   hselx             integral             2     'b1                  
#   hburst            string               6     SINGLE               
#   hmastlock         integral             1     'h0                  
#   hprot             string               21    NORMAL_NONSECURE_DATA
#   hsize             string               4     WORD                 
#   hnonsec           integral             1     'h0                  
#   hexcl             integral             1     'h0                  
#   hmaster           integral             1     'd0                  
#   htrans            string               4     IDLE                 
#   hwrite            string               5     WRITE                
#   hreadyout         integral             1     'h0                  
#   hresp             string               0     ""                   
#   hexokay           integral             1     'h0                  
#   hready            integral             1     'h0                  
#   choosePacketData  integral             1     'd0                  
#   hwdata[0]         integral             32    'h38b85549           
#   hwstrb[0]         integral             4     'b0                  
# --------------------------------------------------------------------
# 
# CONNVERTER NO OF WAIT STATES IS 3
# UVM_INFO ../../src/hvlTop/slaveAgent/AhbSlaveMonitorProxy.sv(75) @ 55: uvm_test_top.swasthik.ahbSlaveAgent[1].ahbSlaveMonitorProxy [AhbSlaveMonitorProxy] Sending packet via analysis_port: , 
#  ---------------------------------------------------------------------------
# Name                Type                 Size  Value                       
# ---------------------------------------------------------------------------
# slave Packet        AhbSlaveTransaction  -     @1816                       
#   haddr             integral             32    'h420                       
#   hselx             integral             2     'b1                         
#   hburst            string               6     SINGLE                      
#   hmastlock         integral             1     'h0                         
#   hprot             string               28    NORMAL_NONSECURE_INSTRUCTION
#   hsize             string               4     WORD                        
#   hnonsec           integral             1     'h0                         
#   hexcl             integral             1     'h0                         
#   hmaster           integral             1     'd0                         
#   htrans            string               4     IDLE                        
#   hwrite            string               5     WRITE                       
#   hreadyout         integral             1     'h0                         
#   hresp             string               0     ""                          
#   hexokay           integral             1     'h0                         
#   hready            integral             1     'h0                         
#   choosePacketData  integral             1     'd0                         
#   hwdata[0]         integral             32    'haa2f3415                  
#   hwstrb[0]         integral             4     'b0                         
# ---------------------------------------------------------------------------
# 
# CONNVERTER NO OF WAIT STATES IS 3
# UVM_INFO ../../src/hvlTop/masterAgent/AhbMasterMonitorProxy.sv(103) @ 55: uvm_test_top.swasthik.ahbMasterAgent[0].ahbMasterMonitorProxy [AhbMasterMonitorProxy] [M_PROXY] Raw Struct from BFM: Addr='h294 Data='h38b85549 Write=1
# UVM_INFO ../../src/hvlTop/masterAgent/AhbMasterMonitorProxy.sv(111) @ 55: uvm_test_top.swasthik.ahbMasterAgent[0].ahbMasterMonitorProxy [AhbMasterMonitorProxy] Sending packet to Scoreboard:
# ---------------------------------------------------------------------------
# Name                      Type                  Size  Value                
# ---------------------------------------------------------------------------
# ahbMasterPacket           AhbMasterTransaction  -     @1820                
#   haddr                   integral              32    'h294                
#   hselx                   integral              2     'b0                  
#   hburst                  string                6     SINGLE               
#   hmastlock               integral              1     'h0                  
#   hprot                   string                21    NORMAL_NONSECURE_DATA
#   hsize                   string                4     WORD                 
#   hnonsec                 integral              1     'h0                  
#   hexcl                   integral              1     'h0                  
#   hmaster                 integral              1     'd0                  
#   htrans                  string                4     IDLE                 
#   hwrite                  string                5     WRITE                
#   hreadyout               integral              1     'h0                  
#   hresp                   string                4     OKAY                 
#   hexokay                 integral              1     'h0                  
#   hready                  integral              1     'h1                  
#   noOfwaitStatesDetected  integral              32    'h0                  
#   hwdata[0]               integral              32    'h38b85549           
#   hwstrb[0]               integral              4     'b1111               
# ---------------------------------------------------------------------------
# 
# UVM_INFO ../../src/hdlTop/masterAgentBFM/AhbMasterMonitorBFM.sv(52) @ 55: reporter [MASTER AGENT MONITOR BFM] [55]  sampleData CALLED
# UVM_INFO ../../src/hvlTop/masterAgent/AhbMasterMonitorProxy.sv(103) @ 55: uvm_test_top.swasthik.ahbMasterAgent[1].ahbMasterMonitorProxy [AhbMasterMonitorProxy] [M_PROXY] Raw Struct from BFM: Addr='h420 Data='haa2f3415 Write=1
# UVM_INFO ../../src/hvlTop/masterAgent/AhbMasterMonitorProxy.sv(111) @ 55: uvm_test_top.swasthik.ahbMasterAgent[1].ahbMasterMonitorProxy [AhbMasterMonitorProxy] Sending packet to Scoreboard:
# ----------------------------------------------------------------------------------
# Name                      Type                  Size  Value                       
# ----------------------------------------------------------------------------------
# ahbMasterPacket           AhbMasterTransaction  -     @1824                       
#   haddr                   integral              32    'h420                       
#   hselx                   integral              2     'b0                         
#   hburst                  string                6     SINGLE                      
#   hmastlock               integral              1     'h0                         
#   hprot                   string                28    NORMAL_NONSECURE_INSTRUCTION
#   hsize                   string                4     WORD                        
#   hnonsec                 integral              1     'h0                         
#   hexcl                   integral              1     'h0                         
#   hmaster                 integral              1     'd0                         
#   htrans                  string                4     IDLE                        
#   hwrite                  string                5     WRITE                       
#   hreadyout               integral              1     'h0                         
#   hresp                   string                4     OKAY                        
#   hexokay                 integral              1     'h0                         
#   hready                  integral              1     'h1                         
#   noOfwaitStatesDetected  integral              32    'h0                         
#   hwdata[0]               integral              32    'haa2f3415                  
#   hwstrb[0]               integral              4     'b1111                      
# ----------------------------------------------------------------------------------
# 
# UVM_INFO ../../src/hdlTop/masterAgentBFM/AhbMasterMonitorBFM.sv(52) @ 55: reporter [MASTER AGENT MONITOR BFM] [55]  sampleData CALLED
# UVM_INFO ../../src/hdlTop/slaveAgentBFM/AhbSlaveDriverBFM.sv(106) @ 55: reporter [SLAVE DRIVER BFM] the data to be written is :aa2f3415
